date Sat Jun 06 03:31:23.626 PM 2026
base hex  timestamps absolute
internal events logged
// version 8.0.0
Begin Triggerblock Sat Jun 06 03:31:23.626 PM 2026
   0.000000 Start of measurement
   0.000000 1  CFF21CAx        Rx   d 8 03 00 80 0C 41 3D 00 20
   0.005000 1  18F100F3x       Rx   d 8 02 CC 7D 96 4D FA 14 00
   0.006000 1  18F102F3x       Rx   d 8 0D FF 0D FA 13 02 00 05
   0.008000 1  18F106F3x       Rx   d 8 45 E0 FC FF FF FF FF FF
   0.010000 1  18F107F3x       Rx   d 8 38 A4 30 70 01 42 00 AC
   0.012000 1  18F108F3x       Rx   d 8 00 00 00 00 00 00 00 00
   0.013000 1  18F155F3x       Rx   d 8 35 35 35 35 35 37 36 00
   0.015000 1  18F156F3x       Rx   d 8 00 00 00 00 00 00 00 00
   0.017000 1  18F157F3x       Rx   d 8 00 00 00 00 00 00 00 00
   0.018000 1  CFF21CAx        Rx   d 8 03 00 80 0C 41 3D 00 20
   0.020000 1  18F100D0x       Rx   d 8 0C FF FF FF FF FF FF FF
   0.022000 1  18F158F3x       Rx   d 8 00 00 00 00 00 00 00 00
   0.024000 1  18F159F3x       Rx   d 8 00 00 00 00 00 00 00 00
   0.026000 1  18F15AF3x       Rx   d 8 00 00 00 00 00 00 00 00
   0.027000 1  18F15BF3x       Rx   d 7 00 00 00 00 00 00 00
   0.029000 1  18F15CF3x       Rx   d 8 00 00 00 00 00 00 00 00
   0.031000 1  18F15DF3x       Rx   d 8 00 00 00 00 00 00 00 00
   0.032000 1  18F15EF3x       Rx   d 8 00 00 00 00 00 00 00 00
   0.034000 1  CFF21CAx        Rx   d 8 02 00 80 0C 41 3D 00 20
   0.037000 1  CFF21CAx        Rx   d 8 02 00 80 0C 41 3D 00 20
   0.041000 1  18F100D0x       Rx   d 8 0C FF FF FF FF FF FF FF
   0.049000 1  CFF21CAx        Rx   d 8 02 00 80 0C 41 3D 00 20
   0.061000 1  CFF21CAx        Rx   d 8 03 00 80 0C 41 3D 00 20
   0.065000 1  18F100D0x       Rx   d 8 0C FF FF FF FF FF FF FF
   0.073000 1  CFF21CAx        Rx   d 8 03 00 80 0C 41 3D 00 20
   0.085000 1  CFF21CAx        Rx   d 8 03 00 80 0C 41 3D 00 20
   0.086000 1  18FF2112x       Rx   d 8 01 00 00 00 00 00 00 00
   0.093000 1  18F100D0x       Rx   d 8 0C FF FF FF FF FF FF FF
   0.097000 1  CFF21CAx        Rx   d 8 03 00 80 0C 41 3D 00 20
   0.105000 1  18F100F3x       Rx   d 8 02 CC 7D 95 4D FA 14 00
   0.106000 1  18F102F3x       Rx   d 8 0D FF 0D FA 13 02 00 05
   0.108000 1  18F106F3x       Rx   d 8 45 E0 FC FF FF FF FF FF
   0.110000 1  18F107F3x       Rx   d 8 38 A4 30 70 01 42 00 AC
   0.112000 1  CFF21CAx        Rx   d 8 03 00 80 0C 41 3D 00 20
   0.113000 1  18F108F3x       Rx   d 8 00 00 00 00 00 00 00 00
   0.115000 1  18F155F3x       Rx   d 8 35 35 35 35 35 37 36 00
   0.117000 1  18F156F3x       Rx   d 8 00 00 00 00 00 00 00 00
   0.119000 1  18F157F3x       Rx   d 8 00 00 00 00 00 00 00 00
   0.121000 1  18F158F3x       Rx   d 8 00 00 00 00 00 00 00 00
   0.123000 1  18F159F3x       Rx   d 8 00 00 00 00 00 00 00 00
   0.124000 1  18F15AF3x       Rx   d 8 00 00 00 00 00 00 00 00
   0.126000 1  18F15BF3x       Rx   d 7 00 00 00 00 00 00 00
   0.127000 1  18F15CF3x       Rx   d 8 00 00 00 00 00 00 00 00
   0.129000 1  18F100D0x       Rx   d 8 0C FF FF FF FF FF FF FF
   0.131000 1  18F15DF3x       Rx   d 8 00 00 00 00 00 00 00 00
   0.132000 1  18F15EF3x       Rx   d 8 00 00 00 00 00 00 00 00
   0.134000 1  CFF21CAx        Rx   d 8 03 00 80 0C 41 3D 00 20
   0.136000 1  CFF21CAx        Rx   d 8 03 00 80 0C 41 3D 00 20
   0.145000 1  CFF21CAx        Rx   d 8 03 00 80 0C 41 3D 00 20
   0.146000 1  18F100D0x       Rx   d 8 0C FF FF FF FF FF FF FF
   0.157000 1  CFF21CAx        Rx   d 8 03 00 80 0C 41 3D 00 20
   0.169000 1  CFF21CAx        Rx   d 8 03 00 80 0C 41 3D 00 20
   0.170000 1  18F100D0x       Rx   d 8 0C FF FF FF FF FF FF FF
   0.182000 1  CFF21CAx        Rx   d 8 03 00 80 0C 41 3D 00 20
   0.183000 1  18FF2112x       Rx   d 8 01 00 00 00 00 00 00 00
   0.193000 1  CFF21CAx        Rx   d 8 03 00 80 0C 41 3D 00 20
   0.197000 1  18F100D0x       Rx   d 8 0C FF FF FF FF FF FF FF
   0.205000 1  18F100F3x       Rx   d 8 02 CC 7D 95 4D FA 14 00
   0.206000 1  18F102F3x       Rx   d 8 0D FF 0D FA 13 02 00 05
   0.208000 1  CFF21CAx        Rx   d 8 03 00 80 0C 41 3D 00 20
   0.210000 1  18F106F3x       Rx   d 8 45 E0 FC FF FF FF FF FF
   0.212000 1  18F107F3x       Rx   d 8 38 A4 30 70 01 42 00 AC
   0.213000 1  18F108F3x       Rx   d 8 00 00 00 00 00 00 00 00
   0.215000 1  18F155F3x       Rx   d 8 35 35 35 35 35 37 36 00
   0.217000 1  18F156F3x       Rx   d 8 00 00 00 00 00 00 00 00
   0.219000 1  18F157F3x       Rx   d 8 00 00 00 00 00 00 00 00
   0.221000 1  18F158F3x       Rx   d 8 00 00 00 00 00 00 00 00
   0.222000 1  18F159F3x       Rx   d 8 00 00 00 00 00 00 00 00
   0.224000 1  18F15AF3x       Rx   d 8 00 00 00 00 00 00 00 00
   0.226000 1  18F15BF3x       Rx   d 7 00 00 00 00 00 00 00
   0.228000 1  CFF21CAx        Rx   d 8 03 00 80 0C 41 3D 00 20
   0.229000 1  18F15CF3x       Rx   d 8 00 00 00 00 00 00 00 00
   0.231000 1  18F15DF3x       Rx   d 8 00 00 00 00 00 00 00 00
   0.233000 1  18F15EF3x       Rx   d 8 00 00 00 00 00 00 00 00
   0.234000 1  18F100D0x       Rx   d 8 0C FF FF FF FF FF FF FF
   0.236000 1  CFF21CAx        Rx   d 8 03 00 80 0C 41 3D 00 20
   0.241000 1  18F104F3x       Rx   d 8 37 35 06 01 02 FF FF FF
   0.242000 1  CFF21CAx        Rx   d 8 03 00 80 0C 41 3D 00 20
   0.244000 1  18F113F3x       Rx   d 8 0D FC 0D FA 0D FC 0D FE
   0.246000 1  18F114F3x       Rx   d 8 0D FD 0D FC 0D FE 0D FC
   0.248000 1  18F115F3x       Rx   d 8 0D FC 0D FC 0D FC 0D FB
   0.250000 1  18F116F3x       Rx   d 8 0D FD 0D FC 0D FE 0D FE
   0.251000 1  18F117F3x       Rx   d 8 0D FE 0D FE 0D FF 0D FE
   0.252000 1  18F118F3x       Rx   d 8 00 00 00 00 00 00 00 00
   0.254000 1  18F119F3x       Rx   d 8 00 00 00 00 00 00 00 00
   0.255000 1  18F11AF3x       Rx   d 8 00 00 00 00 00 00 00 00
   0.256000 1  18F11BF3x       Rx   d 8 00 00 00 00 00 00 00 00
   0.257000 1  18F11CF3x       Rx   d 8 00 00 00 00 00 00 00 00
   0.274000 1  18F11DF3x       Rx   d 8 00 00 00 00 00 00 00 00
   0.276000 1  18F11EF3x       Rx   d 8 00 00 00 00 00 00 00 00
   0.279000 1  CFF21CAx        Rx   d 8 03 00 80 0C 41 3D 00 20
   0.281000 1  18F100D0x       Rx   d 8 0C FF FF FF FF FF FF FF
   0.283000 1  18F11FF3x       Rx   d 8 00 00 00 00 00 00 00 00
   0.284000 1  18F120F3x       Rx   d 8 00 00 00 00 00 00 00 00
   0.286000 1  18F121F3x       Rx   d 8 00 00 00 00 00 00 00 00
   0.288000 1  18F122F3x       Rx   d 8 00 00 00 00 00 00 00 00
   0.290000 1  18F123F3x       Rx   d 8 00 00 00 00 00 00 00 00
   0.291000 1  18F124F3x       Rx   d 8 00 00 00 00 00 00 00 00
   0.293000 1  18F125F3x       Rx   d 8 00 00 00 00 00 00 00 00
   0.295000 1  18F126F3x       Rx   d 8 00 00 00 00 00 00 00 00
   0.297000 1  18F127F3x       Rx   d 8 00 00 00 00 00 00 00 00
   0.298000 1  18F128F3x       Rx   d 8 00 00 00 00 00 00 00 00
   0.300000 1  18F129F3x       Rx   d 8 00 00 00 00 00 00 00 00
   0.302000 1  18F12AF3x       Rx   d 8 00 00 00 00 00 00 00 00
   0.303000 1  CFF21CAx        Rx   d 8 03 00 80 0C 41 3D 00 20
   0.305000 1  18F12BF3x       Rx   d 8 00 00 00 00 00 00 00 00
   0.307000 1  18F12CF3x       Rx   d 8 00 00 00 00 00 00 00 00
   0.308000 1  18F12DF3x       Rx   d 8 00 00 00 00 00 00 00 00
   0.310000 1  18F12EF3x       Rx   d 8 00 00 00 00 00 00 00 00
   0.312000 1  18F12FF3x       Rx   d 8 00 00 00 00 00 00 00 00
   0.314000 1  18F130F3x       Rx   d 8 00 00 00 00 00 00 00 00
   0.315000 1  18F131F3x       Rx   d 8 00 00 00 00 00 00 00 00
   0.317000 1  18F132F3x       Rx   d 8 00 00 00 00 00 00 00 00
   0.319000 1  18F133F3x       Rx   d 8 00 00 00 00 00 00 00 00
   0.321000 1  18F134F3x       Rx   d 8 00 00 00 00 00 00 00 00
   0.322000 1  18F135F3x       Rx   d 8 00 00 00 00 00 00 00 00
   0.324000 1  18F136F3x       Rx   d 8 00 00 00 00 00 00 00 00
   0.326000 1  18F137F3x       Rx   d 8 00 00 00 00 00 00 00 00
   0.328000 1  18F138F3x       Rx   d 8 00 00 00 00 00 00 00 00
   0.329000 1  CFF21CAx        Rx   d 8 03 00 80 0C 41 3D 00 20
   0.331000 1  18F100D0x       Rx   d 8 0C FF FF FF FF FF FF FF
   0.333000 1  18F139F3x       Rx   d 8 00 00 00 00 00 00 00 00
   0.334000 1  18F13AF3x       Rx   d 8 00 00 00 00 00 00 00 00
   0.336000 1  18FF2112x       Rx   d 8 01 00 00 00 00 00 00 00
   0.338000 1  18F13BF3x       Rx   d 8 00 00 00 00 00 00 00 00
   0.340000 1  18F13CF3x       Rx   d 8 00 00 00 00 00 00 00 00
   0.341000 1  CFF21CAx        Rx   d 8 03 00 80 0C 41 3D 00 20
   0.343000 1  CFF21CAx        Rx   d 8 03 00 80 0C 41 3D 00 20
   0.345000 1  18F100F3x       Rx   d 8 02 CC 7D 96 4D FA 14 00
   0.346000 1  18F100D0x       Rx   d 8 0C FF FF FF FF FF FF FF
   0.348000 1  18F102F3x       Rx   d 8 0D FF 0D FA 13 02 00 05
   0.350000 1  18F106F3x       Rx   d 8 45 E0 FC FF FF FF FF FF
   0.352000 1  18F107F3x       Rx   d 8 38 A4 30 70 01 42 00 AC
   0.353000 1  18F108F3x       Rx   d 8 00 00 00 00 00 00 00 00
   0.355000 1  18F155F3x       Rx   d 8 35 35 35 35 35 37 36 00
   0.357000 1  18F156F3x       Rx   d 8 00 00 00 00 00 00 00 00
   0.358000 1  18F157F3x       Rx   d 8 00 00 00 00 00 00 00 00
   0.360000 1  CFF21CAx        Rx   d 8 03 00 80 0C 41 3D 00 20
   0.361000 1  18F158F3x       Rx   d 8 00 00 00 00 00 00 00 00
   0.363000 1  18F159F3x       Rx   d 8 00 00 00 00 00 00 00 00
   0.365000 1  18F15AF3x       Rx   d 8 00 00 00 00 00 00 00 00
   0.367000 1  18F15BF3x       Rx   d 7 00 00 00 00 00 00 00
   0.368000 1  18F15CF3x       Rx   d 8 00 00 00 00 00 00 00 00
   0.370000 1  18F15DF3x       Rx   d 8 00 00 00 00 00 00 00 00
   0.372000 1  18F15EF3x       Rx   d 8 00 00 00 00 00 00 00 00
   0.373000 1  CFF21CAx        Rx   d 8 03 00 80 0C 41 3D 00 20
   0.375000 1  18F100D0x       Rx   d 8 0C FF FF FF FF FF FF FF
   0.377000 1  CFF21CAx        Rx   d 8 03 00 80 0C 41 3D 00 20
   0.379000 1  CFF21CAx        Rx   d 8 03 00 80 0C 41 3D 00 20
   0.380000 1  18F100D0x       Rx   d 8 0C FF FF FF FF FF FF FF
   0.382000 1  CFF21CAx        Rx   d 8 03 00 80 0C 41 3D 00 20
   0.384000 1  CFF21CAx        Rx   d 8 03 00 80 0C 41 3D 00 20
   0.385000 1  18FF2112x       Rx   d 8 01 00 00 00 00 00 00 00
   0.387000 1  CFF21CAx        Rx   d 8 03 00 80 0C 41 3D 00 20
   0.389000 1  18F100D0x       Rx   d 8 0C FF FF FF FF FF FF FF
   0.398000 1  CFF21CAx        Rx   d 8 03 00 80 0C 41 3D 00 20
   0.405000 1  18F100F3x       Rx   d 8 02 CC 7D 96 4D FA 14 00
   0.406000 1  18F102F3x       Rx   d 8 0D FF 0D FA 13 02 00 05
   0.407000 1  18F106F3x       Rx   d 8 45 E0 FC FF FF FF FF FF
   0.409000 1  18F107F3x       Rx   d 8 38 A4 30 70 01 42 00 AC
   0.410000 1  18F108F3x       Rx   d 8 00 00 00 00 00 00 00 00
   0.411000 1  CFF21CAx        Rx   d 8 03 00 80 0C 41 3D 00 20
   0.412000 1  18F100D0x       Rx   d 8 0C FF FF FF FF FF FF FF
   0.414000 1  18F155F3x       Rx   d 8 35 35 35 35 35 37 36 00
   0.441000 1  18F156F3x       Rx   d 8 00 00 00 00 00 00 00 00
   0.442000 1  18F157F3x       Rx   d 8 00 00 00 00 00 00 00 00
   0.444000 1  18F158F3x       Rx   d 8 00 00 00 00 00 00 00 00
   0.446000 1  18F159F3x       Rx   d 8 00 00 00 00 00 00 00 00
   0.448000 1  18F15AF3x       Rx   d 8 00 00 00 00 00 00 00 00
   0.449000 1  18F15BF3x       Rx   d 7 00 00 00 00 00 00 00
   0.451000 1  18F15CF3x       Rx   d 8 00 00 00 00 00 00 00 00
   0.452000 1  18F15DF3x       Rx   d 8 00 00 00 00 00 00 00 00
   0.454000 1  18F15EF3x       Rx   d 8 00 00 00 00 00 00 00 00
   0.456000 1  CFF21CAx        Rx   d 8 03 00 80 0C 41 3D 00 20
   0.457000 1  CFF21CAx        Rx   d 8 02 00 80 0C 41 3D 00 20
   0.459000 1  18F100D0x       Rx   d 8 0C FF FF FF FF FF FF FF
   0.461000 1  CFF21CAx        Rx   d 8 02 00 80 0C 41 3D 00 20
   0.462000 1  CFF21CAx        Rx   d 8 02 00 80 0C 41 3D 00 20
   0.463000 1  18F100D0x       Rx   d 8 0C FF FF FF FF FF FF FF
   0.471000 1  CFF21CAx        Rx   d 8 03 00 80 0C 41 3D 00 20
   0.476000 1  18FF2112x       Rx   d 8 01 00 00 00 00 00 00 00
   0.482000 1  CFF21CAx        Rx   d 8 03 00 80 0C 41 3D 00 20
   0.499000 1  18F100D0x       Rx   d 8 0C FF FF FF FF FF FF FF
   0.500000 1  CFF21CAx        Rx   d 8 03 00 80 0C 41 3D 00 20
   0.505000 1  18F100F3x       Rx   d 8 02 CC 7D 96 4D FA 14 00
   0.507000 1  18F102F3x       Rx   d 8 0D FF 0D FA 13 02 00 05
   0.508000 1  CFF21CAx        Rx   d 8 03 00 80 0C 41 3D 00 20
   0.510000 1  18F106F3x       Rx   d 8 45 E0 FC FF FF FF FF FF
   0.512000 1  18F107F3x       Rx   d 8 38 A4 30 70 01 42 00 AC
   0.514000 1  18F108F3x       Rx   d 8 00 00 00 00 00 00 00 00
   0.515000 1  18F155F3x       Rx   d 8 35 35 35 35 35 37 36 00
   0.517000 1  18F156F3x       Rx   d 8 00 00 00 00 00 00 00 00
   0.519000 1  18F157F3x       Rx   d 8 00 00 00 00 00 00 00 00
   0.521000 1  18F158F3x       Rx   d 8 00 00 00 00 00 00 00 00
   0.523000 1  18F159F3x       Rx   d 8 00 00 00 00 00 00 00 00
   0.524000 1  18F15AF3x       Rx   d 8 00 00 00 00 00 00 00 00
   0.525000 1  18F15BF3x       Rx   d 7 00 00 00 00 00 00 00
   0.526000 1  18F15CF3x       Rx   d 8 00 00 00 00 00 00 00 00
   0.528000 1  18F15DF3x       Rx   d 8 00 00 00 00 00 00 00 00
   0.529000 1  CFF21CAx        Rx   d 8 03 00 80 0C 41 3D 00 20
   0.531000 1  18F100D0x       Rx   d 8 0C FF FF FF FF FF FF FF
   0.546000 1  18F15EF3x       Rx   d 8 00 00 00 00 00 00 00 00
   0.547000 1  CFF21CAx        Rx   d 8 02 00 80 0C 41 3D 00 20
   0.551000 1  CFF21CAx        Rx   d 8 02 00 80 0C 41 3D 00 20
   0.553000 1  18F100D0x       Rx   d 8 0C FF FF FF FF FF FF FF
   0.555000 1  CFF21CAx        Rx   d 8 02 00 80 0C 41 3D 00 20
   0.567000 1  CFF21CAx        Rx   d 8 03 00 80 0C 41 3D 00 20
   0.568000 1  18F100D0x       Rx   d 8 0C FF FF FF FF FF FF FF
   0.573000 1  18FF2112x       Rx   d 8 01 00 00 00 00 00 00 00
   0.579000 1  CFF21CAx        Rx   d 8 03 00 80 0C 41 3D 00 20
   0.591000 1  CFF21CAx        Rx   d 8 03 00 80 0C 41 3D 00 20
   0.595000 1  18F100D0x       Rx   d 8 0C FF FF FF FF FF FF FF
   0.603000 1  CFF21CAx        Rx   d 8 03 00 80 0C 41 3D 00 20
   0.604000 1  18F100F3x       Rx   d 8 02 CC 7D 96 4D FA 14 00
   0.606000 1  18F102F3x       Rx   d 8 0D FF 0D FA 13 02 00 05
   0.608000 1  18F106F3x       Rx   d 8 45 E0 FC FF FF FF FF FF
   0.610000 1  18F107F3x       Rx   d 8 38 A4 30 70 01 42 00 AC
   0.611000 1  18F108F3x       Rx   d 8 00 00 00 00 00 00 00 00
   0.613000 1  18F155F3x       Rx   d 8 35 35 35 35 35 37 36 00
   0.615000 1  18F156F3x       Rx   d 8 00 00 00 00 00 00 00 00
   0.617000 1  18F157F3x       Rx   d 8 00 00 00 00 00 00 00 00
   0.618000 1  18F158F3x       Rx   d 8 00 00 00 00 00 00 00 00
   0.620000 1  18F159F3x       Rx   d 8 00 00 00 00 00 00 00 00
   0.622000 1  CFF21CAx        Rx   d 8 03 00 80 0C 41 3D 00 20
   0.624000 1  18F15AF3x       Rx   d 8 00 00 00 00 00 00 00 00
   0.625000 1  18F15BF3x       Rx   d 7 00 00 00 00 00 00 00
   0.627000 1  18F15CF3x       Rx   d 8 00 00 00 00 00 00 00 00
   0.629000 1  18F15DF3x       Rx   d 8 00 00 00 00 00 00 00 00
   0.630000 1  18F15EF3x       Rx   d 8 00 00 00 00 00 00 00 00
   0.632000 1  18F100D0x       Rx   d 8 0C FF FF FF FF FF FF FF
   0.634000 1  CFF21CAx        Rx   d 8 03 00 80 0C 41 3D 00 20
   0.639000 1  CFF21CAx        Rx   d 8 03 00 80 0C 41 3D 00 20
   0.647000 1  18F100D0x       Rx   d 8 0C FF FF FF FF FF FF FF
   0.651000 1  CFF21CAx        Rx   d 8 03 00 80 0C 41 3D 00 20
   0.663000 1  CFF21CAx        Rx   d 8 04 00 80 0C 41 3D 00 20
   0.670000 1  18FF2112x       Rx   d 8 01 00 00 00 00 00 00 00
   0.675000 1  CFF21CAx        Rx   d 8 04 00 80 0C 41 3D 00 20
   0.676000 1  18F100D0x       Rx   d 8 0C FF FF FF FF FF FF FF
   0.687000 1  CFF21CAx        Rx   d 8 04 00 80 0C 41 3D 00 20
   0.699000 1  CFF21CAx        Rx   d 8 03 00 80 0C 41 3D 00 20
   0.700000 1  18F100D0x       Rx   d 8 0C FF FF FF FF FF FF FF
   0.705000 1  18F100F3x       Rx   d 8 02 CC 7D 96 4D FA 14 00
   0.706000 1  18F102F3x       Rx   d 8 0D FF 0D FA 13 02 00 05
   0.708000 1  18F106F3x       Rx   d 8 45 E0 FC FF FF FF FF FF
   0.710000 1  18F107F3x       Rx   d 8 38 A4 30 70 01 42 00 AC
   0.712000 1  18F108F3x       Rx   d 8 00 00 00 00 00 00 00 00
   0.714000 1  18F155F3x       Rx   d 8 35 35 35 35 35 37 36 00
   0.715000 1  CFF21CAx        Rx   d 8 03 00 80 0C 41 3D 00 20
   0.717000 1  18F156F3x       Rx   d 8 00 00 00 00 00 00 00 00
   0.719000 1  18F157F3x       Rx   d 8 00 00 00 00 00 00 00 00
   0.721000 1  18F158F3x       Rx   d 8 00 00 00 00 00 00 00 00
   0.722000 1  18F159F3x       Rx   d 8 00 00 00 00 00 00 00 00
   0.724000 1  18F15AF3x       Rx   d 8 00 00 00 00 00 00 00 00
   0.726000 1  18F15BF3x       Rx   d 7 00 00 00 00 00 00 00
   0.728000 1  18F15CF3x       Rx   d 8 00 00 00 00 00 00 00 00
   0.730000 1  18F15DF3x       Rx   d 8 00 00 00 00 00 00 00 00
   0.731000 1  18F15EF3x       Rx   d 8 00 00 00 00 00 00 00 00
   0.734000 1  CFF21CAx        Rx   d 8 03 00 80 0C 41 3D 00 20
   0.736000 1  18F100D0x       Rx   d 8 0C FF FF FF FF FF FF FF
   0.738000 1  CFF21CAx        Rx   d 8 03 00 80 0C 41 3D 00 20
   0.753000 1  CFF21CAx        Rx   d 8 03 00 80 0C 41 3D 00 20
   0.755000 1  18F100D0x       Rx   d 8 0C FF FF FF FF FF FF FF
   0.760000 1  CFF21CAx        Rx   d 8 03 00 80 0C 41 3D 00 20
   0.767000 1  18FF2112x       Rx   d 8 01 00 00 00 00 00 00 00
   0.772000 1  CFF21CAx        Rx   d 8 03 00 80 0C 41 3D 00 20
   0.774000 1  18F100D0x       Rx   d 8 0C FF FF FF FF FF FF FF
   0.789000 1  CFF21CAx        Rx   d 8 03 00 80 0C 41 3D 00 20
   0.796000 1  CFF21CAx        Rx   d 8 02 00 80 0C 41 3D 00 20
   0.800000 1  18F100D0x       Rx   d 8 0C FF FF FF FF FF FF FF
   0.805000 1  18F100F3x       Rx   d 8 02 CC 7D 95 4D FA 14 00
   0.806000 1  18F102F3x       Rx   d 8 0D FF 0D FA 13 02 00 05
   0.808000 1  18F106F3x       Rx   d 8 45 E0 FC FF FF FF FF FF
   0.810000 1  CFF21CAx        Rx   d 8 02 00 80 0C 41 3D 00 20
   0.812000 1  18F107F3x       Rx   d 8 38 A4 30 70 01 42 00 AC
   0.814000 1  18F108F3x       Rx   d 8 00 00 00 00 00 00 00 00
   0.816000 1  18F155F3x       Rx   d 8 35 35 35 35 35 37 36 00
   0.817000 1  18F156F3x       Rx   d 8 00 00 00 00 00 00 00 00
   0.819000 1  18F157F3x       Rx   d 8 00 00 00 00 00 00 00 00
   0.821000 1  18F158F3x       Rx   d 8 00 00 00 00 00 00 00 00
   0.822000 1  18F159F3x       Rx   d 8 00 00 00 00 00 00 00 00
   0.824000 1  18F15AF3x       Rx   d 8 00 00 00 00 00 00 00 00
   0.826000 1  18F15BF3x       Rx   d 7 00 00 00 00 00 00 00
   0.828000 1  18F15CF3x       Rx   d 8 00 00 00 00 00 00 00 00
   0.829000 1  18F15DF3x       Rx   d 8 00 00 00 00 00 00 00 00
   0.831000 1  18F15EF3x       Rx   d 8 00 00 00 00 00 00 00 00
   0.833000 1  CFF21CAx        Rx   d 8 02 00 80 0C 41 3D 00 20
   0.835000 1  18F100D0x       Rx   d 8 0C FF FF FF FF FF FF FF
   0.837000 1  CFF21CAx        Rx   d 8 03 00 80 0C 41 3D 00 20
   0.844000 1  CFF21CAx        Rx   d 8 03 00 80 0C 41 3D 00 20
   0.852000 1  18F100D0x       Rx   d 8 0C FF FF FF FF FF FF FF
   0.856000 1  CFF21CAx        Rx   d 8 04 00 80 0C 41 3D 00 20
   0.865000 1  18FF2112x       Rx   d 8 01 00 00 00 00 00 00 00
   0.868000 1  CFF21CAx        Rx   d 8 04 00 80 0C 41 3D 00 20
   0.876000 1  18F100D0x       Rx   d 8 0C FF FF FF FF FF FF FF
   0.880000 1  CFF21CAx        Rx   d 8 04 00 80 0C 41 3D 00 20
   0.892000 1  CFF21CAx        Rx   d 8 03 00 80 0C 41 3D 00 20
   0.904000 1  CFF21CAx        Rx   d 8 03 00 80 0C 41 3D 00 20
   0.905000 1  18F100D0x       Rx   d 8 0C FF FF FF FF FF FF FF
   0.906000 1  18F100F3x       Rx   d 8 02 CC 7D 95 4D FA 14 00
   0.908000 1  18F102F3x       Rx   d 8 0D FF 0D FA 13 02 00 05
   0.909000 1  18F106F3x       Rx   d 8 45 E0 FC FF FF FF FF FF
   0.910000 1  18F107F3x       Rx   d 8 38 A4 30 70 01 42 00 AC
   0.911000 1  18F108F3x       Rx   d 8 00 00 00 00 00 00 00 00
   0.919000 1  18F155F3x       Rx   d 8 35 35 35 35 35 37 36 00
   0.920000 1  18F156F3x       Rx   d 8 00 00 00 00 00 00 00 00
   0.922000 1  18F157F3x       Rx   d 8 00 00 00 00 00 00 00 00
   0.924000 1  18F158F3x       Rx   d 8 00 00 00 00 00 00 00 00
   0.926000 1  18F159F3x       Rx   d 8 00 00 00 00 00 00 00 00
   0.927000 1  18F15AF3x       Rx   d 8 00 00 00 00 00 00 00 00
   0.929000 1  CFF21CAx        Rx   d 8 03 00 80 0C 41 3D 00 20
   0.931000 1  18F15BF3x       Rx   d 7 00 00 00 00 00 00 00
   0.932000 1  18F15CF3x       Rx   d 8 00 00 00 00 00 00 00 00
   0.934000 1  18F15DF3x       Rx   d 8 00 00 00 00 00 00 00 00
   0.936000 1  18F15EF3x       Rx   d 8 00 00 00 00 00 00 00 00
   0.938000 1  CFF21CAx        Rx   d 8 03 00 80 0C 41 3D 00 20
   0.939000 1  18F100D0x       Rx   d 8 0C FF FF FF FF FF FF FF
   0.941000 1  CFF21CAx        Rx   d 8 03 00 80 0C 41 3D 00 20
   0.948000 1  18FECACAx       Rx   d 8 00 00 00 00 00 00 FF FF
   0.952000 1  CFF21CAx        Rx   d 8 03 00 80 0C 41 3D 00 20
   0.956000 1  18F100D0x       Rx   d 8 0C FF FF FF FF FF FF FF
   0.962000 1  18FF2112x       Rx   d 8 01 00 00 00 00 00 00 00
   0.965000 1  CFF21CAx        Rx   d 8 03 00 80 0C 41 3D 00 20
   0.976000 1  CFF21CAx        Rx   d 8 03 00 80 0C 41 3D 00 20
   0.984000 1  18F100D0x       Rx   d 8 0C FF FF FF FF FF FF FF
   0.988000 1  CFF21CAx        Rx   d 8 03 00 80 0C 41 3D 00 20
   1.000000 1  CFF21CAx        Rx   d 8 03 00 80 0C 41 3D 00 20
   1.005000 1  18F100F3x       Rx   d 8 02 CC 7D 95 4D FA 14 00
   1.006000 1  18F102F3x       Rx   d 8 0D FF 0D FA 13 02 00 05
   1.008000 1  18F106F3x       Rx   d 8 45 E0 FC FF FF FF FF FF
   1.010000 1  18F107F3x       Rx   d 8 38 A4 30 70 01 42 00 AC
   1.012000 1  18F100D0x       Rx   d 8 0C FF FF FF FF FF FF FF
   1.014000 1  18F108F3x       Rx   d 8 00 00 00 00 00 00 00 00
   1.015000 1  18F155F3x       Rx   d 8 35 35 35 35 35 37 36 00
   1.017000 1  18F156F3x       Rx   d 8 00 00 00 00 00 00 00 00
   1.019000 1  CFF21CAx        Rx   d 8 03 00 80 0C 41 3D 00 20
   1.021000 1  18F157F3x       Rx   d 8 00 00 00 00 00 00 00 00
   1.022000 1  18F158F3x       Rx   d 8 00 00 00 00 00 00 00 00
   1.024000 1  18F159F3x       Rx   d 8 00 00 00 00 00 00 00 00
   1.026000 1  18F15AF3x       Rx   d 8 00 00 00 00 00 00 00 00
   1.028000 1  18F15BF3x       Rx   d 7 00 00 00 00 00 00 00
   1.029000 1  18F15CF3x       Rx   d 8 00 00 00 00 00 00 00 00
   1.031000 1  18F15DF3x       Rx   d 8 00 00 00 00 00 00 00 00
   1.033000 1  18F15EF3x       Rx   d 8 00 00 00 00 00 00 00 00
   1.035000 1  CFF21CAx        Rx   d 8 02 00 80 0C 41 3D 00 20
   1.037000 1  18F100D0x       Rx   d 8 0C FF FF FF FF FF FF FF
   1.038000 1  CFF21CAx        Rx   d 8 02 00 80 0C 41 3D 00 20
   1.049000 1  CFF21CAx        Rx   d 8 02 00 80 0C 41 3D 00 20
   1.057000 1  18F100D0x       Rx   d 8 0C FF FF FF FF FF FF FF
   1.060000 1  18FF2112x       Rx   d 8 01 00 00 00 00 00 00 00
   1.061000 1  CFF21CAx        Rx   d 8 02 00 80 0C 41 3D 00 20
   1.073000 1  CFF21CAx        Rx   d 8 02 00 80 0C 41 3D 00 20
   1.081000 1  18F100D0x       Rx   d 8 0C FF FF FF FF FF FF FF
   1.085000 1  CFF21CAx        Rx   d 8 03 00 80 0C 41 3D 00 20
   1.097000 1  CFF21CAx        Rx   d 8 03 00 80 0C 41 3D 00 20
   1.105000 1  18F100F3x       Rx   d 8 02 CC 7D 96 4D FA 14 00
   1.107000 1  18F102F3x       Rx   d 8 0D FF 0D FA 13 02 00 05
   1.108000 1  18F106F3x       Rx   d 8 45 E0 FC FF FF FF FF FF
   1.110000 1  18F107F3x       Rx   d 8 38 A4 30 70 01 42 00 AC
   1.112000 1  CFF21CAx        Rx   d 8 03 00 80 0C 41 3D 00 20
   1.113000 1  18F100D0x       Rx   d 8 0C FF FF FF FF FF FF FF
   1.115000 1  18F108F3x       Rx   d 8 00 00 00 00 00 00 00 00
   1.117000 1  18F155F3x       Rx   d 8 35 35 35 35 35 37 36 00
   1.119000 1  18F156F3x       Rx   d 8 00 00 00 00 00 00 00 00
   1.120000 1  18F157F3x       Rx   d 8 00 00 00 00 00 00 00 00
   1.122000 1  18F158F3x       Rx   d 8 00 00 00 00 00 00 00 00
   1.124000 1  18F159F3x       Rx   d 8 00 00 00 00 00 00 00 00
   1.126000 1  18F15AF3x       Rx   d 8 00 00 00 00 00 00 00 00
   1.127000 1  18F15BF3x       Rx   d 7 00 00 00 00 00 00 00
   1.129000 1  18F15CF3x       Rx   d 8 00 00 00 00 00 00 00 00
   1.131000 1  18F15DF3x       Rx   d 8 00 00 00 00 00 00 00 00
   1.133000 1  18F15EF3x       Rx   d 8 00 00 00 00 00 00 00 00
   1.134000 1  CFF21CAx        Rx   d 8 03 00 80 0C 41 3D 00 20
   1.136000 1  CFF21CAx        Rx   d 8 03 00 80 0C 41 3D 00 20
   1.137000 1  18F100D0x       Rx   d 8 0C FF FF FF FF FF FF FF
   1.145000 1  CFF21CAx        Rx   d 8 03 00 80 0C 41 3D 00 20
   1.156000 1  18FF2112x       Rx   d 8 01 00 00 00 00 00 00 00
   1.157000 1  CFF21CAx        Rx   d 8 03 00 80 0C 41 3D 00 20
   1.170000 1  18F100D0x       Rx   d 8 0C FF FF FF FF FF FF FF
   1.173000 1  CFF21CAx        Rx   d 8 03 00 80 0C 41 3D 00 20
   1.181000 1  CFF21CAx        Rx   d 8 03 00 80 0C 41 3D 00 20
   1.189000 1  18F100D0x       Rx   d 8 0C FF FF FF FF FF FF FF
   1.193000 1  CFF21CAx        Rx   d 8 03 00 80 0C 41 3D 00 20
   1.205000 1  18F100F3x       Rx   d 8 02 CC 7D 96 4D FA 14 00
   1.206000 1  CFF21CAx        Rx   d 8 03 00 80 0C 41 3D 00 20
   1.207000 1  18F102F3x       Rx   d 8 0D FF 0D FA 13 02 00 05
   1.209000 1  18F106F3x       Rx   d 8 45 E0 FC FF FF FF FF FF
   1.210000 1  18F107F3x       Rx   d 8 38 A4 30 70 01 42 00 AC
   1.211000 1  18F108F3x       Rx   d 8 00 00 00 00 00 00 00 00
   1.212000 1  18F155F3x       Rx   d 8 35 35 35 35 35 37 36 00
   1.234000 1  18F156F3x       Rx   d 8 00 00 00 00 00 00 00 00
   1.236000 1  18F157F3x       Rx   d 8 00 00 00 00 00 00 00 00
   1.238000 1  18F100D0x       Rx   d 8 0C FF FF FF FF FF FF FF
   1.239000 1  18F158F3x       Rx   d 8 00 00 00 00 00 00 00 00
   1.241000 1  18F159F3x       Rx   d 8 00 00 00 00 00 00 00 00
   1.243000 1  18F15AF3x       Rx   d 8 00 00 00 00 00 00 00 00
   1.245000 1  CFF21CAx        Rx   d 8 02 00 80 0C 41 3D 00 20
   1.246000 1  18F15BF3x       Rx   d 7 00 00 00 00 00 00 00
   1.248000 1  18F15CF3x       Rx   d 8 00 00 00 00 00 00 00 00
   1.250000 1  18F15DF3x       Rx   d 8 00 00 00 00 00 00 00 00
   1.252000 1  18F15EF3x       Rx   d 8 00 00 00 00 00 00 00 00
   1.254000 1  CFF21CAx        Rx   d 8 02 00 80 0C 41 3D 00 20
   1.255000 1  18F104F3x       Rx   d 8 37 35 06 01 02 FF FF FF
   1.257000 1  CFF21CAx        Rx   d 8 02 00 80 0C 41 3D 00 20
   1.258000 1  18F100D0x       Rx   d 8 0C FF FF FF FF FF FF FF
   1.259000 1  18F113F3x       Rx   d 8 0D FB 0D FA 0D FC 0D FD
   1.260000 1  18F114F3x       Rx   d 8 0D FC 0D FC 0D FE 0D FB
   1.262000 1  18F115F3x       Rx   d 8 0D FC 0D FB 0D FC 0D FA
   1.275000 1  18F116F3x       Rx   d 8 0D FD 0D FC 0D FD 0D FE
   1.276000 1  18F117F3x       Rx   d 8 0D FD 0D FE 0D FF 0D FE
   1.278000 1  18F118F3x       Rx   d 8 00 00 00 00 00 00 00 00
   1.280000 1  18F119F3x       Rx   d 8 00 00 00 00 00 00 00 00
   1.282000 1  18F11AF3x       Rx   d 8 00 00 00 00 00 00 00 00
   1.283000 1  18F11BF3x       Rx   d 8 00 00 00 00 00 00 00 00
   1.285000 1  18F11CF3x       Rx   d 8 00 00 00 00 00 00 00 00
   1.287000 1  18F11DF3x       Rx   d 8 00 00 00 00 00 00 00 00
   1.288000 1  18FF2112x       Rx   d 8 01 00 00 00 00 00 00 00
   1.290000 1  CFF21CAx        Rx   d 8 02 00 80 0C 41 3D 00 20
   1.292000 1  18F11EF3x       Rx   d 8 00 00 00 00 00 00 00 00
   1.294000 1  18F11FF3x       Rx   d 8 00 00 00 00 00 00 00 00
   1.295000 1  18F120F3x       Rx   d 8 00 00 00 00 00 00 00 00
   1.297000 1  18F121F3x       Rx   d 8 00 00 00 00 00 00 00 00
   1.299000 1  18F122F3x       Rx   d 8 00 00 00 00 00 00 00 00
   1.301000 1  18F123F3x       Rx   d 8 00 00 00 00 00 00 00 00
   1.302000 1  18F124F3x       Rx   d 8 00 00 00 00 00 00 00 00
   1.304000 1  18F125F3x       Rx   d 8 00 00 00 00 00 00 00 00
   1.306000 1  18F126F3x       Rx   d 8 00 00 00 00 00 00 00 00
   1.308000 1  18F127F3x       Rx   d 8 00 00 00 00 00 00 00 00
   1.309000 1  18F128F3x       Rx   d 8 00 00 00 00 00 00 00 00
   1.311000 1  18F129F3x       Rx   d 8 00 00 00 00 00 00 00 00
   1.313000 1  CFF21CAx        Rx   d 8 02 00 80 0C 41 3D 00 20
   1.315000 1  18F100D0x       Rx   d 8 0C FF FF FF FF FF FF FF
   1.316000 1  18F12AF3x       Rx   d 8 00 00 00 00 00 00 00 00
   1.318000 1  18F12BF3x       Rx   d 8 00 00 00 00 00 00 00 00
   1.319000 1  18F12CF3x       Rx   d 8 00 00 00 00 00 00 00 00
   1.322000 1  18F12DF3x       Rx   d 8 00 00 00 00 00 00 00 00
   1.323000 1  18F12EF3x       Rx   d 8 00 00 00 00 00 00 00 00
   1.325000 1  18F12FF3x       Rx   d 8 00 00 00 00 00 00 00 00
   1.327000 1  18F130F3x       Rx   d 8 00 00 00 00 00 00 00 00
   1.328000 1  18F131F3x       Rx   d 8 00 00 00 00 00 00 00 00
   1.330000 1  18F132F3x       Rx   d 8 00 00 00 00 00 00 00 00
   1.332000 1  18F133F3x       Rx   d 8 00 00 00 00 00 00 00 00
   1.333000 1  18F134F3x       Rx   d 8 00 00 00 00 00 00 00 00
   1.335000 1  18F135F3x       Rx   d 8 00 00 00 00 00 00 00 00
   1.337000 1  CFF21CAx        Rx   d 8 03 00 80 0C 41 3D 00 20
   1.339000 1  18F136F3x       Rx   d 8 00 00 00 00 00 00 00 00
   1.340000 1  18F137F3x       Rx   d 8 00 00 00 00 00 00 00 00
   1.342000 1  18F138F3x       Rx   d 8 00 00 00 00 00 00 00 00
   1.344000 1  18F139F3x       Rx   d 8 00 00 00 00 00 00 00 00
   1.346000 1  18F13AF3x       Rx   d 8 00 00 00 00 00 00 00 00
   1.347000 1  18F13BF3x       Rx   d 8 00 00 00 00 00 00 00 00
   1.349000 1  18F13CF3x       Rx   d 8 00 00 00 00 00 00 00 00
   1.351000 1  CFF21CAx        Rx   d 8 03 00 80 0C 41 3D 00 20
   1.353000 1  18F100D0x       Rx   d 8 0C FF FF FF FF FF FF FF
   1.354000 1  CFF21CAx        Rx   d 8 03 00 80 0C 41 3D 00 20
   1.356000 1  18F100F3x       Rx   d 8 02 CC 7D 95 4D FA 14 00
   1.358000 1  18F102F3x       Rx   d 8 0D FF 0D FA 13 02 00 05
   1.360000 1  18F106F3x       Rx   d 8 45 E0 FC FF FF FF FF FF
   1.362000 1  18F107F3x       Rx   d 8 38 A4 30 70 01 42 00 AC
   1.363000 1  18F108F3x       Rx   d 8 00 00 00 00 00 00 00 00
   1.365000 1  18F155F3x       Rx   d 8 35 35 35 35 35 37 36 00
   1.367000 1  18F156F3x       Rx   d 8 00 00 00 00 00 00 00 00
   1.368000 1  18F157F3x       Rx   d 8 00 00 00 00 00 00 00 00
   1.370000 1  CFF21CAx        Rx   d 8 03 00 80 0C 41 3D 00 20
   1.372000 1  18F158F3x       Rx   d 8 00 00 00 00 00 00 00 00
   1.374000 1  18F159F3x       Rx   d 8 00 00 00 00 00 00 00 00
   1.375000 1  18F15AF3x       Rx   d 8 00 00 00 00 00 00 00 00
   1.377000 1  18F15BF3x       Rx   d 7 00 00 00 00 00 00 00
   1.379000 1  18F15CF3x       Rx   d 8 00 00 00 00 00 00 00 00
   1.380000 1  18F15DF3x       Rx   d 8 00 00 00 00 00 00 00 00
   1.382000 1  18F15EF3x       Rx   d 8 00 00 00 00 00 00 00 00
   1.384000 1  18F100D0x       Rx   d 8 0C FF FF FF FF FF FF FF
   1.385000 1  CFF21CAx        Rx   d 8 03 00 80 0C 41 3D 00 20
   1.387000 1  CFF21CAx        Rx   d 8 03 00 80 0C 41 3D 00 20
   1.389000 1  18F100D0x       Rx   d 8 0C FF FF FF FF FF FF FF
   1.391000 1  CFF21CAx        Rx   d 8 03 00 80 0C 41 3D 00 20
   1.392000 1  18FF2112x       Rx   d 8 01 00 00 00 00 00 00 00
   1.394000 1  CFF21CAx        Rx   d 8 03 00 80 0C 41 3D 00 20
   1.396000 1  CFF21CAx        Rx   d 8 02 00 80 0C 41 3D 00 20
   1.398000 1  18F100D0x       Rx   d 8 0C FF FF FF FF FF FF FF
   1.399000 1  CFF21CAx        Rx   d 8 02 00 80 0C 41 3D 00 20
   1.401000 1  CFF21CAx        Rx   d 8 02 00 80 0C 41 3D 00 20
   1.403000 1  18F100D0x       Rx   d 8 0C FF FF FF FF FF FF FF
   1.405000 1  18F100F3x       Rx   d 8 02 CC 7D 95 4D FA 14 00
   1.407000 1  18F102F3x       Rx   d 8 0D FF 0D FA 13 02 00 05
   1.408000 1  18F106F3x       Rx   d 8 45 E0 FC FF FF FF FF FF
   1.410000 1  18F107F3x       Rx   d 8 38 A4 30 70 01 42 00 AC
   1.412000 1  18F108F3x       Rx   d 8 00 00 00 00 00 00 00 00
   1.414000 1  CFF21CAx        Rx   d 8 02 00 80 0C 41 3D 00 20
   1.415000 1  18F155F3x       Rx   d 8 35 35 35 35 35 37 36 00
   1.417000 1  18F156F3x       Rx   d 8 00 00 00 00 00 00 00 00
   1.419000 1  18F157F3x       Rx   d 8 00 00 00 00 00 00 00 00
   1.421000 1  18F158F3x       Rx   d 8 00 00 00 00 00 00 00 00
   1.422000 1  18F159F3x       Rx   d 8 00 00 00 00 00 00 00 00
   1.424000 1  18F15AF3x       Rx   d 8 00 00 00 00 00 00 00 00
   1.426000 1  18F15BF3x       Rx   d 7 00 00 00 00 00 00 00
   1.427000 1  18F15CF3x       Rx   d 8 00 00 00 00 00 00 00 00
   1.429000 1  18F15DF3x       Rx   d 8 00 00 00 00 00 00 00 00
   1.431000 1  18F15EF3x       Rx   d 8 00 00 00 00 00 00 00 00
   1.433000 1  CFF21CAx        Rx   d 8 02 00 80 0C 41 3D 00 20
   1.434000 1  18F100D0x       Rx   d 8 0C FF FF FF FF FF FF FF
   1.436000 1  CFF21CAx        Rx   d 8 02 00 80 0C 41 3D 00 20
   1.446000 1  CFF21CAx        Rx   d 8 02 00 80 0C 41 3D 00 20
   1.449000 1  18FF2112x       Rx   d 8 01 00 00 00 00 00 00 00
   1.451000 1  18F100D0x       Rx   d 8 0C FF FF FF FF FF FF FF
   1.458000 1  CFF21CAx        Rx   d 8 02 00 80 0C 41 3D 00 20
   1.470000 1  CFF21CAx        Rx   d 8 02 00 80 0C 41 3D 00 20
   1.479000 1  18F100D0x       Rx   d 8 0C FF FF FF FF FF FF FF
   1.482000 1  CFF21CAx        Rx   d 8 02 00 80 0C 41 3D 00 20
   1.495000 1  CFF21CAx        Rx   d 8 02 00 80 0C 41 3D 00 20
   1.505000 1  18F100F3x       Rx   d 8 02 CC 7D 95 4D FA 14 00
   1.506000 1  18F102F3x       Rx   d 8 0D FF 0D FA 13 02 00 05
   1.508000 1  CFF21CAx        Rx   d 8 02 00 80 0C 41 3D 00 20
   1.510000 1  18F100D0x       Rx   d 8 0C FF FF FF FF FF FF FF
   1.512000 1  18F106F3x       Rx   d 8 45 E0 FC FF FF FF FF FF
   1.514000 1  18F107F3x       Rx   d 8 38 A4 30 70 01 42 00 AC
   1.515000 1  18F108F3x       Rx   d 8 00 00 00 00 00 00 00 00
   1.517000 1  18F155F3x       Rx   d 8 35 35 35 35 35 37 36 00
   1.519000 1  18F156F3x       Rx   d 8 00 00 00 00 00 00 00 00
   1.521000 1  18F157F3x       Rx   d 8 00 00 00 00 00 00 00 00
   1.522000 1  18F158F3x       Rx   d 8 00 00 00 00 00 00 00 00
   1.524000 1  18F159F3x       Rx   d 8 00 00 00 00 00 00 00 00
   1.526000 1  18F15AF3x       Rx   d 8 00 00 00 00 00 00 00 00
   1.527000 1  18F15BF3x       Rx   d 7 00 00 00 00 00 00 00
   1.529000 1  18F15CF3x       Rx   d 8 00 00 00 00 00 00 00 00
   1.531000 1  CFF21CAx        Rx   d 8 02 00 80 0C 41 3D 00 20
   1.532000 1  18F15DF3x       Rx   d 8 00 00 00 00 00 00 00 00
   1.533000 1  18F15EF3x       Rx   d 8 00 00 00 00 00 00 00 00
   1.535000 1  CFF21CAx        Rx   d 8 03 00 80 0C 41 3D 00 20
   1.536000 1  18F100D0x       Rx   d 8 0C FF FF FF FF FF FF FF
   1.543000 1  CFF21CAx        Rx   d 8 03 00 80 0C 41 3D 00 20
   1.546000 1  18FF2112x       Rx   d 8 01 00 00 00 00 00 00 00
   1.557000 1  CFF21CAx        Rx   d 8 03 00 80 0C 41 3D 00 20
   1.563000 1  18F100D0x       Rx   d 8 0C FF FF FF FF FF FF FF
   1.567000 1  CFF21CAx        Rx   d 8 03 00 80 0C 41 3D 00 20
   1.579000 1  CFF21CAx        Rx   d 8 03 00 80 0C 41 3D 00 20
   1.587000 1  18F100D0x       Rx   d 8 0C FF FF FF FF FF FF FF
   1.591000 1  CFF21CAx        Rx   d 8 03 00 80 0C 41 3D 00 20
   1.603000 1  CFF21CAx        Rx   d 8 03 00 80 0C 41 3D 00 20
   1.604000 1  18F100F3x       Rx   d 8 02 CC 7D 97 4D FA 14 00
   1.606000 1  18F102F3x       Rx   d 8 0D FF 0D FA 13 02 00 05
   1.608000 1  18F106F3x       Rx   d 8 45 E0 FC FF FF FF FF FF
   1.610000 1  18F107F3x       Rx   d 8 38 A4 30 70 01 42 00 AC
   1.612000 1  18F108F3x       Rx   d 8 00 00 00 00 00 00 00 00
   1.614000 1  18F100D0x       Rx   d 8 0C FF FF FF FF FF FF FF
   1.615000 1  18F155F3x       Rx   d 8 35 35 35 35 35 37 36 00
   1.617000 1  18F156F3x       Rx   d 8 00 00 00 00 00 00 00 00
   1.619000 1  18F157F3x       Rx   d 8 00 00 00 00 00 00 00 00
   1.620000 1  18F158F3x       Rx   d 8 00 00 00 00 00 00 00 00
   1.622000 1  CFF21CAx        Rx   d 8 03 00 80 0C 41 3D 00 20
   1.623000 1  18F159F3x       Rx   d 8 00 00 00 00 00 00 00 00
   1.625000 1  18F15AF3x       Rx   d 8 00 00 00 00 00 00 00 00
   1.627000 1  18F15BF3x       Rx   d 7 00 00 00 00 00 00 00
   1.629000 1  18F15CF3x       Rx   d 8 00 00 00 00 00 00 00 00
   1.630000 1  18F15DF3x       Rx   d 8 00 00 00 00 00 00 00 00
   1.632000 1  18F15EF3x       Rx   d 8 00 00 00 00 00 00 00 00
   1.634000 1  CFF21CAx        Rx   d 8 03 00 80 0C 41 3D 00 20
   1.639000 1  CFF21CAx        Rx   d 8 03 00 80 0C 41 3D 00 20
   1.640000 1  18F100D0x       Rx   d 8 0C FF FF FF FF FF FF FF
   1.643000 1  18FF2112x       Rx   d 8 01 00 00 00 00 00 00 00
   1.651000 1  CFF21CAx        Rx   d 8 03 00 80 0C 41 3D 00 20
   1.663000 1  CFF21CAx        Rx   d 8 04 00 80 0C 41 3D 00 20
   1.664000 1  18F100D0x       Rx   d 8 0C FF FF FF FF FF FF FF
   1.675000 1  CFF21CAx        Rx   d 8 04 00 80 0C 41 3D 00 20
   1.687000 1  CFF21CAx        Rx   d 8 03 00 80 0C 41 3D 00 20
   1.691000 1  18F100D0x       Rx   d 8 0C FF FF FF FF FF FF FF
   1.699000 1  CFF21CAx        Rx   d 8 03 00 80 0C 41 3D 00 20
   1.705000 1  18F100F3x       Rx   d 8 02 CC 7D 97 4D FA 14 00
   1.706000 1  18F102F3x       Rx   d 8 0D FF 0D FA 13 02 00 05
   1.708000 1  18F106F3x       Rx   d 8 45 E0 FC FF FF FF FF FF
   1.710000 1  18F107F3x       Rx   d 8 38 A4 30 70 01 42 00 AC
   1.712000 1  18F108F3x       Rx   d 8 00 00 00 00 00 00 00 00
   1.713000 1  18F155F3x       Rx   d 8 35 35 35 35 35 37 36 00
   1.715000 1  CFF21CAx        Rx   d 8 03 00 80 0C 41 3D 00 20
   1.717000 1  18F156F3x       Rx   d 8 00 00 00 00 00 00 00 00
   1.719000 1  18F157F3x       Rx   d 8 00 00 00 00 00 00 00 00
   1.720000 1  18F158F3x       Rx   d 8 00 00 00 00 00 00 00 00
   1.722000 1  18F159F3x       Rx   d 8 00 00 00 00 00 00 00 00
   1.724000 1  18F100D0x       Rx   d 8 0C FF FF FF FF FF FF FF
   1.726000 1  18F15AF3x       Rx   d 8 00 00 00 00 00 00 00 00
   1.727000 1  18F15BF3x       Rx   d 7 00 00 00 00 00 00 00
   1.729000 1  18F15CF3x       Rx   d 8 00 00 00 00 00 00 00 00
   1.731000 1  18F15DF3x       Rx   d 8 00 00 00 00 00 00 00 00
   1.732000 1  18F15EF3x       Rx   d 8 00 00 00 00 00 00 00 00
   1.734000 1  CFF21CAx        Rx   d 8 03 00 80 0C 41 3D 00 20
   1.736000 1  CFF21CAx        Rx   d 8 03 00 80 0C 41 3D 00 20
   1.739000 1  18F100D0x       Rx   d 8 0C FF FF FF FF FF FF FF
   1.740000 1  18FF2112x       Rx   d 8 01 00 00 00 00 00 00 00
   1.747000 1  CFF21CAx        Rx   d 8 03 00 80 0C 41 3D 00 20
   1.760000 1  CFF21CAx        Rx   d 8 03 00 80 0C 41 3D 00 20
   1.772000 1  CFF21CAx        Rx   d 8 03 00 80 0C 41 3D 00 20
   1.773000 1  18F100D0x       Rx   d 8 0C FF FF FF FF FF FF FF
   1.784000 1  CFF21CAx        Rx   d 8 03 00 80 0C 41 3D 00 20
   1.796000 1  CFF21CAx        Rx   d 8 04 00 80 0C 41 3D 00 20
   1.797000 1  18F100D0x       Rx   d 8 0C FF FF FF FF FF FF FF
   1.805000 1  18F100F3x       Rx   d 8 02 CC 7D 96 4D FA 14 00
   1.806000 1  18F102F3x       Rx   d 8 0D FF 0D FA 13 02 00 05
   1.808000 1  18F106F3x       Rx   d 8 45 E0 FC FF FF FF FF FF
   1.810000 1  CFF21CAx        Rx   d 8 04 00 80 0C 41 3D 00 20
   1.812000 1  18F107F3x       Rx   d 8 38 A4 30 70 01 42 00 AC
   1.813000 1  18F108F3x       Rx   d 8 00 00 00 00 00 00 00 00
   1.815000 1  18F155F3x       Rx   d 8 35 35 35 35 35 37 36 00
   1.816000 1  18F156F3x       Rx   d 8 00 00 00 00 00 00 00 00
   1.818000 1  18F157F3x       Rx   d 8 00 00 00 00 00 00 00 00
   1.819000 1  18F158F3x       Rx   d 8 00 00 00 00 00 00 00 00
   1.820000 1  18F159F3x       Rx   d 8 00 00 00 00 00 00 00 00
   1.821000 1  18F15AF3x       Rx   d 8 00 00 00 00 00 00 00 00
   1.823000 1  18F100D0x       Rx   d 8 0C FF FF FF FF FF FF FF
   1.836000 1  18F15BF3x       Rx   d 7 00 00 00 00 00 00 00
   1.838000 1  18F15CF3x       Rx   d 8 00 00 00 00 00 00 00 00
   1.840000 1  18F15DF3x       Rx   d 8 00 00 00 00 00 00 00 00
   1.842000 1  18F15EF3x       Rx   d 8 00 00 00 00 00 00 00 00
   1.843000 1  CFF21CAx        Rx   d 8 04 00 80 0C 41 3D 00 20
   1.845000 1  CFF21CAx        Rx   d 8 03 00 80 0C 41 3D 00 20
   1.847000 1  18FF2112x       Rx   d 8 01 00 00 00 00 00 00 00
   1.849000 1  18F100D0x       Rx   d 8 0C FF FF FF FF FF FF FF
   1.850000 1  CFF21CAx        Rx   d 8 03 00 80 0C 41 3D 00 20
   1.856000 1  CFF21CAx        Rx   d 8 03 00 80 0C 41 3D 00 20
   1.868000 1  CFF21CAx        Rx   d 8 03 00 80 0C 41 3D 00 20
   1.869000 1  18F100D0x       Rx   d 8 0C FF FF FF FF FF FF FF
   1.880000 1  CFF21CAx        Rx   d 8 03 00 80 0C 41 3D 00 20
   1.892000 1  CFF21CAx        Rx   d 8 03 00 80 0C 41 3D 00 20
   1.893000 1  18F100D0x       Rx   d 8 0C FF FF FF FF FF FF FF
   1.904000 1  CFF21CAx        Rx   d 8 03 00 80 0C 41 3D 00 20
   1.905000 1  18F100F3x       Rx   d 8 02 CC 7D 96 4D FA 14 00
   1.906000 1  18F102F3x       Rx   d 8 0D FF 0D FB 12 02 00 04
   1.908000 1  18F106F3x       Rx   d 8 45 E0 FC FF FF FF FF FF
   1.909000 1  18F107F3x       Rx   d 8 38 A4 30 70 01 42 00 AC
   1.910000 1  18F108F3x       Rx   d 8 00 00 00 00 00 00 00 00
   1.911000 1  18F155F3x       Rx   d 8 35 35 35 35 35 37 36 00
   1.932000 1  18F156F3x       Rx   d 8 00 00 00 00 00 00 00 00
   1.934000 1  18F100D0x       Rx   d 8 0C FF FF FF FF FF FF FF
   1.935000 1  18F157F3x       Rx   d 8 00 00 00 00 00 00 00 00
   1.937000 1  18F158F3x       Rx   d 8 00 00 00 00 00 00 00 00
   1.939000 1  18F159F3x       Rx   d 8 00 00 00 00 00 00 00 00
   1.940000 1  18F15AF3x       Rx   d 8 00 00 00 00 00 00 00 00
   1.942000 1  CFF21CAx        Rx   d 8 03 00 80 0C 41 3D 00 20
   1.944000 1  18F15BF3x       Rx   d 7 00 00 00 00 00 00 00
   1.946000 1  18F15CF3x       Rx   d 8 00 00 00 00 00 00 00 00
   1.948000 1  18F15DF3x       Rx   d 8 00 00 00 00 00 00 00 00
   1.950000 1  18F15EF3x       Rx   d 8 00 00 00 00 00 00 00 00
   1.951000 1  CFF21CAx        Rx   d 8 02 00 80 0C 41 3D 00 20
   1.953000 1  18FF2112x       Rx   d 8 01 00 00 00 00 00 00 00
   1.954000 1  CFF21CAx        Rx   d 8 02 00 80 0C 41 3D 00 20
   1.956000 1  18F100D0x       Rx   d 8 0C FF FF FF FF FF FF FF
   1.957000 1  CFF21CAx        Rx   d 8 02 00 80 0C 41 3D 00 20
   1.965000 1  CFF21CAx        Rx   d 8 02 00 80 0C 41 3D 00 20
   1.966000 1  18F100D0x       Rx   d 8 0C FF FF FF FF FF FF FF
   1.991000 1  18FECACAx       Rx   d 8 00 00 00 00 00 00 FF FF
   1.993000 1  CFF21CAx        Rx   d 8 02 00 80 0C 41 3D 00 20
   1.995000 1  18F100D0x       Rx   d 8 0C FF FF FF FF FF FF FF
   1.996000 1  CFF21CAx        Rx   d 8 02 00 80 0C 41 3D 00 20
   2.001000 1  CFF21CAx        Rx   d 8 02 00 80 0C 41 3D 00 20
   2.005000 1  18F100F3x       Rx   d 8 02 CC 7D 96 4D FA 14 00
   2.006000 1  18F102F3x       Rx   d 8 0D FF 0D FB 12 02 00 04
   2.008000 1  18F106F3x       Rx   d 8 45 E0 FC FF FF FF FF FF
   2.010000 1  18F107F3x       Rx   d 8 38 A4 30 70 01 42 00 AC
   2.012000 1  18F108F3x       Rx   d 8 00 00 00 00 00 00 00 00
   2.013000 1  18F155F3x       Rx   d 8 35 35 35 35 35 37 36 00
   2.015000 1  18F156F3x       Rx   d 8 00 00 00 00 00 00 00 00
   2.017000 1  18F157F3x       Rx   d 8 00 00 00 00 00 00 00 00
   2.019000 1  CFF21CAx        Rx   d 8 02 00 80 0C 41 3D 00 20
   2.020000 1  18F100D0x       Rx   d 8 0C FF FF FF FF FF FF FF
   2.022000 1  18F158F3x       Rx   d 8 00 00 00 00 00 00 00 00
   2.024000 1  18F159F3x       Rx   d 8 00 00 00 00 00 00 00 00
   2.026000 1  18F15AF3x       Rx   d 8 00 00 00 00 00 00 00 00
   2.027000 1  18F15BF3x       Rx   d 7 00 00 00 00 00 00 00
   2.029000 1  18F15CF3x       Rx   d 8 00 00 00 00 00 00 00 00
   2.031000 1  18F15DF3x       Rx   d 8 00 00 00 00 00 00 00 00
   2.032000 1  18F15EF3x       Rx   d 8 00 00 00 00 00 00 00 00
   2.034000 1  CFF21CAx        Rx   d 8 02 00 80 0C 41 3D 00 20
   2.036000 1  18FF2112x       Rx   d 8 01 00 00 00 00 00 00 00
   2.038000 1  CFF21CAx        Rx   d 8 02 00 80 0C 41 3D 00 20
   2.039000 1  18F100D0x       Rx   d 8 0C FF FF FF FF FF FF FF
   2.049000 1  CFF21CAx        Rx   d 8 01 00 80 0C 41 3D 00 20
   2.057000 1  18F100D0x       Rx   d 8 0C FF FF FF FF FF FF FF
   2.061000 1  CFF21CAx        Rx   d 8 01 00 80 0C 41 3D 00 20
   2.073000 1  CFF21CAx        Rx   d 8 01 00 80 0C 41 3D 00 20
   2.085000 1  CFF21CAx        Rx   d 8 01 00 80 0C 41 3D 00 20
   2.086000 1  18F100D0x       Rx   d 8 0C FF FF FF FF FF FF FF
   2.097000 1  CFF21CAx        Rx   d 8 01 00 80 0C 41 3D 00 20
   2.105000 1  18F100F3x       Rx   d 8 02 CC 7D 96 4D FA 14 00
   2.106000 1  18F102F3x       Rx   d 8 0D FF 0D FB 12 02 00 04
   2.108000 1  18F106F3x       Rx   d 8 45 E0 FC FF FF FF FF FF
   2.110000 1  18F107F3x       Rx   d 8 38 A4 30 70 01 42 00 AC
   2.112000 1  CFF21CAx        Rx   d 8 01 00 80 0C 41 3D 00 20
   2.113000 1  18F100D0x       Rx   d 8 0C FF FF FF FF FF FF FF
   2.115000 1  18F108F3x       Rx   d 8 00 00 00 00 00 00 00 00
   2.117000 1  18F155F3x       Rx   d 8 35 35 35 35 35 37 36 00
   2.119000 1  18F156F3x       Rx   d 8 00 00 00 00 00 00 00 00
   2.120000 1  18F157F3x       Rx   d 8 00 00 00 00 00 00 00 00
   2.122000 1  18F158F3x       Rx   d 8 00 00 00 00 00 00 00 00
   2.124000 1  18F159F3x       Rx   d 8 00 00 00 00 00 00 00 00
   2.126000 1  18F15AF3x       Rx   d 8 00 00 00 00 00 00 00 00
   2.127000 1  18F15BF3x       Rx   d 7 00 00 00 00 00 00 00
   2.129000 1  18F15CF3x       Rx   d 8 00 00 00 00 00 00 00 00
   2.131000 1  18F15DF3x       Rx   d 8 00 00 00 00 00 00 00 00
   2.133000 1  18F15EF3x       Rx   d 8 00 00 00 00 00 00 00 00
   2.134000 1  CFF21CAx        Rx   d 8 01 00 80 0C 41 3D 00 20
   2.136000 1  18F100D0x       Rx   d 8 0C FF FF FF FF FF FF FF
   2.138000 1  18FF2112x       Rx   d 8 01 00 00 00 00 00 00 00
   2.139000 1  CFF21CAx        Rx   d 8 01 00 80 0C 41 3D 00 20
   2.145000 1  CFF21CAx        Rx   d 8 01 00 80 0C 41 3D 00 20
   2.157000 1  CFF21CAx        Rx   d 8 01 00 80 0C 41 3D 00 20
   2.158000 1  18F100D0x       Rx   d 8 0C FF FF FF FF FF FF FF
   2.169000 1  CFF21CAx        Rx   d 8 01 00 80 0C 41 3D 00 20
   2.182000 1  CFF21CAx        Rx   d 8 02 00 80 0C 41 3D 00 20
   2.183000 1  18F100D0x       Rx   d 8 0C FF FF FF FF FF FF FF
   2.193000 1  CFF21CAx        Rx   d 8 02 00 80 0C 41 3D 00 20
   2.205000 1  18F100F3x       Rx   d 8 02 CC 7D 96 4D FA 14 00
   2.207000 1  CFF21CAx        Rx   d 8 02 00 80 0C 41 3D 00 20
   2.208000 1  18F102F3x       Rx   d 8 0D FF 0D FB 12 02 00 04
   2.210000 1  18F106F3x       Rx   d 8 45 E0 FC FF FF FF FF FF
   2.211000 1  18F107F3x       Rx   d 8 38 A4 30 70 01 42 00 AC
   2.213000 1  18F100D0x       Rx   d 8 0C FF FF FF FF FF FF FF
   2.215000 1  18F108F3x       Rx   d 8 00 00 00 00 00 00 00 00
   2.217000 1  18F155F3x       Rx   d 8 35 35 35 35 35 37 36 00
   2.219000 1  18F156F3x       Rx   d 8 00 00 00 00 00 00 00 00
   2.220000 1  18F157F3x       Rx   d 8 00 00 00 00 00 00 00 00
   2.222000 1  18F158F3x       Rx   d 8 00 00 00 00 00 00 00 00
   2.224000 1  18F159F3x       Rx   d 8 00 00 00 00 00 00 00 00
   2.226000 1  18F15AF3x       Rx   d 8 00 00 00 00 00 00 00 00
   2.227000 1  18F15BF3x       Rx   d 7 00 00 00 00 00 00 00
   2.229000 1  CFF21CAx        Rx   d 8 02 00 80 0C 41 3D 00 20
   2.231000 1  18F15CF3x       Rx   d 8 00 00 00 00 00 00 00 00
   2.232000 1  18F15DF3x       Rx   d 8 00 00 00 00 00 00 00 00
   2.234000 1  18F15EF3x       Rx   d 8 00 00 00 00 00 00 00 00
   2.236000 1  18FF2112x       Rx   d 8 01 00 00 00 00 00 00 00
   2.238000 1  CFF21CAx        Rx   d 8 02 00 80 0C 41 3D 00 20
   2.239000 1  18F100D0x       Rx   d 8 0C FF FF FF FF FF FF FF
   2.241000 1  18F104F3x       Rx   d 8 37 35 06 01 02 FF FF FF
   2.243000 1  CFF21CAx        Rx   d 8 02 00 80 0C 41 3D 00 20
   2.245000 1  18F113F3x       Rx   d 8 0D FC 0D FB 0D FD 0D FE
   2.247000 1  18F114F3x       Rx   d 8 0D FD 0D FC 0D FE 0D FD
   2.248000 1  18F115F3x       Rx   d 8 0D FC 0D FC 0D FC 0D FB
   2.250000 1  18F116F3x       Rx   d 8 0D FD 0D FC 0D FD 0D FE
   2.252000 1  18F117F3x       Rx   d 8 0D FE 0D FF 0D FF 0D FE
   2.254000 1  18F118F3x       Rx   d 8 00 00 00 00 00 00 00 00
   2.255000 1  18F119F3x       Rx   d 8 00 00 00 00 00 00 00 00
   2.257000 1  18F11AF3x       Rx   d 8 00 00 00 00 00 00 00 00
   2.259000 1  18F11BF3x       Rx   d 8 00 00 00 00 00 00 00 00
   2.261000 1  18F11CF3x       Rx   d 8 00 00 00 00 00 00 00 00
   2.262000 1  18F11DF3x       Rx   d 8 00 00 00 00 00 00 00 00
   2.264000 1  18F11EF3x       Rx   d 8 00 00 00 00 00 00 00 00
   2.266000 1  18F11FF3x       Rx   d 8 00 00 00 00 00 00 00 00
   2.268000 1  CFF21CAx        Rx   d 8 02 00 80 0C 41 3D 00 20
   2.269000 1  18F120F3x       Rx   d 8 00 00 00 00 00 00 00 00
   2.271000 1  18F121F3x       Rx   d 8 00 00 00 00 00 00 00 00
   2.273000 1  18F122F3x       Rx   d 8 00 00 00 00 00 00 00 00
   2.275000 1  18F123F3x       Rx   d 8 00 00 00 00 00 00 00 00
   2.276000 1  18F124F3x       Rx   d 8 00 00 00 00 00 00 00 00
   2.278000 1  18F125F3x       Rx   d 8 00 00 00 00 00 00 00 00
   2.280000 1  18F126F3x       Rx   d 8 00 00 00 00 00 00 00 00
   2.282000 1  18F127F3x       Rx   d 8 00 00 00 00 00 00 00 00
   2.283000 1  18F100D0x       Rx   d 8 0C FF FF FF FF FF FF FF
   2.285000 1  18F128F3x       Rx   d 8 00 00 00 00 00 00 00 00
   2.287000 1  18F129F3x       Rx   d 8 00 00 00 00 00 00 00 00
   2.289000 1  18F12AF3x       Rx   d 8 00 00 00 00 00 00 00 00
   2.290000 1  CFF21CAx        Rx   d 8 02 00 80 0C 41 3D 00 20
   2.292000 1  18F12BF3x       Rx   d 8 00 00 00 00 00 00 00 00
   2.294000 1  18F12CF3x       Rx   d 8 00 00 00 00 00 00 00 00
   2.295000 1  18F12DF3x       Rx   d 8 00 00 00 00 00 00 00 00
   2.297000 1  18F12EF3x       Rx   d 8 00 00 00 00 00 00 00 00
   2.299000 1  18F12FF3x       Rx   d 8 00 00 00 00 00 00 00 00
   2.301000 1  18F130F3x       Rx   d 8 00 00 00 00 00 00 00 00
   2.302000 1  18F131F3x       Rx   d 8 00 00 00 00 00 00 00 00
   2.304000 1  18F132F3x       Rx   d 8 00 00 00 00 00 00 00 00
   2.305000 1  18F133F3x       Rx   d 8 00 00 00 00 00 00 00 00
   2.307000 1  18F134F3x       Rx   d 8 00 00 00 00 00 00 00 00
   2.309000 1  18F135F3x       Rx   d 8 00 00 00 00 00 00 00 00
   2.311000 1  18F136F3x       Rx   d 8 00 00 00 00 00 00 00 00
   2.313000 1  18F137F3x       Rx   d 8 00 00 00 00 00 00 00 00
   2.314000 1  CFF21CAx        Rx   d 8 02 00 80 0C 41 3D 00 20
   2.316000 1  18F138F3x       Rx   d 8 00 00 00 00 00 00 00 00
   2.318000 1  18F139F3x       Rx   d 8 00 00 00 00 00 00 00 00
   2.320000 1  18F13AF3x       Rx   d 8 00 00 00 00 00 00 00 00
   2.321000 1  18F13BF3x       Rx   d 8 00 00 00 00 00 00 00 00
   2.323000 1  18F13CF3x       Rx   d 8 00 00 00 00 00 00 00 00
   2.325000 1  18F100D0x       Rx   d 8 0C FF FF FF FF FF FF FF
   2.326000 1  CFF21CAx        Rx   d 8 02 00 80 0C 41 3D 00 20
