date Sat Jun 06 06:15:43.423 PM 2026
base hex  timestamps absolute
internal events logged
// version 8.0.0
Begin Triggerblock Sat Jun 06 06:15:43.423 PM 2026
   0.000000 Start of measurement
   0.000000 1  CFF21CAx        Rx   d 8 02 00 80 0C 50 45 00 20
   0.012000 1  CFF21CAx        Rx   d 8 02 00 80 0C 50 45 00 20
   0.020000 1  18F100D0x       Rx   d 8 0C FF FF FF FF FF FF FF
   0.024000 1  CFF21CAx        Rx   d 8 02 00 80 0C 50 45 00 20
   0.036000 1  CFF21CAx        Rx   d 8 02 00 80 0C 50 45 00 20
   0.044000 1  18F100D0x       Rx   d 8 0C FF FF FF FF FF FF FF
   0.045000 1  18FF2112x       Rx   d 8 01 00 00 00 00 00 00 00
   0.048000 1  CFF21CAx        Rx   d 8 02 00 80 0C 50 45 00 20
   0.054000 1  18F100F3x       Rx   d 8 02 B6 7D 10 1B FA 14 00
   0.055000 1  18F102F3x       Rx   d 8 0D 91 0D 8A 13 0A 00 07
   0.057000 1  18F106F3x       Rx   d 8 45 E0 FC FF FF FF FF FF
   0.059000 1  18F107F3x       Rx   d 8 38 A4 32 C8 01 38 00 D0
   0.061000 1  18F108F3x       Rx   d 8 0C 00 00 00 00 00 00 03
   0.063000 1  18F155F3x       Rx   d 8 39 39 39 38 38 3A 3A 00
   0.064000 1  CFF21CAx        Rx   d 8 02 00 80 0C 50 45 00 20
   0.066000 1  18F156F3x       Rx   d 8 00 00 00 00 00 00 00 00
   0.068000 1  18F157F3x       Rx   d 8 00 00 00 00 00 00 00 00
   0.069000 1  18F158F3x       Rx   d 8 00 00 00 00 00 00 00 00
   0.071000 1  18F159F3x       Rx   d 8 00 00 00 00 00 00 00 00
   0.073000 1  18F15AF3x       Rx   d 8 00 00 00 00 00 00 00 00
   0.075000 1  18F15BF3x       Rx   d 7 00 00 00 00 00 00 00
   0.076000 1  18F15CF3x       Rx   d 8 00 00 00 00 00 00 00 00
   0.078000 1  18F15DF3x       Rx   d 8 00 00 00 00 00 00 00 00
   0.079000 1  18F15EF3x       Rx   d 8 00 00 00 00 00 00 00 00
   0.081000 1  CFF21CAx        Rx   d 8 02 00 80 0C 50 45 00 20
   0.083000 1  18F100D0x       Rx   d 8 0C FF FF FF FF FF FF FF
   0.085000 1  CFF21CAx        Rx   d 8 02 00 80 0C 50 45 00 20
   0.096000 1  CFF21CAx        Rx   d 8 02 00 80 0C 50 45 00 20
   0.097000 1  18F100D0x       Rx   d 8 0C FF FF FF FF FF FF FF
   0.108000 1  CFF21CAx        Rx   d 8 02 00 80 0C 50 45 00 20
   0.120000 1  CFF21CAx        Rx   d 8 02 00 80 0C 50 45 00 20
   0.125000 1  18F100D0x       Rx   d 8 0C FF FF FF FF FF FF FF
   0.132000 1  CFF21CAx        Rx   d 8 03 00 80 0C 50 45 00 20
   0.142000 1  18FF2112x       Rx   d 8 01 00 00 00 00 00 00 00
   0.145000 1  CFF21CAx        Rx   d 8 03 00 80 0C 50 45 00 20
   0.148000 1  18F100D0x       Rx   d 8 0C FF FF FF FF FF FF FF
   0.154000 1  18F100F3x       Rx   d 8 02 B6 7D 10 1B FA 14 00
   0.155000 1  18F102F3x       Rx   d 8 0D 91 0D 8A 13 0A 00 07
   0.157000 1  18F106F3x       Rx   d 8 45 E0 FC FF FF FF FF FF
   0.159000 1  CFF21CAx        Rx   d 8 03 00 80 0C 50 45 00 20
   0.160000 1  18F107F3x       Rx   d 8 38 A4 32 C8 01 38 00 D0
   0.162000 1  18F108F3x       Rx   d 8 0C 00 00 00 00 00 00 03
   0.164000 1  18F155F3x       Rx   d 8 39 39 39 38 38 3A 3A 00
   0.165000 1  18F156F3x       Rx   d 8 00 00 00 00 00 00 00 00
   0.167000 1  18F157F3x       Rx   d 8 00 00 00 00 00 00 00 00
   0.169000 1  18F158F3x       Rx   d 8 00 00 00 00 00 00 00 00
   0.171000 1  18F159F3x       Rx   d 8 00 00 00 00 00 00 00 00
   0.172000 1  18F15AF3x       Rx   d 8 00 00 00 00 00 00 00 00
   0.174000 1  18F15BF3x       Rx   d 7 00 00 00 00 00 00 00
   0.176000 1  18F15CF3x       Rx   d 8 00 00 00 00 00 00 00 00
   0.178000 1  18F15DF3x       Rx   d 8 00 00 00 00 00 00 00 00
   0.179000 1  18F15EF3x       Rx   d 8 00 00 00 00 00 00 00 00
   0.181000 1  CFF21CAx        Rx   d 8 02 00 80 0C 50 45 00 20
   0.183000 1  18F100D0x       Rx   d 8 0C FF FF FF FF FF FF FF
   0.185000 1  CFF21CAx        Rx   d 8 02 00 80 0C 50 45 00 20
   0.193000 1  CFF21CAx        Rx   d 8 02 00 80 0C 50 45 00 20
   0.201000 1  18F100D0x       Rx   d 8 0C FF FF FF FF FF FF FF
   0.205000 1  CFF21CAx        Rx   d 8 03 00 80 0C 50 45 00 20
   0.217000 1  CFF21CAx        Rx   d 8 03 00 80 0C 50 45 00 20
   0.225000 1  18F100D0x       Rx   d 8 0C FF FF FF FF FF FF FF
   0.229000 1  CFF21CAx        Rx   d 8 03 00 80 0C 50 45 00 20
   0.240000 1  18FF2112x       Rx   d 8 01 00 00 00 00 00 00 00
   0.241000 1  CFF21CAx        Rx   d 8 02 00 80 0C 50 45 00 20
   0.253000 1  CFF21CAx        Rx   d 8 02 00 80 0C 50 45 00 20
   0.254000 1  18F100D0x       Rx   d 8 0C FF FF FF FF FF FF FF
   0.256000 1  18F100F3x       Rx   d 8 02 B6 7D 10 1B FA 14 00
   0.258000 1  18F102F3x       Rx   d 8 0D 91 0D 8A 13 0A 00 07
   0.260000 1  18F106F3x       Rx   d 8 45 E0 FC FF FF FF FF FF
   0.261000 1  18F107F3x       Rx   d 8 38 A4 32 C8 01 38 00 D0
   0.264000 1  18F108F3x       Rx   d 8 0C 00 00 00 00 00 00 03
   0.265000 1  18F155F3x       Rx   d 8 39 39 39 38 38 3A 3A 00
   0.267000 1  18F156F3x       Rx   d 8 00 00 00 00 00 00 00 00
   0.269000 1  18F157F3x       Rx   d 8 00 00 00 00 00 00 00 00
   0.270000 1  18F158F3x       Rx   d 8 00 00 00 00 00 00 00 00
   0.272000 1  18F159F3x       Rx   d 8 00 00 00 00 00 00 00 00
   0.274000 1  18F15AF3x       Rx   d 8 00 00 00 00 00 00 00 00
   0.275000 1  CFF21CAx        Rx   d 8 03 00 80 0C 50 45 00 20
   0.277000 1  18F15BF3x       Rx   d 7 00 00 00 00 00 00 00
   0.279000 1  18F15CF3x       Rx   d 8 00 00 00 00 00 00 00 00
   0.280000 1  18F15DF3x       Rx   d 8 00 00 00 00 00 00 00 00
   0.282000 1  18F15EF3x       Rx   d 8 00 00 00 00 00 00 00 00
   0.284000 1  CFF21CAx        Rx   d 8 03 00 80 0C 50 45 00 20
   0.286000 1  18F100D0x       Rx   d 8 0C FF FF FF FF FF FF FF
   0.289000 1  CFF21CAx        Rx   d 8 03 00 80 0C 50 45 00 20
   0.301000 1  CFF21CAx        Rx   d 8 03 00 80 0C 50 45 00 20
   0.302000 1  18F100D0x       Rx   d 8 0C FF FF FF FF FF FF FF
   0.313000 1  CFF21CAx        Rx   d 8 03 00 80 0C 50 45 00 20
   0.321000 1  18F100D0x       Rx   d 8 0C FF FF FF FF FF FF FF
   0.325000 1  CFF21CAx        Rx   d 8 03 00 80 0C 50 45 00 20
   0.337000 1  18FF2112x       Rx   d 8 01 00 00 00 00 00 00 00
   0.338000 1  CFF21CAx        Rx   d 8 03 00 80 0C 50 45 00 20
   0.349000 1  CFF21CAx        Rx   d 8 03 00 80 0C 50 45 00 20
   0.350000 1  18F100D0x       Rx   d 8 0C FF FF FF FF FF FF FF
   0.354000 1  18F100F3x       Rx   d 8 02 B6 7D 10 1B FA 14 00
   0.355000 1  18F102F3x       Rx   d 8 0D 91 0D 8A 13 0A 00 07
   0.357000 1  18F106F3x       Rx   d 8 45 E0 FC FF FF FF FF FF
   0.359000 1  18F107F3x       Rx   d 8 38 A4 32 C8 01 38 00 D0
   0.361000 1  18F108F3x       Rx   d 8 0C 00 00 00 00 00 00 03
   0.363000 1  18F104F3x       Rx   d 8 3A 38 06 04 02 FF FF FF
   0.364000 1  18F113F3x       Rx   d 8 0D 8F 0D 8C 0D 8F 0D 8D
   0.366000 1  CFF21CAx        Rx   d 8 04 00 80 0C 50 45 00 20
   0.368000 1  18F114F3x       Rx   d 8 0D 8C 0D 8B 0D 90 0D 8E
   0.370000 1  18F115F3x       Rx   d 8 0D 8C 0D 8A 0D 8C 0D 8D
   0.371000 1  18F116F3x       Rx   d 8 0D 8F 0D 8A 0D 8D 0D 8F
   0.373000 1  18F117F3x       Rx   d 8 0D 8A 0D 8E 0D 91 0D 90
   0.375000 1  18F118F3x       Rx   d 8 00 00 00 00 00 00 00 00
   0.377000 1  18F119F3x       Rx   d 8 00 00 00 00 00 00 00 00
   0.379000 1  18F11AF3x       Rx   d 8 00 00 00 00 00 00 00 00
   0.380000 1  18F11BF3x       Rx   d 8 00 00 00 00 00 00 00 00
   0.382000 1  18F11CF3x       Rx   d 8 00 00 00 00 00 00 00 00
   0.384000 1  18F11DF3x       Rx   d 8 00 00 00 00 00 00 00 00
   0.386000 1  18F11EF3x       Rx   d 8 00 00 00 00 00 00 00 00
   0.387000 1  18F11FF3x       Rx   d 8 00 00 00 00 00 00 00 00
   0.389000 1  CFF21CAx        Rx   d 8 04 00 80 0C 50 45 00 20
   0.391000 1  18F100D0x       Rx   d 8 0C FF FF FF FF FF FF FF
   0.393000 1  18F120F3x       Rx   d 8 00 00 00 00 00 00 00 00
   0.395000 1  18F121F3x       Rx   d 8 00 00 00 00 00 00 00 00
   0.396000 1  18F122F3x       Rx   d 8 00 00 00 00 00 00 00 00
   0.398000 1  18F123F3x       Rx   d 8 00 00 00 00 00 00 00 00
   0.400000 1  18F124F3x       Rx   d 8 00 00 00 00 00 00 00 00
   0.401000 1  18F125F3x       Rx   d 8 00 00 00 00 00 00 00 00
   0.403000 1  18F126F3x       Rx   d 8 00 00 00 00 00 00 00 00
   0.405000 1  18F127F3x       Rx   d 8 00 00 00 00 00 00 00 00
   0.407000 1  18F128F3x       Rx   d 8 00 00 00 00 00 00 00 00
   0.409000 1  18F129F3x       Rx   d 8 00 00 00 00 00 00 00 00
   0.410000 1  18F12AF3x       Rx   d 8 00 00 00 00 00 00 00 00
   0.412000 1  18F12BF3x       Rx   d 8 00 00 00 00 00 00 00 00
   0.414000 1  CFF21CAx        Rx   d 8 04 00 80 0C 50 45 00 20
   0.416000 1  18F12CF3x       Rx   d 8 00 00 00 00 00 00 00 00
   0.417000 1  18F12DF3x       Rx   d 8 00 00 00 00 00 00 00 00
   0.419000 1  18F12EF3x       Rx   d 8 00 00 00 00 00 00 00 00
   0.421000 1  18F12FF3x       Rx   d 8 00 00 00 00 00 00 00 00
   0.422000 1  18F130F3x       Rx   d 8 00 00 00 00 00 00 00 00
   0.424000 1  18F131F3x       Rx   d 8 00 00 00 00 00 00 00 00
   0.425000 1  18F132F3x       Rx   d 8 00 00 00 00 00 00 00 00
   0.427000 1  18F133F3x       Rx   d 8 00 00 00 00 00 00 00 00
   0.429000 1  18F100D0x       Rx   d 8 0C FF FF FF FF FF FF FF
   0.430000 1  18F134F3x       Rx   d 8 00 00 00 00 00 00 00 00
   0.432000 1  18F135F3x       Rx   d 8 00 00 00 00 00 00 00 00
   0.434000 1  18F136F3x       Rx   d 8 00 00 00 00 00 00 00 00
   0.436000 1  18F137F3x       Rx   d 8 00 00 00 00 00 00 00 00
   0.437000 1  CFF21CAx        Rx   d 8 04 00 80 0C 50 45 00 20
   0.439000 1  18F138F3x       Rx   d 8 00 00 00 00 00 00 00 00
   0.441000 1  18F139F3x       Rx   d 8 00 00 00 00 00 00 00 00
   0.443000 1  18F13AF3x       Rx   d 8 00 00 00 00 00 00 00 00
   0.444000 1  18F13BF3x       Rx   d 8 00 00 00 00 00 00 00 00
   0.446000 1  18F13CF3x       Rx   d 8 00 00 00 00 00 00 00 00
   0.448000 1  18F155F3x       Rx   d 8 39 39 39 38 38 3A 3A 00
   0.450000 1  18F156F3x       Rx   d 8 00 00 00 00 00 00 00 00
   0.451000 1  18F157F3x       Rx   d 8 00 00 00 00 00 00 00 00
   0.453000 1  18F158F3x       Rx   d 8 00 00 00 00 00 00 00 00
   0.455000 1  18F159F3x       Rx   d 8 00 00 00 00 00 00 00 00
   0.457000 1  18F15AF3x       Rx   d 8 00 00 00 00 00 00 00 00
   0.458000 1  18F15BF3x       Rx   d 7 00 00 00 00 00 00 00
   0.460000 1  CFF21CAx        Rx   d 8 04 00 80 0C 50 45 00 20
   0.462000 1  18F15CF3x       Rx   d 8 00 00 00 00 00 00 00 00
   0.464000 1  18F15DF3x       Rx   d 8 00 00 00 00 00 00 00 00
   0.466000 1  18F15EF3x       Rx   d 8 00 00 00 00 00 00 00 00
   0.467000 1  CFF21CAx        Rx   d 8 03 00 80 0C 50 45 00 20
   0.469000 1  18F100D0x       Rx   d 8 0C FF FF FF FF FF FF FF
   0.471000 1  CFF21CAx        Rx   d 8 03 00 80 0C 50 45 00 20
   0.473000 1  18FF2112x       Rx   d 8 01 00 00 00 00 00 00 00
   0.474000 1  CFF21CAx        Rx   d 8 03 00 80 0C 50 45 00 20
   0.476000 1  18F100D0x       Rx   d 8 0C FF FF FF FF FF FF FF
   0.478000 1  18F100F3x       Rx   d 8 02 B6 7D 10 1B FA 14 00
   0.480000 1  18F102F3x       Rx   d 8 0D 91 0D 8A 13 0A 00 07
   0.481000 1  18F106F3x       Rx   d 8 45 E0 FC FF FF FF FF FF
   0.483000 1  18F107F3x       Rx   d 8 38 A4 32 C8 01 38 00 D0
   0.485000 1  CFF21CAx        Rx   d 8 03 00 80 0C 50 45 00 20
   0.486000 1  18F108F3x       Rx   d 8 0C 00 00 00 00 00 00 03
   0.488000 1  18F155F3x       Rx   d 8 39 39 39 38 38 3A 3A 00
   0.490000 1  18F156F3x       Rx   d 8 00 00 00 00 00 00 00 00
   0.491000 1  18F157F3x       Rx   d 8 00 00 00 00 00 00 00 00
   0.493000 1  18F158F3x       Rx   d 8 00 00 00 00 00 00 00 00
   0.495000 1  18F159F3x       Rx   d 8 00 00 00 00 00 00 00 00
   0.496000 1  18F15AF3x       Rx   d 8 00 00 00 00 00 00 00 00
   0.498000 1  18F15BF3x       Rx   d 7 00 00 00 00 00 00 00
   0.500000 1  18F100D0x       Rx   d 8 0C FF FF FF FF FF FF FF
   0.501000 1  18F15CF3x       Rx   d 8 00 00 00 00 00 00 00 00
   0.503000 1  18F15DF3x       Rx   d 8 00 00 00 00 00 00 00 00
   0.505000 1  18F15EF3x       Rx   d 8 00 00 00 00 00 00 00 00
   0.507000 1  CFF21CAx        Rx   d 8 03 00 80 0C 50 45 00 20
   0.508000 1  CFF21CAx        Rx   d 8 03 00 80 0C 50 45 00 20
   0.510000 1  18F100D0x       Rx   d 8 0C FF FF FF FF FF FF FF
   0.512000 1  CFF21CAx        Rx   d 8 03 00 80 0C 50 45 00 20
   0.514000 1  CFF21CAx        Rx   d 8 03 00 80 0C 50 45 00 20
   0.518000 1  CFF21CAx        Rx   d 8 03 00 80 0C 50 45 00 20
   0.519000 1  18F100D0x       Rx   d 8 0C FF FF FF FF FF FF FF
   0.530000 1  CFF21CAx        Rx   d 8 03 00 80 0C 50 45 00 20
   0.531000 1  18FF2112x       Rx   d 8 01 00 00 00 00 00 00 00
   0.542000 1  CFF21CAx        Rx   d 8 03 00 80 0C 50 45 00 20
   0.543000 1  18F100D0x       Rx   d 8 0C FF FF FF FF FF FF FF
   0.554000 1  18F100F3x       Rx   d 8 02 B6 7D 10 1B FA 14 00
   0.555000 1  CFF21CAx        Rx   d 8 04 00 80 0C 50 45 00 20
   0.556000 1  18F102F3x       Rx   d 8 0D 92 0D 8B 13 0E 00 07
   0.558000 1  18F106F3x       Rx   d 8 45 E0 FC FF FF FF FF FF
   0.559000 1  18F107F3x       Rx   d 8 38 A4 32 C8 01 38 00 D0
   0.560000 1  18F108F3x       Rx   d 8 0C 00 00 00 00 00 00 03
   0.562000 1  18F155F3x       Rx   d 8 39 39 39 38 38 3A 3A 00
   0.563000 1  18F156F3x       Rx   d 8 00 00 00 00 00 00 00 00
   0.577000 1  18F157F3x       Rx   d 8 00 00 00 00 00 00 00 00
   0.578000 1  18F158F3x       Rx   d 8 00 00 00 00 00 00 00 00
   0.580000 1  18F159F3x       Rx   d 8 00 00 00 00 00 00 00 00
   0.581000 1  18F15AF3x       Rx   d 8 00 00 00 00 00 00 00 00
   0.583000 1  18F15BF3x       Rx   d 7 00 00 00 00 00 00 00
   0.585000 1  CFF21CAx        Rx   d 8 04 00 80 0C 50 45 00 20
   0.586000 1  18F15CF3x       Rx   d 8 00 00 00 00 00 00 00 00
   0.588000 1  18F15DF3x       Rx   d 8 00 00 00 00 00 00 00 00
   0.590000 1  18F15EF3x       Rx   d 8 00 00 00 00 00 00 00 00
   0.592000 1  18F100D0x       Rx   d 8 0C FF FF FF FF FF FF FF
   0.593000 1  CFF21CAx        Rx   d 8 04 00 80 0C 50 45 00 20
   0.595000 1  CFF21CAx        Rx   d 8 03 00 80 0C 50 45 00 20
   0.598000 1  18F100D0x       Rx   d 8 0C FF FF FF FF FF FF FF
   0.602000 1  CFF21CAx        Rx   d 8 03 00 80 0C 50 45 00 20
   0.614000 1  CFF21CAx        Rx   d 8 03 00 80 0C 50 45 00 20
   0.622000 1  18F100D0x       Rx   d 8 0C FF FF FF FF FF FF FF
   0.627000 1  CFF21CAx        Rx   d 8 03 00 80 0C 50 45 00 20
   0.628000 1  18FF2112x       Rx   d 8 01 00 00 00 00 00 00 00
   0.638000 1  CFF21CAx        Rx   d 8 03 00 80 0C 50 45 00 20
   0.646000 1  18F100D0x       Rx   d 8 0C FF FF FF FF FF FF FF
   0.650000 1  CFF21CAx        Rx   d 8 03 00 80 0C 50 45 00 20
   0.654000 1  18F100F3x       Rx   d 8 02 B6 7D 10 1B FA 14 00
   0.655000 1  18F102F3x       Rx   d 8 0D 92 0D 8B 13 0E 00 07
   0.657000 1  18F106F3x       Rx   d 8 45 E0 FC FF FF FF FF FF
   0.659000 1  18F107F3x       Rx   d 8 38 A4 32 C8 01 38 00 D0
   0.661000 1  18F108F3x       Rx   d 8 0C 00 00 00 00 00 00 03
   0.663000 1  18F155F3x       Rx   d 8 39 39 39 38 38 3A 3A 00
   0.664000 1  18F156F3x       Rx   d 8 00 00 00 00 00 00 00 00
   0.666000 1  18F157F3x       Rx   d 8 00 00 00 00 00 00 00 00
   0.668000 1  18F158F3x       Rx   d 8 00 00 00 00 00 00 00 00
   0.669000 1  CFF21CAx        Rx   d 8 03 00 80 0C 50 45 00 20
   0.670000 1  18F159F3x       Rx   d 8 00 00 00 00 00 00 00 00
   0.671000 1  18F15AF3x       Rx   d 8 00 00 00 00 00 00 00 00
   0.673000 1  18F15BF3x       Rx   d 7 00 00 00 00 00 00 00
   0.674000 1  18F15CF3x       Rx   d 8 00 00 00 00 00 00 00 00
   0.703000 1  18F15DF3x       Rx   d 8 00 00 00 00 00 00 00 00
   0.705000 1  18F15EF3x       Rx   d 8 00 00 00 00 00 00 00 00
   0.707000 1  CFF21CAx        Rx   d 8 03 00 80 0C 50 45 00 20
   0.709000 1  18F100D0x       Rx   d 8 0C FF FF FF FF FF FF FF
   0.711000 1  CFF21CAx        Rx   d 8 03 00 80 0C 50 45 00 20
   0.712000 1  CFF21CAx        Rx   d 8 03 00 80 0C 50 45 00 20
   0.714000 1  18F100D0x       Rx   d 8 0C FF FF FF FF FF FF FF
   0.716000 1  CFF21CAx        Rx   d 8 04 00 80 0C 50 45 00 20
   0.723000 1  CFF21CAx        Rx   d 8 04 00 80 0C 50 45 00 20
   0.726000 1  18FF2112x       Rx   d 8 01 00 00 00 00 00 00 00
   0.727000 1  18F100D0x       Rx   d 8 0C FF FF FF FF FF FF FF
   0.735000 1  CFF21CAx        Rx   d 8 04 00 80 0C 50 45 00 20
   0.747000 1  CFF21CAx        Rx   d 8 04 00 80 0C 50 45 00 20
   0.751000 1  18F100D0x       Rx   d 8 0C FF FF FF FF FF FF FF
   0.754000 1  18F100F3x       Rx   d 8 02 B6 7D 10 1B FA 14 00
   0.755000 1  18F102F3x       Rx   d 8 0D 92 0D 8B 13 0E 00 07
   0.757000 1  18F106F3x       Rx   d 8 45 E0 FC FF FF FF FF FF
   0.770000 1  18F107F3x       Rx   d 8 38 A4 32 C8 01 38 00 D0
   0.772000 1  18F108F3x       Rx   d 8 0C 00 00 00 00 00 00 03
   0.773000 1  CFF21CAx        Rx   d 8 04 00 80 0C 50 45 00 20
   0.775000 1  18F155F3x       Rx   d 8 39 39 39 38 38 3A 3A 00
   0.777000 1  18F156F3x       Rx   d 8 00 00 00 00 00 00 00 00
   0.779000 1  18F157F3x       Rx   d 8 00 00 00 00 00 00 00 00
   0.780000 1  18F158F3x       Rx   d 8 00 00 00 00 00 00 00 00
   0.782000 1  18F159F3x       Rx   d 8 00 00 00 00 00 00 00 00
   0.784000 1  18F15AF3x       Rx   d 8 00 00 00 00 00 00 00 00
   0.785000 1  18F15BF3x       Rx   d 7 00 00 00 00 00 00 00
   0.787000 1  18F15CF3x       Rx   d 8 00 00 00 00 00 00 00 00
   0.789000 1  18F15DF3x       Rx   d 8 00 00 00 00 00 00 00 00
   0.790000 1  18F15EF3x       Rx   d 8 00 00 00 00 00 00 00 00
   0.791000 1  CFF21CAx        Rx   d 8 04 00 80 0C 50 45 00 20
   0.792000 1  18F100D0x       Rx   d 8 0C FF FF FF FF FF FF FF
   0.793000 1  CFF21CAx        Rx   d 8 04 00 80 0C 50 45 00 20
   0.825000 1  CFF21CAx        Rx   d 8 04 00 80 0C 50 45 00 20
   0.826000 1  18F100D0x       Rx   d 8 0C FF FF FF FF FF FF FF
   0.830000 1  CFF21CAx        Rx   d 8 04 00 80 0C 50 45 00 20
   0.832000 1  CFF21CAx        Rx   d 8 03 00 80 0C 50 45 00 20
   0.833000 1  18FF2112x       Rx   d 8 01 00 00 00 00 00 00 00
   0.835000 1  CFF21CAx        Rx   d 8 03 00 80 0C 50 45 00 20
   0.836000 1  18F100D0x       Rx   d 8 0C FF FF FF FF FF FF FF
   0.844000 1  CFF21CAx        Rx   d 8 03 00 80 0C 50 45 00 20
   0.854000 1  18F100F3x       Rx   d 8 02 B6 7D 10 1B FA 14 00
   0.855000 1  18F102F3x       Rx   d 8 0D 92 0D 8B 13 0E 00 07
   0.857000 1  CFF21CAx        Rx   d 8 03 00 80 0C 50 45 00 20
   0.858000 1  18F100D0x       Rx   d 8 0C FF FF FF FF FF FF FF
   0.859000 1  18F106F3x       Rx   d 8 45 E0 FC FF FF FF FF FF
   0.860000 1  18F107F3x       Rx   d 8 38 A4 32 C8 01 38 00 D0
   0.862000 1  18F108F3x       Rx   d 8 0C 00 00 00 00 00 00 03
   0.863000 1  18F155F3x       Rx   d 8 39 39 39 38 38 3A 3A 00
   0.891000 1  18F156F3x       Rx   d 8 00 00 00 00 00 00 00 00
   0.894000 1  18F157F3x       Rx   d 8 00 00 00 00 00 00 00 00
   0.896000 1  18F158F3x       Rx   d 8 00 00 00 00 00 00 00 00
   0.898000 1  18F159F3x       Rx   d 8 00 00 00 00 00 00 00 00
   0.899000 1  18F15AF3x       Rx   d 8 00 00 00 00 00 00 00 00
   0.901000 1  18F15BF3x       Rx   d 7 00 00 00 00 00 00 00
   0.903000 1  18F15CF3x       Rx   d 8 00 00 00 00 00 00 00 00
   0.905000 1  CFF21CAx        Rx   d 8 03 00 80 0C 50 45 00 20
   0.907000 1  18F15DF3x       Rx   d 8 00 00 00 00 00 00 00 00
   0.908000 1  18F15EF3x       Rx   d 8 00 00 00 00 00 00 00 00
   0.910000 1  CFF21CAx        Rx   d 8 03 00 80 0C 50 45 00 20
   0.912000 1  18F100D0x       Rx   d 8 0C FF FF FF FF FF FF FF
   0.914000 1  CFF21CAx        Rx   d 8 03 00 80 0C 50 45 00 20
   0.916000 1  CFF21CAx        Rx   d 8 03 00 80 0C 50 45 00 20
   0.918000 1  18F100D0x       Rx   d 8 0C FF FF FF FF FF FF FF
   0.920000 1  CFF21CAx        Rx   d 8 03 00 80 0C 50 45 00 20
   0.921000 1  18FF2112x       Rx   d 8 01 00 00 00 00 00 00 00
   0.927000 1  CFF21CAx        Rx   d 8 03 00 80 0C 50 45 00 20
   0.935000 1  18F100D0x       Rx   d 8 0C FF FF FF FF FF FF FF
   0.940000 1  CFF21CAx        Rx   d 8 03 00 80 0C 50 45 00 20
   0.952000 1  CFF21CAx        Rx   d 8 03 00 80 0C 50 45 00 20
   0.953000 1  18F100F3x       Rx   d 8 02 B6 7D 10 1B FA 14 00
   0.955000 1  18F102F3x       Rx   d 8 0D 93 0D 8C 07 0E 00 07
   0.957000 1  18F106F3x       Rx   d 8 45 E0 FC FF FF FF FF FF
   0.959000 1  18F107F3x       Rx   d 8 38 A4 32 C8 01 38 00 D0
   0.961000 1  18F108F3x       Rx   d 8 0C 00 00 00 00 00 00 03
   0.963000 1  18F100D0x       Rx   d 8 0C FF FF FF FF FF FF FF
   0.965000 1  18F155F3x       Rx   d 8 39 39 39 38 38 3A 3A 00
   0.967000 1  18F156F3x       Rx   d 8 00 00 00 00 00 00 00 00
   0.969000 1  18F157F3x       Rx   d 8 00 00 00 00 00 00 00 00
   0.970000 1  18F158F3x       Rx   d 8 00 00 00 00 00 00 00 00
   0.972000 1  CFF21CAx        Rx   d 8 03 00 80 0C 50 45 00 20
   0.973000 1  18F159F3x       Rx   d 8 00 00 00 00 00 00 00 00
   0.975000 1  18F15AF3x       Rx   d 8 00 00 00 00 00 00 00 00
   0.977000 1  18F15BF3x       Rx   d 7 00 00 00 00 00 00 00
   0.979000 1  18F15CF3x       Rx   d 8 00 00 00 00 00 00 00 00
   0.981000 1  18F15DF3x       Rx   d 8 00 00 00 00 00 00 00 00
   0.982000 1  18F15EF3x       Rx   d 8 00 00 00 00 00 00 00 00
   0.985000 1  CFF21CAx        Rx   d 8 03 00 80 0C 50 45 00 20
   0.986000 1  18FECACAx       Rx   d 8 00 00 00 00 00 00 FF FF
   0.988000 1  CFF21CAx        Rx   d 8 03 00 80 0C 50 45 00 20
   0.990000 1  18F100D0x       Rx   d 8 0C FF FF FF FF FF FF FF
   1.000000 1  CFF21CAx        Rx   d 8 03 00 80 0C 50 45 00 20
   1.012000 1  CFF21CAx        Rx   d 8 03 00 80 0C 50 45 00 20
   1.016000 1  18F100D0x       Rx   d 8 0C FF FF FF FF FF FF FF
   1.018000 1  18FF2112x       Rx   d 8 01 00 00 00 00 00 00 00
   1.024000 1  CFF21CAx        Rx   d 8 03 00 80 0C 50 45 00 20
   1.036000 1  CFF21CAx        Rx   d 8 03 00 80 0C 50 45 00 20
   1.040000 1  18F100D0x       Rx   d 8 0C FF FF FF FF FF FF FF
   1.048000 1  CFF21CAx        Rx   d 8 03 00 80 0C 50 45 00 20
   1.054000 1  18F100F3x       Rx   d 8 02 B6 7D 10 1B FA 14 00
   1.055000 1  18F102F3x       Rx   d 8 0D 93 0D 8C 07 0E 00 07
   1.057000 1  18F106F3x       Rx   d 8 45 E0 FC FF FF FF FF FF
   1.058000 1  18F107F3x       Rx   d 8 38 A4 32 C8 01 38 00 D0
   1.061000 1  18F108F3x       Rx   d 8 0C 00 00 00 00 00 00 03
   1.063000 1  18F155F3x       Rx   d 8 39 39 39 38 38 3A 3A 00
   1.064000 1  CFF21CAx        Rx   d 8 03 00 80 0C 50 45 00 20
   1.066000 1  18F100D0x       Rx   d 8 0C FF FF FF FF FF FF FF
   1.068000 1  18F156F3x       Rx   d 8 00 00 00 00 00 00 00 00
   1.070000 1  18F157F3x       Rx   d 8 00 00 00 00 00 00 00 00
   1.072000 1  18F158F3x       Rx   d 8 00 00 00 00 00 00 00 00
   1.074000 1  18F159F3x       Rx   d 8 00 00 00 00 00 00 00 00
   1.076000 1  18F15AF3x       Rx   d 8 00 00 00 00 00 00 00 00
   1.077000 1  18F15BF3x       Rx   d 7 00 00 00 00 00 00 00
   1.079000 1  18F15CF3x       Rx   d 8 00 00 00 00 00 00 00 00
   1.081000 1  18F15DF3x       Rx   d 8 00 00 00 00 00 00 00 00
   1.083000 1  18F15EF3x       Rx   d 8 00 00 00 00 00 00 00 00
   1.084000 1  CFF21CAx        Rx   d 8 03 00 80 0C 50 45 00 20
   1.087000 1  CFF21CAx        Rx   d 8 03 00 80 0C 50 45 00 20
   1.088000 1  18F100D0x       Rx   d 8 0C FF FF FF FF FF FF FF
   1.096000 1  CFF21CAx        Rx   d 8 03 00 80 0C 50 45 00 20
   1.108000 1  CFF21CAx        Rx   d 8 03 00 80 0C 50 45 00 20
   1.112000 1  18F100D0x       Rx   d 8 0C FF FF FF FF FF FF FF
   1.115000 1  18FF2112x       Rx   d 8 01 00 00 00 00 00 00 00
   1.120000 1  CFF21CAx        Rx   d 8 03 00 80 0C 50 45 00 20
   1.133000 1  CFF21CAx        Rx   d 8 03 00 80 0C 50 45 00 20
   1.140000 1  18F100D0x       Rx   d 8 0C FF FF FF FF FF FF FF
   1.144000 1  CFF21CAx        Rx   d 8 03 00 80 0C 50 45 00 20
   1.154000 1  18F100F3x       Rx   d 8 02 B6 7D 10 1B FA 14 00
   1.155000 1  18F102F3x       Rx   d 8 0D 93 0D 8C 07 0E 00 07
   1.157000 1  18F106F3x       Rx   d 8 45 E0 FC FF FF FF FF FF
   1.159000 1  CFF21CAx        Rx   d 8 03 00 80 0C 50 45 00 20
   1.161000 1  18F107F3x       Rx   d 8 38 A4 32 C8 01 38 00 D0
   1.163000 1  18F108F3x       Rx   d 8 0C 00 00 00 00 00 00 03
   1.165000 1  18F155F3x       Rx   d 8 39 39 39 38 38 3A 3A 00
   1.167000 1  18F156F3x       Rx   d 8 00 00 00 00 00 00 00 00
   1.169000 1  18F157F3x       Rx   d 8 00 00 00 00 00 00 00 00
   1.170000 1  18F158F3x       Rx   d 8 00 00 00 00 00 00 00 00
   1.172000 1  18F159F3x       Rx   d 8 00 00 00 00 00 00 00 00
   1.174000 1  18F15AF3x       Rx   d 8 00 00 00 00 00 00 00 00
   1.176000 1  18F100D0x       Rx   d 8 0C FF FF FF FF FF FF FF
   1.178000 1  18F15BF3x       Rx   d 7 00 00 00 00 00 00 00
   1.179000 1  18F15CF3x       Rx   d 8 00 00 00 00 00 00 00 00
   1.181000 1  18F15DF3x       Rx   d 8 00 00 00 00 00 00 00 00
   1.183000 1  18F15EF3x       Rx   d 8 00 00 00 00 00 00 00 00
   1.185000 1  CFF21CAx        Rx   d 8 03 00 80 0C 50 45 00 20
   1.187000 1  CFF21CAx        Rx   d 8 03 00 80 0C 50 45 00 20
   1.193000 1  CFF21CAx        Rx   d 8 03 00 80 0C 50 45 00 20
   1.194000 1  18F100D0x       Rx   d 8 0C FF FF FF FF FF FF FF
   1.205000 1  CFF21CAx        Rx   d 8 03 00 80 0C 50 45 00 20
   1.212000 1  18FF2112x       Rx   d 8 01 00 00 00 00 00 00 00
   1.217000 1  CFF21CAx        Rx   d 8 03 00 80 0C 50 45 00 20
   1.218000 1  18F100D0x       Rx   d 8 0C FF FF FF FF FF FF FF
   1.229000 1  CFF21CAx        Rx   d 8 04 00 80 0C 50 45 00 20
   1.237000 1  18F100D0x       Rx   d 8 0C FF FF FF FF FF FF FF
   1.241000 1  CFF21CAx        Rx   d 8 04 00 80 0C 50 45 00 20
   1.253000 1  CFF21CAx        Rx   d 8 04 00 80 0C 50 45 00 20
   1.254000 1  18F100F3x       Rx   d 8 02 B6 7D 10 1B FA 14 00
   1.256000 1  18F102F3x       Rx   d 8 0D 93 0D 8C 07 0E 00 07
   1.258000 1  18F106F3x       Rx   d 8 45 E0 FC FF FF FF FF FF
   1.260000 1  18F107F3x       Rx   d 8 38 A4 32 C8 01 38 00 D0
   1.262000 1  18F108F3x       Rx   d 8 0C 00 00 00 00 00 00 03
   1.264000 1  18F155F3x       Rx   d 8 39 39 39 38 38 3A 3A 00
   1.266000 1  18F156F3x       Rx   d 8 00 00 00 00 00 00 00 00
   1.268000 1  18F100D0x       Rx   d 8 0C FF FF FF FF FF FF FF
   1.270000 1  18F157F3x       Rx   d 8 00 00 00 00 00 00 00 00
   1.272000 1  18F158F3x       Rx   d 8 00 00 00 00 00 00 00 00
   1.273000 1  18F159F3x       Rx   d 8 00 00 00 00 00 00 00 00
   1.275000 1  18F15AF3x       Rx   d 8 00 00 00 00 00 00 00 00
   1.277000 1  CFF21CAx        Rx   d 8 03 00 80 0C 50 45 00 20
   1.279000 1  18F15BF3x       Rx   d 7 00 00 00 00 00 00 00
   1.281000 1  18F15CF3x       Rx   d 8 00 00 00 00 00 00 00 00
   1.282000 1  18F15DF3x       Rx   d 8 00 00 00 00 00 00 00 00
   1.284000 1  18F15EF3x       Rx   d 8 00 00 00 00 00 00 00 00
   1.286000 1  CFF21CAx        Rx   d 8 03 00 80 0C 50 45 00 20
   1.290000 1  CFF21CAx        Rx   d 8 03 00 80 0C 50 45 00 20
   1.292000 1  18F100D0x       Rx   d 8 0C FF FF FF FF FF FF FF
   1.301000 1  CFF21CAx        Rx   d 8 03 00 80 0C 50 45 00 20
   1.310000 1  18FF2112x       Rx   d 8 01 00 00 00 00 00 00 00
   1.313000 1  CFF21CAx        Rx   d 8 03 00 80 0C 50 45 00 20
   1.315000 1  18F100D0x       Rx   d 8 0C FF FF FF FF FF FF FF
   1.325000 1  CFF21CAx        Rx   d 8 03 00 80 0C 50 45 00 20
   1.337000 1  CFF21CAx        Rx   d 8 03 00 80 0C 50 45 00 20
   1.338000 1  18F100D0x       Rx   d 8 0C FF FF FF FF FF FF FF
   1.349000 1  CFF21CAx        Rx   d 8 03 00 80 0C 50 45 00 20
   1.354000 1  18F100F3x       Rx   d 8 02 B6 7D 10 1B FA 14 00
   1.356000 1  18F102F3x       Rx   d 8 0D 93 0D 8C 07 0E 00 07
   1.357000 1  18F106F3x       Rx   d 8 45 E0 FC FF FF FF FF FF
   1.359000 1  18F107F3x       Rx   d 8 38 A4 32 C8 01 38 00 D0
   1.361000 1  18F100D0x       Rx   d 8 0C FF FF FF FF FF FF FF
   1.363000 1  18F108F3x       Rx   d 8 0C 00 00 00 00 00 00 03
   1.365000 1  18F104F3x       Rx   d 8 3A 38 06 04 02 FF FF FF
   1.367000 1  18F113F3x       Rx   d 8 0D 91 0D 8D 0D 91 0D 8F
   1.369000 1  CFF21CAx        Rx   d 8 03 00 80 0C 50 45 00 20
   1.371000 1  18F114F3x       Rx   d 8 0D 8E 0D 8D 0D 93 0D 90
   1.373000 1  18F115F3x       Rx   d 8 0D 8D 0D 8D 0D 8E 0D 8E
   1.375000 1  18F116F3x       Rx   d 8 0D 92 0D 8C 0D 90 0D 90
   1.376000 1  18F117F3x       Rx   d 8 0D 8C 0D 90 0D 93 0D 92
   1.378000 1  18F118F3x       Rx   d 8 00 00 00 00 00 00 00 00
   1.380000 1  18F119F3x       Rx   d 8 00 00 00 00 00 00 00 00
   1.382000 1  18F11AF3x       Rx   d 8 00 00 00 00 00 00 00 00
   1.384000 1  18F11BF3x       Rx   d 8 00 00 00 00 00 00 00 00
   1.386000 1  18F11CF3x       Rx   d 8 00 00 00 00 00 00 00 00
   1.388000 1  18F11DF3x       Rx   d 8 00 00 00 00 00 00 00 00
   1.390000 1  18F11EF3x       Rx   d 8 00 00 00 00 00 00 00 00
   1.392000 1  18F11FF3x       Rx   d 8 00 00 00 00 00 00 00 00
   1.393000 1  CFF21CAx        Rx   d 8 03 00 80 0C 50 45 00 20
   1.395000 1  18F120F3x       Rx   d 8 00 00 00 00 00 00 00 00
   1.397000 1  18F121F3x       Rx   d 8 00 00 00 00 00 00 00 00
   1.399000 1  18F122F3x       Rx   d 8 00 00 00 00 00 00 00 00
   1.401000 1  18F123F3x       Rx   d 8 00 00 00 00 00 00 00 00
   1.403000 1  18F124F3x       Rx   d 8 00 00 00 00 00 00 00 00
   1.405000 1  18F125F3x       Rx   d 8 00 00 00 00 00 00 00 00
   1.406000 1  18F126F3x       Rx   d 8 00 00 00 00 00 00 00 00
   1.408000 1  18F127F3x       Rx   d 8 00 00 00 00 00 00 00 00
   1.410000 1  18F128F3x       Rx   d 8 00 00 00 00 00 00 00 00
   1.412000 1  18F129F3x       Rx   d 8 00 00 00 00 00 00 00 00
   1.414000 1  18F12AF3x       Rx   d 8 00 00 00 00 00 00 00 00
   1.416000 1  18F12BF3x       Rx   d 8 00 00 00 00 00 00 00 00
   1.418000 1  CFF21CAx        Rx   d 8 03 00 80 0C 50 45 00 20
   1.419000 1  18F100D0x       Rx   d 8 0C FF FF FF FF FF FF FF
   1.421000 1  18F12CF3x       Rx   d 8 00 00 00 00 00 00 00 00
   1.423000 1  18F12DF3x       Rx   d 8 00 00 00 00 00 00 00 00
   1.425000 1  18F12EF3x       Rx   d 8 00 00 00 00 00 00 00 00
   1.426000 1  18F12FF3x       Rx   d 8 00 00 00 00 00 00 00 00
   1.428000 1  18F130F3x       Rx   d 8 00 00 00 00 00 00 00 00
   1.430000 1  18F131F3x       Rx   d 8 00 00 00 00 00 00 00 00
   1.432000 1  18F132F3x       Rx   d 8 00 00 00 00 00 00 00 00
   1.434000 1  18F133F3x       Rx   d 8 00 00 00 00 00 00 00 00
   1.435000 1  18F134F3x       Rx   d 8 00 00 00 00 00 00 00 00
   1.438000 1  18F135F3x       Rx   d 8 00 00 00 00 00 00 00 00
   1.440000 1  18F136F3x       Rx   d 8 00 00 00 00 00 00 00 00
   1.441000 1  18F137F3x       Rx   d 8 00 00 00 00 00 00 00 00
   1.444000 1  CFF21CAx        Rx   d 8 03 00 80 0C 50 45 00 20
   1.445000 1  18F138F3x       Rx   d 8 00 00 00 00 00 00 00 00
   1.447000 1  18F139F3x       Rx   d 8 00 00 00 00 00 00 00 00
   1.448000 1  18F13AF3x       Rx   d 8 00 00 00 00 00 00 00 00
   1.450000 1  18F13BF3x       Rx   d 8 00 00 00 00 00 00 00 00
   1.451000 1  18F13CF3x       Rx   d 8 00 00 00 00 00 00 00 00
   1.453000 1  18F155F3x       Rx   d 8 39 39 39 38 38 3A 3A 00
   1.455000 1  18F156F3x       Rx   d 8 00 00 00 00 00 00 00 00
   1.457000 1  18F157F3x       Rx   d 8 00 00 00 00 00 00 00 00
   1.459000 1  18F158F3x       Rx   d 8 00 00 00 00 00 00 00 00
   1.460000 1  18F159F3x       Rx   d 8 00 00 00 00 00 00 00 00
   1.463000 1  18FF2112x       Rx   d 8 01 00 00 00 00 00 00 00
   1.465000 1  18F15AF3x       Rx   d 8 00 00 00 00 00 00 00 00
   1.466000 1  18F15BF3x       Rx   d 7 00 00 00 00 00 00 00
   1.468000 1  CFF21CAx        Rx   d 8 03 00 80 0C 50 45 00 20
   1.470000 1  18F100D0x       Rx   d 8 0C FF FF FF FF FF FF FF
   1.472000 1  18F15CF3x       Rx   d 8 00 00 00 00 00 00 00 00
   1.473000 1  18F15DF3x       Rx   d 8 00 00 00 00 00 00 00 00
   1.475000 1  18F15EF3x       Rx   d 8 00 00 00 00 00 00 00 00
   1.477000 1  CFF21CAx        Rx   d 8 03 00 80 0C 50 45 00 20
   1.480000 1  CFF21CAx        Rx   d 8 03 00 80 0C 50 45 00 20
   1.481000 1  18F100D0x       Rx   d 8 0C FF FF FF FF FF FF FF
   1.483000 1  CFF21CAx        Rx   d 8 03 00 80 0C 50 45 00 20
   1.485000 1  18F100D0x       Rx   d 8 0C FF FF FF FF FF FF FF
   1.487000 1  18F100F3x       Rx   d 8 02 B6 7D 10 1B FA 14 00
   1.488000 1  18F102F3x       Rx   d 8 0D 93 0D 8C 07 0E 00 07
   1.490000 1  18F106F3x       Rx   d 8 45 E0 FC FF FF FF FF FF
   1.492000 1  18F107F3x       Rx   d 8 38 A4 32 C8 01 38 00 D0
   1.494000 1  CFF21CAx        Rx   d 8 03 00 80 0C 50 45 00 20
   1.496000 1  18F108F3x       Rx   d 8 0C 00 00 00 00 00 00 03
   1.498000 1  18F155F3x       Rx   d 8 39 39 39 38 38 3A 3A 00
   1.499000 1  18F156F3x       Rx   d 8 00 00 00 00 00 00 00 00
   1.501000 1  18F157F3x       Rx   d 8 00 00 00 00 00 00 00 00
   1.503000 1  18F158F3x       Rx   d 8 00 00 00 00 00 00 00 00
   1.505000 1  18F159F3x       Rx   d 8 00 00 00 00 00 00 00 00
   1.507000 1  18F15AF3x       Rx   d 8 00 00 00 00 00 00 00 00
   1.509000 1  18F15BF3x       Rx   d 7 00 00 00 00 00 00 00
   1.510000 1  18F15CF3x       Rx   d 8 00 00 00 00 00 00 00 00
   1.512000 1  18F15DF3x       Rx   d 8 00 00 00 00 00 00 00 00
   1.514000 1  18F15EF3x       Rx   d 8 00 00 00 00 00 00 00 00
   1.515000 1  CFF21CAx        Rx   d 8 03 00 80 0C 50 45 00 20
   1.517000 1  CFF21CAx        Rx   d 8 03 00 80 0C 50 45 00 20
   1.519000 1  18F100D0x       Rx   d 8 0C FF FF FF FF FF FF FF
   1.521000 1  CFF21CAx        Rx   d 8 03 00 80 0C 50 45 00 20
   1.523000 1  18FF2112x       Rx   d 8 01 00 00 00 00 00 00 00
   1.525000 1  CFF21CAx        Rx   d 8 03 00 80 0C 50 45 00 20
   1.527000 1  18F100D0x       Rx   d 8 0C FF FF FF FF FF FF FF
   1.529000 1  CFF21CAx        Rx   d 8 03 00 80 0C 50 45 00 20
   1.531000 1  CFF21CAx        Rx   d 8 03 00 80 0C 50 45 00 20
   1.532000 1  18F100D0x       Rx   d 8 0C FF FF FF FF FF FF FF
   1.542000 1  CFF21CAx        Rx   d 8 03 00 80 0C 50 45 00 20
   1.554000 1  18F100F3x       Rx   d 8 02 B6 7D 10 1B FA 14 00
   1.556000 1  CFF21CAx        Rx   d 8 03 00 80 0C 50 45 00 20
   1.557000 1  18F100D0x       Rx   d 8 0C FF FF FF FF FF FF FF
   1.559000 1  18F102F3x       Rx   d 8 0D 93 0D 8D 07 02 00 06
   1.561000 1  18F106F3x       Rx   d 8 45 E0 FC FF FF FF FF FF
   1.563000 1  18F107F3x       Rx   d 8 38 A4 32 C8 01 38 00 D0
   1.565000 1  18F108F3x       Rx   d 8 0C 00 00 00 00 00 00 03
   1.567000 1  18F155F3x       Rx   d 8 39 39 39 38 38 3A 3A 00
   1.569000 1  18F156F3x       Rx   d 8 00 00 00 00 00 00 00 00
   1.571000 1  18F157F3x       Rx   d 8 00 00 00 00 00 00 00 00
   1.572000 1  18F158F3x       Rx   d 8 00 00 00 00 00 00 00 00
   1.574000 1  18F159F3x       Rx   d 8 00 00 00 00 00 00 00 00
   1.576000 1  18F15AF3x       Rx   d 8 00 00 00 00 00 00 00 00
   1.578000 1  CFF21CAx        Rx   d 8 03 00 80 0C 50 45 00 20
   1.580000 1  18F15BF3x       Rx   d 7 00 00 00 00 00 00 00
   1.582000 1  18F15CF3x       Rx   d 8 00 00 00 00 00 00 00 00
   1.583000 1  18F15DF3x       Rx   d 8 00 00 00 00 00 00 00 00
   1.585000 1  18F15EF3x       Rx   d 8 00 00 00 00 00 00 00 00
   1.587000 1  CFF21CAx        Rx   d 8 03 00 80 0C 50 45 00 20
   1.589000 1  18F100D0x       Rx   d 8 0C FF FF FF FF FF FF FF
   1.591000 1  CFF21CAx        Rx   d 8 03 00 80 0C 50 45 00 20
   1.601000 1  18FF2112x       Rx   d 8 01 00 00 00 00 00 00 00
   1.602000 1  CFF21CAx        Rx   d 8 03 00 80 0C 50 45 00 20
   1.610000 1  18F100D0x       Rx   d 8 0C FF FF FF FF FF FF FF
   1.614000 1  CFF21CAx        Rx   d 8 02 00 80 0C 50 45 00 20
   1.626000 1  CFF21CAx        Rx   d 8 02 00 80 0C 50 45 00 20
   1.634000 1  18F100D0x       Rx   d 8 0C FF FF FF FF FF FF FF
   1.638000 1  CFF21CAx        Rx   d 8 02 00 80 0C 50 45 00 20
   1.651000 1  CFF21CAx        Rx   d 8 02 00 80 0C 50 45 00 20
   1.654000 1  18F100F3x       Rx   d 8 02 B6 7D 10 1B FA 14 00
   1.655000 1  18F102F3x       Rx   d 8 0D 93 0D 8D 07 02 00 06
   1.657000 1  18F106F3x       Rx   d 8 45 E0 FC FF FF FF FF FF
   1.659000 1  18F107F3x       Rx   d 8 38 A4 32 C8 01 38 00 D0
   1.661000 1  18F108F3x       Rx   d 8 0C 00 00 00 00 00 00 03
   1.663000 1  18F155F3x       Rx   d 8 39 39 39 38 38 3A 3A 00
   1.665000 1  18F156F3x       Rx   d 8 00 00 00 00 00 00 00 00
   1.667000 1  18F157F3x       Rx   d 8 00 00 00 00 00 00 00 00
   1.668000 1  CFF21CAx        Rx   d 8 02 00 80 0C 50 45 00 20
   1.670000 1  18F100D0x       Rx   d 8 0C FF FF FF FF FF FF FF
   1.671000 1  18F158F3x       Rx   d 8 00 00 00 00 00 00 00 00
   1.673000 1  18F159F3x       Rx   d 8 00 00 00 00 00 00 00 00
   1.675000 1  18F15AF3x       Rx   d 8 00 00 00 00 00 00 00 00
   1.677000 1  18F15BF3x       Rx   d 7 00 00 00 00 00 00 00
   1.679000 1  18F15CF3x       Rx   d 8 00 00 00 00 00 00 00 00
   1.681000 1  18F15DF3x       Rx   d 8 00 00 00 00 00 00 00 00
   1.682000 1  18F15EF3x       Rx   d 8 00 00 00 00 00 00 00 00
   1.684000 1  CFF21CAx        Rx   d 8 02 00 80 0C 50 45 00 20
   1.686000 1  CFF21CAx        Rx   d 8 02 00 80 0C 50 45 00 20
   1.691000 1  18F100D0x       Rx   d 8 0C FF FF FF FF FF FF FF
   1.699000 1  CFF21CAx        Rx   d 8 02 00 80 0C 50 45 00 20
   1.700000 1  18FF2112x       Rx   d 8 01 00 00 00 00 00 00 00
   1.711000 1  CFF21CAx        Rx   d 8 03 00 80 0C 50 45 00 20
   1.715000 1  18F100D0x       Rx   d 8 0C FF FF FF FF FF FF FF
   1.723000 1  CFF21CAx        Rx   d 8 03 00 80 0C 50 45 00 20
   1.735000 1  CFF21CAx        Rx   d 8 03 00 80 0C 50 45 00 20
   1.743000 1  18F100D0x       Rx   d 8 0C FF FF FF FF FF FF FF
   1.747000 1  CFF21CAx        Rx   d 8 02 00 80 0C 50 45 00 20
   1.754000 1  18F100F3x       Rx   d 8 02 B6 7D 10 1B FA 14 00
   1.756000 1  18F102F3x       Rx   d 8 0D 93 0D 8D 07 02 00 06
   1.757000 1  18F106F3x       Rx   d 8 45 E0 FC FF FF FF FF FF
   1.758000 1  18F107F3x       Rx   d 8 38 A4 32 C8 01 38 00 D0
   1.760000 1  18F108F3x       Rx   d 8 0C 00 00 00 00 00 00 03
   1.762000 1  CFF21CAx        Rx   d 8 02 00 80 0C 50 45 00 20
   1.764000 1  18F155F3x       Rx   d 8 39 39 39 38 38 3A 3A 00
   1.766000 1  18F156F3x       Rx   d 8 00 00 00 00 00 00 00 00
   1.768000 1  18F157F3x       Rx   d 8 00 00 00 00 00 00 00 00
   1.769000 1  18F158F3x       Rx   d 8 00 00 00 00 00 00 00 00
   1.771000 1  18F159F3x       Rx   d 8 00 00 00 00 00 00 00 00
   1.773000 1  18F15AF3x       Rx   d 8 00 00 00 00 00 00 00 00
   1.775000 1  18F15BF3x       Rx   d 7 00 00 00 00 00 00 00
   1.777000 1  18F15CF3x       Rx   d 8 00 00 00 00 00 00 00 00
   1.779000 1  18F100D0x       Rx   d 8 0C FF FF FF FF FF FF FF
   1.781000 1  18F15DF3x       Rx   d 8 00 00 00 00 00 00 00 00
   1.782000 1  18F15EF3x       Rx   d 8 00 00 00 00 00 00 00 00
   1.785000 1  CFF21CAx        Rx   d 8 02 00 80 0C 50 45 00 20
   1.786000 1  CFF21CAx        Rx   d 8 03 00 80 0C 50 45 00 20
   1.795000 1  CFF21CAx        Rx   d 8 03 00 80 0C 50 45 00 20
   1.796000 1  18F100D0x       Rx   d 8 0C FF FF FF FF FF FF FF
   1.798000 1  18FF2112x       Rx   d 8 01 00 00 00 00 00 00 00
   1.807000 1  CFF21CAx        Rx   d 8 03 00 80 0C 50 45 00 20
   1.819000 1  CFF21CAx        Rx   d 8 03 00 80 0C 50 45 00 20
   1.820000 1  18F100D0x       Rx   d 8 0C FF FF FF FF FF FF FF
   1.831000 1  CFF21CAx        Rx   d 8 03 00 80 0C 50 45 00 20
   1.844000 1  CFF21CAx        Rx   d 8 03 00 80 0C 50 45 00 20
   1.847000 1  18F100D0x       Rx   d 8 0C FF FF FF FF FF FF FF
   1.854000 1  18F100F3x       Rx   d 8 02 B6 7D 10 1B FA 14 00
   1.855000 1  18F102F3x       Rx   d 8 0D 93 0D 8D 07 02 00 06
   1.857000 1  CFF21CAx        Rx   d 8 03 00 80 0C 50 45 00 20
   1.858000 1  18F106F3x       Rx   d 8 45 E0 FC FF FF FF FF FF
   1.860000 1  18F107F3x       Rx   d 8 38 A4 32 C8 01 38 00 D0
   1.862000 1  18F108F3x       Rx   d 8 0C 00 00 00 00 00 00 03
   1.863000 1  18F155F3x       Rx   d 8 39 39 39 38 38 3A 3A 00
   1.865000 1  18F156F3x       Rx   d 8 00 00 00 00 00 00 00 00
   1.867000 1  18F157F3x       Rx   d 8 00 00 00 00 00 00 00 00
   1.869000 1  18F158F3x       Rx   d 8 00 00 00 00 00 00 00 00
   1.871000 1  18F159F3x       Rx   d 8 00 00 00 00 00 00 00 00
   1.873000 1  18F15AF3x       Rx   d 8 00 00 00 00 00 00 00 00
   1.874000 1  18F15BF3x       Rx   d 7 00 00 00 00 00 00 00
   1.876000 1  18F15CF3x       Rx   d 8 00 00 00 00 00 00 00 00
   1.878000 1  18F15DF3x       Rx   d 8 00 00 00 00 00 00 00 00
   1.880000 1  CFF21CAx        Rx   d 8 03 00 80 0C 50 45 00 20
   1.882000 1  18F15EF3x       Rx   d 8 00 00 00 00 00 00 00 00
   1.884000 1  18F100D0x       Rx   d 8 0C FF FF FF FF FF FF FF
   1.885000 1  CFF21CAx        Rx   d 8 02 00 80 0C 50 45 00 20
   1.891000 1  CFF21CAx        Rx   d 8 02 00 80 0C 50 45 00 20
   1.894000 1  18FF2112x       Rx   d 8 01 00 00 00 00 00 00 00
   1.899000 1  18F100D0x       Rx   d 8 0C FF FF FF FF FF FF FF
   1.903000 1  CFF21CAx        Rx   d 8 02 00 80 0C 50 45 00 20
   1.916000 1  CFF21CAx        Rx   d 8 02 00 80 0C 50 45 00 20
   1.923000 1  18F100D0x       Rx   d 8 0C FF FF FF FF FF FF FF
   1.927000 1  CFF21CAx        Rx   d 8 02 00 80 0C 50 45 00 20
   1.940000 1  CFF21CAx        Rx   d 8 02 00 80 0C 50 45 00 20
   1.952000 1  CFF21CAx        Rx   d 8 02 00 80 0C 50 45 00 20
   1.953000 1  18F100D0x       Rx   d 8 0C FF FF FF FF FF FF FF
   1.955000 1  18F100F3x       Rx   d 8 02 B6 7D 10 1B FA 14 00
   1.957000 1  18F102F3x       Rx   d 8 0D 93 0D 8D 07 02 00 06
   1.959000 1  18F106F3x       Rx   d 8 45 E0 FC FF FF FF FF FF
   1.961000 1  18F107F3x       Rx   d 8 38 A4 32 C8 01 38 00 D0
   1.962000 1  18F108F3x       Rx   d 8 0C 00 00 00 00 00 00 03
   1.964000 1  18F155F3x       Rx   d 8 39 39 39 38 38 3A 3A 00
   1.965000 1  18F156F3x       Rx   d 8 00 00 00 00 00 00 00 00
   1.968000 1  18F157F3x       Rx   d 8 00 00 00 00 00 00 00 00
   1.969000 1  18F158F3x       Rx   d 8 00 00 00 00 00 00 00 00
   1.971000 1  18F159F3x       Rx   d 8 00 00 00 00 00 00 00 00
   1.973000 1  CFF21CAx        Rx   d 8 02 00 80 0C 50 45 00 20
   1.975000 1  18F15AF3x       Rx   d 8 00 00 00 00 00 00 00 00
   1.976000 1  18F15BF3x       Rx   d 7 00 00 00 00 00 00 00
   1.978000 1  18F15CF3x       Rx   d 8 00 00 00 00 00 00 00 00
   1.980000 1  18F15DF3x       Rx   d 8 00 00 00 00 00 00 00 00
   1.982000 1  18F15EF3x       Rx   d 8 00 00 00 00 00 00 00 00
   1.984000 1  CFF21CAx        Rx   d 8 02 00 80 0C 50 45 00 20
   1.986000 1  18F100D0x       Rx   d 8 0C FF FF FF FF FF FF FF
   1.988000 1  CFF21CAx        Rx   d 8 02 00 80 0C 50 45 00 20
   1.991000 1  18FF2112x       Rx   d 8 01 00 00 00 00 00 00 00
   2.000000 1  CFF21CAx        Rx   d 8 03 00 80 0C 50 45 00 20
   2.004000 1  18F100D0x       Rx   d 8 0C FF FF FF FF FF FF FF
   2.005000 1  18FECACAx       Rx   d 8 00 00 00 00 00 00 FF FF
   2.012000 1  CFF21CAx        Rx   d 8 03 00 80 0C 50 45 00 20
   2.024000 1  CFF21CAx        Rx   d 8 03 00 80 0C 50 45 00 20
   2.032000 1  18F100D0x       Rx   d 8 0C FF FF FF FF FF FF FF
   2.036000 1  CFF21CAx        Rx   d 8 03 00 80 0C 50 45 00 20
   2.048000 1  CFF21CAx        Rx   d 8 03 00 80 0C 50 45 00 20
   2.054000 1  18F100F3x       Rx   d 8 02 B6 7D 10 1B FA 14 00
   2.055000 1  18F102F3x       Rx   d 8 0D 93 0D 8D 07 02 00 06
   2.057000 1  18F106F3x       Rx   d 8 45 E0 FC FF FF FF FF FF
   2.059000 1  18F100D0x       Rx   d 8 0C FF FF FF FF FF FF FF
   2.061000 1  18F107F3x       Rx   d 8 38 A4 32 C8 01 38 00 D0
   2.062000 1  18F108F3x       Rx   d 8 0C 00 00 00 00 00 00 03
   2.064000 1  18F155F3x       Rx   d 8 39 39 39 38 38 3A 3A 00
   2.066000 1  CFF21CAx        Rx   d 8 03 00 80 0C 50 45 00 20
   2.067000 1  18F156F3x       Rx   d 8 00 00 00 00 00 00 00 00
   2.069000 1  18F157F3x       Rx   d 8 00 00 00 00 00 00 00 00
   2.070000 1  18F158F3x       Rx   d 8 00 00 00 00 00 00 00 00
   2.071000 1  18F159F3x       Rx   d 8 00 00 00 00 00 00 00 00
   2.103000 1  18F15AF3x       Rx   d 8 00 00 00 00 00 00 00 00
   2.105000 1  18F15BF3x       Rx   d 7 00 00 00 00 00 00 00
   2.107000 1  18F15CF3x       Rx   d 8 00 00 00 00 00 00 00 00
   2.109000 1  18F15DF3x       Rx   d 8 00 00 00 00 00 00 00 00
   2.111000 1  18F15EF3x       Rx   d 8 00 00 00 00 00 00 00 00
   2.113000 1  CFF21CAx        Rx   d 8 03 00 80 0C 50 45 00 20
   2.115000 1  CFF21CAx        Rx   d 8 03 00 80 0C 50 45 00 20
   2.117000 1  18F100D0x       Rx   d 8 0C FF FF FF FF FF FF FF
   2.119000 1  18FF2112x       Rx   d 8 01 00 00 00 00 00 00 00
   2.120000 1  CFF21CAx        Rx   d 8 03 00 80 0C 50 45 00 20
   2.122000 1  CFF21CAx        Rx   d 8 03 00 80 0C 50 45 00 20
   2.124000 1  18F100D0x       Rx   d 8 0C FF FF FF FF FF FF FF
   2.126000 1  CFF21CAx        Rx   d 8 03 00 80 0C 50 45 00 20
   2.129000 1  18F100D0x       Rx   d 8 0C FF FF FF FF FF FF FF
   2.132000 1  CFF21CAx        Rx   d 8 02 00 80 0C 50 45 00 20
   2.144000 1  CFF21CAx        Rx   d 8 02 00 80 0C 50 45 00 20
   2.152000 1  18F100D0x       Rx   d 8 0C FF FF FF FF FF FF FF
   2.153000 1  18F100F3x       Rx   d 8 02 B6 7D 10 1B FA 14 00
   2.154000 1  18F102F3x       Rx   d 8 0D 93 0D 8D 07 02 00 06
   2.156000 1  18F106F3x       Rx   d 8 45 E0 FC FF FF FF FF FF
   2.170000 1  CFF21CAx        Rx   d 8 02 00 80 0C 50 45 00 20
   2.173000 1  18F107F3x       Rx   d 8 38 A4 32 C8 01 38 00 D0
   2.175000 1  18F108F3x       Rx   d 8 0C 00 00 00 00 00 00 03
   2.177000 1  18F155F3x       Rx   d 8 39 39 39 38 38 3A 3A 00
   2.178000 1  18F156F3x       Rx   d 8 00 00 00 00 00 00 00 00
   2.180000 1  18F157F3x       Rx   d 8 00 00 00 00 00 00 00 00
   2.182000 1  18F158F3x       Rx   d 8 00 00 00 00 00 00 00 00
   2.183000 1  18F159F3x       Rx   d 8 00 00 00 00 00 00 00 00
   2.185000 1  18F15AF3x       Rx   d 8 00 00 00 00 00 00 00 00
   2.187000 1  18F15BF3x       Rx   d 7 00 00 00 00 00 00 00
   2.189000 1  18F15CF3x       Rx   d 8 00 00 00 00 00 00 00 00
   2.190000 1  18F15DF3x       Rx   d 8 00 00 00 00 00 00 00 00
   2.191000 1  18F15EF3x       Rx   d 8 00 00 00 00 00 00 00 00
   2.193000 1  CFF21CAx        Rx   d 8 03 00 80 0C 50 45 00 20
   2.194000 1  CFF21CAx        Rx   d 8 03 00 80 0C 50 45 00 20
   2.195000 1  18F100D0x       Rx   d 8 0C FF FF FF FF FF FF FF
   2.196000 1  18FF2112x       Rx   d 8 01 00 00 00 00 00 00 00
   2.226000 1  CFF21CAx        Rx   d 8 03 00 80 0C 50 45 00 20
   2.232000 1  CFF21CAx        Rx   d 8 03 00 80 0C 50 45 00 20
   2.234000 1  18F100D0x       Rx   d 8 0C FF FF FF FF FF FF FF
   2.236000 1  CFF21CAx        Rx   d 8 03 00 80 0C 50 45 00 20
   2.238000 1  CFF21CAx        Rx   d 8 03 00 80 0C 50 45 00 20
   2.239000 1  18F100D0x       Rx   d 8 0C FF FF FF FF FF FF FF
   2.242000 1  CFF21CAx        Rx   d 8 03 00 80 0C 50 45 00 20
   2.253000 1  CFF21CAx        Rx   d 8 03 00 80 0C 50 45 00 20
   2.254000 1  18F100F3x       Rx   d 8 02 B6 7D 10 1B FA 14 00
   2.255000 1  18F102F3x       Rx   d 8 0D 93 0D 8D 07 02 00 06
   2.257000 1  18F106F3x       Rx   d 8 45 E0 FC FF FF FF FF FF
   2.258000 1  18F100D0x       Rx   d 8 0C FF FF FF FF FF FF FF
   2.259000 1  18F107F3x       Rx   d 8 38 A4 32 C8 01 38 00 D0
   2.260000 1  18F108F3x       Rx   d 8 0C 00 00 00 00 00 00 03
   2.262000 1  18F155F3x       Rx   d 8 39 39 39 38 38 3A 3A 00
   2.263000 1  18F156F3x       Rx   d 8 00 00 00 00 00 00 00 00
   2.289000 1  18F157F3x       Rx   d 8 00 00 00 00 00 00 00 00
   2.292000 1  18F158F3x       Rx   d 8 00 00 00 00 00 00 00 00
   2.294000 1  18F159F3x       Rx   d 8 00 00 00 00 00 00 00 00
   2.296000 1  CFF21CAx        Rx   d 8 03 00 80 0C 50 45 00 20
   2.298000 1  18F15AF3x       Rx   d 8 00 00 00 00 00 00 00 00
   2.300000 1  18F15BF3x       Rx   d 7 00 00 00 00 00 00 00
   2.302000 1  18F15CF3x       Rx   d 8 00 00 00 00 00 00 00 00
   2.303000 1  18F15DF3x       Rx   d 8 00 00 00 00 00 00 00 00
   2.305000 1  18F15EF3x       Rx   d 8 00 00 00 00 00 00 00 00
   2.307000 1  CFF21CAx        Rx   d 8 03 00 80 0C 50 45 00 20
   2.309000 1  18FF2112x       Rx   d 8 01 00 00 00 00 00 00 00
   2.310000 1  18F100D0x       Rx   d 8 0C FF FF FF FF FF FF FF
   2.312000 1  CFF21CAx        Rx   d 8 03 00 80 0C 50 45 00 20
   2.314000 1  CFF21CAx        Rx   d 8 03 00 80 0C 50 45 00 20
   2.316000 1  18F100D0x       Rx   d 8 0C FF FF FF FF FF FF FF
   2.318000 1  CFF21CAx        Rx   d 8 03 00 80 0C 50 45 00 20
   2.325000 1  CFF21CAx        Rx   d 8 03 00 80 0C 50 45 00 20
   2.337000 1  CFF21CAx        Rx   d 8 03 00 80 0C 50 45 00 20
   2.338000 1  18F100D0x       Rx   d 8 0C FF FF FF FF FF FF FF
   2.349000 1  CFF21CAx        Rx   d 8 03 00 80 0C 50 45 00 20
   2.354000 1  18F100F3x       Rx   d 8 02 B6 7D 10 1B FA 14 00
   2.356000 1  18F102F3x       Rx   d 8 0D 93 0D 8D 07 02 00 06
   2.357000 1  18F106F3x       Rx   d 8 45 E0 FC FF FF FF FF FF
   2.359000 1  18F107F3x       Rx   d 8 38 A4 32 C8 01 38 00 D0
   2.361000 1  18F108F3x       Rx   d 8 0C 00 00 00 00 00 00 03
   2.363000 1  18F104F3x       Rx   d 8 3A 38 06 04 02 FF FF FF
   2.365000 1  18F113F3x       Rx   d 8 0D 92 0D 8D 0D 92 0D 8F
   2.367000 1  CFF21CAx        Rx   d 8 03 00 80 0C 50 45 00 20
   2.369000 1  18F100D0x       Rx   d 8 0C FF FF FF FF FF FF FF
   2.370000 1  18F114F3x       Rx   d 8 0D 8F 0D 8D 0D 93 0D 90
   2.371000 1  18F115F3x       Rx   d 8 0D 8D 0D 8D 0D 8F 0D 8F
   2.373000 1  18F116F3x       Rx   d 8 0D 92 0D 8D 0D 90 0D 90
   2.375000 1  18F117F3x       Rx   d 8 0D 8D 0D 90 0D 93 0D 92
   2.377000 1  18F118F3x       Rx   d 8 00 00 00 00 00 00 00 00
   2.378000 1  18F119F3x       Rx   d 8 00 00 00 00 00 00 00 00
   2.380000 1  18F11AF3x       Rx   d 8 00 00 00 00 00 00 00 00
   2.382000 1  18F11BF3x       Rx   d 8 00 00 00 00 00 00 00 00
   2.384000 1  18F11CF3x       Rx   d 8 00 00 00 00 00 00 00 00
   2.386000 1  18F11DF3x       Rx   d 8 00 00 00 00 00 00 00 00
   2.388000 1  18F11EF3x       Rx   d 8 00 00 00 00 00 00 00 00
   2.390000 1  CFF21CAx        Rx   d 8 03 00 80 0C 50 45 00 20
   2.392000 1  18F11FF3x       Rx   d 8 00 00 00 00 00 00 00 00
   2.394000 1  18F120F3x       Rx   d 8 00 00 00 00 00 00 00 00
   2.396000 1  18F121F3x       Rx   d 8 00 00 00 00 00 00 00 00
   2.398000 1  18F122F3x       Rx   d 8 00 00 00 00 00 00 00 00
   2.400000 1  18F123F3x       Rx   d 8 00 00 00 00 00 00 00 00
   2.401000 1  18F124F3x       Rx   d 8 00 00 00 00 00 00 00 00
   2.403000 1  18FF2112x       Rx   d 8 01 00 00 00 00 00 00 00
   2.405000 1  18F125F3x       Rx   d 8 00 00 00 00 00 00 00 00
   2.407000 1  18F126F3x       Rx   d 8 00 00 00 00 00 00 00 00
   2.409000 1  18F100D0x       Rx   d 8 0C FF FF FF FF FF FF FF
   2.411000 1  18F127F3x       Rx   d 8 00 00 00 00 00 00 00 00
   2.413000 1  18F128F3x       Rx   d 8 00 00 00 00 00 00 00 00
   2.414000 1  18F129F3x       Rx   d 8 00 00 00 00 00 00 00 00
