date Tue May 26 08:26:14.656 PM 2026
base hex  timestamps absolute
internal events logged
// version 8.0.0
Begin Triggerblock Tue May 26 08:26:14.656 PM 2026
   0.000000 Start of measurement
   0.000000 1  18F139F3x       Rx   d 8 00 00 00 00 00 00 00 00
   0.001000 1  18F13AF3x       Rx   d 8 00 00 00 00 00 00 00 00
   0.003000 1  18F13BF3x       Rx   d 8 00 00 00 00 00 00 00 00
   0.005000 1  18F13CF3x       Rx   d 8 00 00 00 00 00 00 00 00
   0.007000 1  18F155F3x       Rx   d 8 36 35 36 36 35 36 36 00
   0.009000 1  18F156F3x       Rx   d 8 00 00 00 00 00 00 00 00
   0.011000 1  18F157F3x       Rx   d 8 00 00 00 00 00 00 00 00
   0.012000 1  CFF21CAx        Rx   d 8 03 00 80 0C 3B 38 00 24
   0.014000 1  18F158F3x       Rx   d 8 00 00 00 00 00 00 00 00
   0.016000 1  18F159F3x       Rx   d 8 00 00 00 00 00 00 00 00
   0.018000 1  18F15AF3x       Rx   d 8 00 00 00 00 00 00 00 00
   0.020000 1  18F15BF3x       Rx   d 7 00 00 00 00 00 00 00
   0.021000 1  18F15CF3x       Rx   d 8 00 00 00 00 00 00 00 00
   0.023000 1  18F15DF3x       Rx   d 8 00 00 00 00 00 00 00 00
   0.024000 1  18F15EF3x       Rx   d 8 00 00 00 00 00 00 00 00
   0.025000 1  18F100D0x       Rx   d 8 0C FF FF FF FF FF FF FF
   0.027000 1  CFF21CAx        Rx   d 8 03 00 80 0C 3B 38 00 24
   0.028000 1  CFF21CAx        Rx   d 8 02 00 80 0C 3B 38 00 24
   0.082000 1  CFF21CAx        Rx   d 8 02 00 80 0C 3B 38 00 24
   0.084000 1  18F100D0x       Rx   d 8 0C FF FF FF FF FF FF FF
   0.086000 1  CFF21CAx        Rx   d 8 02 00 80 0C 3B 38 00 24
   0.088000 1  CFF21CAx        Rx   d 8 02 00 80 0C 3B 38 00 24
   0.090000 1  18F100F3x       Rx   d 8 02 EF 7D CA 98 FA 14 00
   0.091000 1  18F100D0x       Rx   d 8 0C FF FF FF FF FF FF FF
   0.093000 1  18F102F3x       Rx   d 8 0E AD 0E A4 07 0A 00 09
   0.095000 1  18F106F3x       Rx   d 8 45 E0 FC FF FF FF FF FF
   0.096000 1  18F107F3x       Rx   d 8 38 A4 30 70 01 52 00 B4
   0.098000 1  CFF21CAx        Rx   d 8 02 00 80 0C 3B 38 00 24
   0.100000 1  18F108F3x       Rx   d 8 00 00 00 00 00 00 00 00
   0.102000 1  18F155F3x       Rx   d 8 36 35 36 36 35 36 36 00
   0.103000 1  18F156F3x       Rx   d 8 00 00 00 00 00 00 00 00
   0.105000 1  18F157F3x       Rx   d 8 00 00 00 00 00 00 00 00
   0.107000 1  18F158F3x       Rx   d 8 00 00 00 00 00 00 00 00
   0.109000 1  18F159F3x       Rx   d 8 00 00 00 00 00 00 00 00
   0.111000 1  18F15AF3x       Rx   d 8 00 00 00 00 00 00 00 00
   0.112000 1  18F15BF3x       Rx   d 7 00 00 00 00 00 00 00
   0.114000 1  18F15CF3x       Rx   d 8 00 00 00 00 00 00 00 00
   0.116000 1  18FF2112x       Rx   d 8 01 00 00 00 00 00 00 00
   0.118000 1  18F15DF3x       Rx   d 8 00 00 00 00 00 00 00 00
   0.119000 1  18F15EF3x       Rx   d 8 00 00 00 00 00 00 00 00
   0.121000 1  CFF21CAx        Rx   d 8 02 00 80 0C 3B 38 00 24
   0.122000 1  18F100D0x       Rx   d 8 0C FF FF FF FF FF FF FF
   0.124000 1  CFF21CAx        Rx   d 8 02 00 80 0C 3B 38 00 24
   0.125000 1  CFF21CAx        Rx   d 8 02 00 80 0C 3B 38 00 24
   0.127000 1  18F100D0x       Rx   d 8 0C FF FF FF FF FF FF FF
   0.128000 1  CFF21CAx        Rx   d 8 02 00 80 0C 3B 38 00 24
   0.137000 1  CFF21CAx        Rx   d 8 02 00 80 0C 3B 38 00 24
   0.181000 1  CFF21CAx        Rx   d 8 02 00 80 0C 3B 38 00 24
   0.183000 1  18F100D0x       Rx   d 8 0C FF FF FF FF FF FF FF
   0.185000 1  CFF21CAx        Rx   d 8 02 00 80 0C 3B 38 00 24
   0.187000 1  18F100D0x       Rx   d 8 0C FF FF FF FF FF FF FF
   0.188000 1  18F100F3x       Rx   d 8 02 EF 7D CF 98 FA 14 00
   0.190000 1  18F102F3x       Rx   d 8 0E AD 0E A4 0D 0A 00 09
   0.192000 1  CFF21CAx        Rx   d 8 02 00 80 0C 3B 38 00 24
   0.194000 1  18F106F3x       Rx   d 8 45 E0 FC FF FF FF FF FF
   0.195000 1  18F107F3x       Rx   d 8 38 A4 30 70 01 52 00 B4
   0.197000 1  18F108F3x       Rx   d 8 00 00 00 00 00 00 00 00
   0.199000 1  18F155F3x       Rx   d 8 36 35 36 36 35 36 36 00
   0.201000 1  18F156F3x       Rx   d 8 00 00 00 00 00 00 00 00
   0.203000 1  18F157F3x       Rx   d 8 00 00 00 00 00 00 00 00
   0.204000 1  18F158F3x       Rx   d 8 00 00 00 00 00 00 00 00
   0.206000 1  18F159F3x       Rx   d 8 00 00 00 00 00 00 00 00
   0.208000 1  18FF2112x       Rx   d 8 01 00 00 00 00 00 00 00
   0.210000 1  18F15AF3x       Rx   d 8 00 00 00 00 00 00 00 00
   0.211000 1  18F15BF3x       Rx   d 7 00 00 00 00 00 00 00
   0.213000 1  18F15CF3x       Rx   d 8 00 00 00 00 00 00 00 00
   0.215000 1  CFF21CAx        Rx   d 8 02 00 80 0C 3B 38 00 24
   0.217000 1  18F15DF3x       Rx   d 8 00 00 00 00 00 00 00 00
   0.218000 1  18F15EF3x       Rx   d 8 00 00 00 00 00 00 00 00
   0.220000 1  18F100D0x       Rx   d 8 0C FF FF FF FF FF FF FF
   0.222000 1  CFF21CAx        Rx   d 8 02 00 80 0C 3B 38 00 24
   0.223000 1  CFF21CAx        Rx   d 8 02 00 80 0C 3B 38 00 24
   0.225000 1  18F100D0x       Rx   d 8 0C FF FF FF FF FF FF FF
   0.226000 1  CFF21CAx        Rx   d 8 02 00 80 0C 3B 38 00 24
   0.230000 1  18F100D0x       Rx   d 8 0C FF FF FF FF FF FF FF
   0.233000 1  CFF21CAx        Rx   d 8 02 00 80 0C 3B 38 00 24
   0.246000 1  CFF21CAx        Rx   d 8 02 00 80 0C 3B 38 00 24
   0.249000 1  18F100D0x       Rx   d 8 0C FF FF FF FF FF FF FF
   0.258000 1  CFF21CAx        Rx   d 8 01 00 80 0C 3B 38 00 24
   0.286000 1  CFF21CAx        Rx   d 8 01 00 80 0C 3B 38 00 24
   0.287000 1  18F100D0x       Rx   d 8 0C FF FF FF FF FF FF FF
   0.289000 1  18F100F3x       Rx   d 8 02 EF 7D CF 98 FA 14 00
   0.291000 1  18F102F3x       Rx   d 8 0E AD 0E A4 0D 0A 00 09
   0.293000 1  18F106F3x       Rx   d 8 45 E0 FC FF FF FF FF FF
   0.295000 1  18F107F3x       Rx   d 8 38 A4 30 70 01 52 00 B4
   0.296000 1  18F108F3x       Rx   d 8 00 00 00 00 00 00 00 00
   0.298000 1  18F155F3x       Rx   d 8 36 35 36 36 35 36 36 00
   0.300000 1  18F156F3x       Rx   d 8 00 00 00 00 00 00 00 00
   0.302000 1  18FF2112x       Rx   d 8 01 00 00 00 00 00 00 00
   0.303000 1  18F157F3x       Rx   d 8 00 00 00 00 00 00 00 00
   0.305000 1  18F158F3x       Rx   d 8 00 00 00 00 00 00 00 00
   0.307000 1  CFF21CAx        Rx   d 8 01 00 80 0C 3B 38 00 24
   0.309000 1  18F159F3x       Rx   d 8 00 00 00 00 00 00 00 00
   0.310000 1  18F15AF3x       Rx   d 8 00 00 00 00 00 00 00 00
   0.312000 1  18F15BF3x       Rx   d 7 00 00 00 00 00 00 00
   0.314000 1  18F15CF3x       Rx   d 8 00 00 00 00 00 00 00 00
   0.316000 1  18F15DF3x       Rx   d 8 00 00 00 00 00 00 00 00
   0.317000 1  18F15EF3x       Rx   d 8 00 00 00 00 00 00 00 00
   0.319000 1  CFF21CAx        Rx   d 8 01 00 80 0C 3B 38 00 24
   0.321000 1  18F100D0x       Rx   d 8 0C FF FF FF FF FF FF FF
   0.322000 1  CFF21CAx        Rx   d 8 01 00 80 0C 3B 38 00 24
   0.325000 1  18F100D0x       Rx   d 8 0C FF FF FF FF FF FF FF
   0.326000 1  CFF21CAx        Rx   d 8 01 00 80 0C 3B 38 00 24
   0.330000 1  CFF21CAx        Rx   d 8 01 00 80 0C 3B 38 00 24
   0.334000 1  18F100D0x       Rx   d 8 0C FF FF FF FF FF FF FF
   0.342000 1  CFF21CAx        Rx   d 8 01 00 80 0C 3B 38 00 24
   0.354000 1  CFF21CAx        Rx   d 8 01 00 80 0C 3B 38 00 24
   0.362000 1  18F100D0x       Rx   d 8 0C FF FF FF FF FF FF FF
   0.376000 1  CFF21CAx        Rx   d 8 01 00 80 0C 3B 38 00 24
   0.388000 1  18F100F3x       Rx   d 8 02 EF 7D D1 98 FA 14 00
   0.390000 1  18F102F3x       Rx   d 8 0E AD 0E A4 0D 0A 00 09
   0.391000 1  18F106F3x       Rx   d 8 45 E0 FC FF FF FF FF FF
   0.394000 1  18F107F3x       Rx   d 8 38 A4 30 70 01 52 00 B4
   0.395000 1  18FF2112x       Rx   d 8 01 00 00 00 00 00 00 00
   0.397000 1  18F108F3x       Rx   d 8 00 00 00 00 00 00 00 00
   0.399000 1  CFF21CAx        Rx   d 8 01 00 80 0C 3B 38 00 24
   0.401000 1  18F155F3x       Rx   d 8 36 35 36 36 35 36 36 00
   0.403000 1  18F156F3x       Rx   d 8 00 00 00 00 00 00 00 00
   0.405000 1  18F157F3x       Rx   d 8 00 00 00 00 00 00 00 00
   0.407000 1  18F158F3x       Rx   d 8 00 00 00 00 00 00 00 00
   0.408000 1  18F100D0x       Rx   d 8 0C FF FF FF FF FF FF FF
   0.410000 1  18F159F3x       Rx   d 8 00 00 00 00 00 00 00 00
   0.412000 1  18F15AF3x       Rx   d 8 00 00 00 00 00 00 00 00
   0.414000 1  18F15BF3x       Rx   d 7 00 00 00 00 00 00 00
   0.416000 1  18F15CF3x       Rx   d 8 00 00 00 00 00 00 00 00
   0.418000 1  18F15DF3x       Rx   d 8 00 00 00 00 00 00 00 00
   0.419000 1  18F15EF3x       Rx   d 8 00 00 00 00 00 00 00 00
   0.421000 1  CFF21CAx        Rx   d 8 02 00 80 0C 3B 38 00 24
   0.423000 1  CFF21CAx        Rx   d 8 02 00 80 0C 3B 38 00 24
   0.425000 1  18F100D0x       Rx   d 8 0C FF FF FF FF FF FF FF
   0.427000 1  CFF21CAx        Rx   d 8 02 00 80 0C 3B 38 00 24
   0.429000 1  CFF21CAx        Rx   d 8 02 00 80 0C 3B 38 00 24
   0.430000 1  18F100D0x       Rx   d 8 0C FF FF FF FF FF FF FF
   0.438000 1  CFF21CAx        Rx   d 8 02 00 80 0C 3B 38 00 24
   0.450000 1  CFF21CAx        Rx   d 8 02 00 80 0C 3B 38 00 24
   0.451000 1  18F100D0x       Rx   d 8 0C FF FF FF FF FF FF FF
   0.463000 1  CFF21CAx        Rx   d 8 02 00 80 0C 3B 38 00 24
   0.472000 1  18F100F3x       Rx   d 8 02 EF 7D D1 98 FA 14 00
   0.488000 1  18F102F3x       Rx   d 8 0E AD 0E A4 0D 0A 00 09
   0.490000 1  CFF21CAx        Rx   d 8 02 00 80 0C 3B 38 00 24
   0.492000 1  18F106F3x       Rx   d 8 45 E0 FC FF FF FF FF FF
   0.494000 1  18FF2112x       Rx   d 8 01 00 00 00 00 00 00 00
   0.496000 1  18F107F3x       Rx   d 8 38 A4 30 70 01 52 00 B4
   0.498000 1  18F108F3x       Rx   d 8 00 00 00 00 00 00 00 00
   0.500000 1  18F155F3x       Rx   d 8 36 35 36 36 35 36 36 00
   0.502000 1  18F156F3x       Rx   d 8 00 00 00 00 00 00 00 00
   0.504000 1  18F157F3x       Rx   d 8 00 00 00 00 00 00 00 00
   0.506000 1  18F158F3x       Rx   d 8 00 00 00 00 00 00 00 00
   0.508000 1  18F100D0x       Rx   d 8 0C FF FF FF FF FF FF FF
   0.510000 1  18F159F3x       Rx   d 8 00 00 00 00 00 00 00 00
   0.512000 1  18F15AF3x       Rx   d 8 00 00 00 00 00 00 00 00
   0.513000 1  18F15BF3x       Rx   d 7 00 00 00 00 00 00 00
   0.515000 1  18F15CF3x       Rx   d 8 00 00 00 00 00 00 00 00
   0.516000 1  18F15DF3x       Rx   d 8 00 00 00 00 00 00 00 00
   0.518000 1  CFF21CAx        Rx   d 8 03 00 80 0C 3B 38 00 24
   0.520000 1  18F15EF3x       Rx   d 8 00 00 00 00 00 00 00 00
   0.522000 1  CFF21CAx        Rx   d 8 03 00 80 0C 3B 38 00 24
   0.524000 1  18F100D0x       Rx   d 8 0C FF FF FF FF FF FF FF
   0.526000 1  CFF21CAx        Rx   d 8 03 00 80 0C 3B 38 00 24
   0.528000 1  CFF21CAx        Rx   d 8 03 00 80 0C 3B 38 00 24
   0.530000 1  18F100D0x       Rx   d 8 0C FF FF FF FF FF FF FF
   0.535000 1  CFF21CAx        Rx   d 8 03 00 80 0C 3B 38 00 24
   0.547000 1  CFF21CAx        Rx   d 8 03 00 80 0C 3B 38 00 24
   0.555000 1  18F100D0x       Rx   d 8 0C FF FF FF FF FF FF FF
   0.559000 1  CFF21CAx        Rx   d 8 03 00 80 0C 3B 38 00 24
   0.571000 1  CFF21CAx        Rx   d 8 03 00 80 0C 3B 38 00 24
   0.572000 1  18FF2112x       Rx   d 8 01 00 00 00 00 00 00 00
   0.574000 1  18F100F3x       Rx   d 8 02 EE 7D D1 98 FA 14 00
   0.593000 1  18F102F3x       Rx   d 8 0E AB 0E A2 0D 0A 00 09
   0.595000 1  18F106F3x       Rx   d 8 45 E0 FC FF FF FF FF FF
   0.597000 1  18F100D0x       Rx   d 8 0C FF FF FF FF FF FF FF
   0.599000 1  18F107F3x       Rx   d 8 38 A4 30 70 01 52 00 B4
   0.601000 1  18F108F3x       Rx   d 8 00 00 00 00 00 00 00 00
   0.603000 1  18F155F3x       Rx   d 8 36 35 36 36 35 36 36 00
   0.605000 1  18F156F3x       Rx   d 8 00 00 00 00 00 00 00 00
   0.606000 1  18F157F3x       Rx   d 8 00 00 00 00 00 00 00 00
   0.608000 1  18F158F3x       Rx   d 8 00 00 00 00 00 00 00 00
   0.610000 1  18F159F3x       Rx   d 8 00 00 00 00 00 00 00 00
   0.612000 1  CFF21CAx        Rx   d 8 03 00 80 0C 3B 38 00 24
   0.614000 1  18F15AF3x       Rx   d 8 00 00 00 00 00 00 00 00
   0.616000 1  18F15BF3x       Rx   d 7 00 00 00 00 00 00 00
   0.618000 1  18F15CF3x       Rx   d 8 00 00 00 00 00 00 00 00
   0.620000 1  18F15DF3x       Rx   d 8 00 00 00 00 00 00 00 00
   0.621000 1  18F15EF3x       Rx   d 8 00 00 00 00 00 00 00 00
   0.623000 1  CFF21CAx        Rx   d 8 03 00 80 0C 3B 38 00 24
   0.626000 1  18F100D0x       Rx   d 8 0C FF FF FF FF FF FF FF
   0.628000 1  CFF21CAx        Rx   d 8 03 00 80 0C 3B 38 00 24
   0.629000 1  CFF21CAx        Rx   d 8 03 00 80 0C 3B 38 00 24
   0.631000 1  18F100D0x       Rx   d 8 0C FF FF FF FF FF FF FF
   0.633000 1  CFF21CAx        Rx   d 8 03 00 80 0C 3B 38 00 24
   0.643000 1  CFF21CAx        Rx   d 8 03 00 80 0C 3B 38 00 24
   0.647000 1  18F100D0x       Rx   d 8 0C FF FF FF FF FF FF FF
   0.656000 1  CFF21CAx        Rx   d 8 03 00 80 0C 3B 38 00 24
   0.667000 1  CFF21CAx        Rx   d 8 03 00 80 0C 3B 38 00 24
   0.670000 1  18FF2112x       Rx   d 8 01 00 00 00 00 00 00 00
   0.673000 1  18F100F3x       Rx   d 8 02 EE 7D D4 98 FA 14 00
   0.674000 1  18F102F3x       Rx   d 8 0E AB 0E A2 0D 0A 00 09
   0.717000 1  18F106F3x       Rx   d 8 45 E0 FC FF FF FF FF FF
   0.718000 1  18F100D0x       Rx   d 8 0C FF FF FF FF FF FF FF
   0.720000 1  18F107F3x       Rx   d 8 38 A4 30 70 01 52 00 B4
   0.722000 1  18F108F3x       Rx   d 8 00 00 00 00 00 00 00 00
   0.724000 1  18F155F3x       Rx   d 8 36 35 36 36 35 36 36 00
   0.726000 1  CFF21CAx        Rx   d 8 03 00 80 0C 3B 38 00 24
   0.728000 1  18F156F3x       Rx   d 8 00 00 00 00 00 00 00 00
   0.731000 1  18F157F3x       Rx   d 8 00 00 00 00 00 00 00 00
   0.732000 1  18F158F3x       Rx   d 8 00 00 00 00 00 00 00 00
   0.735000 1  18F159F3x       Rx   d 8 00 00 00 00 00 00 00 00
   0.736000 1  18F15AF3x       Rx   d 8 00 00 00 00 00 00 00 00
   0.738000 1  18F15BF3x       Rx   d 7 00 00 00 00 00 00 00
   0.740000 1  18F15CF3x       Rx   d 8 00 00 00 00 00 00 00 00
   0.741000 1  18F15DF3x       Rx   d 8 00 00 00 00 00 00 00 00
   0.742000 1  18F15EF3x       Rx   d 8 00 00 00 00 00 00 00 00
   0.744000 1  CFF21CAx        Rx   d 8 03 00 80 0C 3B 38 00 24
   0.745000 1  CFF21CAx        Rx   d 8 03 00 80 0C 3B 38 00 24
   0.746000 1  18F100D0x       Rx   d 8 0C FF FF FF FF FF FF FF
   0.794000 1  CFF21CAx        Rx   d 8 03 00 80 0C 3B 38 00 24
   0.797000 1  18F100D0x       Rx   d 8 0C FF FF FF FF FF FF FF
   0.799000 1  CFF21CAx        Rx   d 8 03 00 80 0C 3B 38 00 24
   0.801000 1  CFF21CAx        Rx   d 8 03 00 80 0C 3B 38 00 24
   0.803000 1  18F100D0x       Rx   d 8 0C FF FF FF FF FF FF FF
   0.804000 1  CFF21CAx        Rx   d 8 03 00 80 0C 3B 38 00 24
   0.806000 1  CFF21CAx        Rx   d 8 03 00 80 0C 3B 38 00 24
   0.809000 1  18FF2112x       Rx   d 8 01 00 00 00 00 00 00 00
   0.810000 1  18F100D0x       Rx   d 8 0C FF FF FF FF FF FF FF
   0.812000 1  18F100F3x       Rx   d 8 02 EE 7D D4 98 FA 14 00
   0.814000 1  18F102F3x       Rx   d 8 0E AB 0E A2 0D 0A 00 09
   0.816000 1  18F106F3x       Rx   d 8 45 E0 FC FF FF FF FF FF
   0.818000 1  CFF21CAx        Rx   d 8 03 00 80 0C 3B 38 00 24
   0.820000 1  18F107F3x       Rx   d 8 38 A4 30 70 01 52 00 B4
   0.822000 1  18F108F3x       Rx   d 8 00 00 00 00 00 00 00 00
   0.824000 1  18F155F3x       Rx   d 8 36 35 36 36 35 36 36 00
   0.826000 1  18F156F3x       Rx   d 8 00 00 00 00 00 00 00 00
   0.827000 1  18F157F3x       Rx   d 8 00 00 00 00 00 00 00 00
   0.830000 1  18F158F3x       Rx   d 8 00 00 00 00 00 00 00 00
   0.831000 1  18F159F3x       Rx   d 8 00 00 00 00 00 00 00 00
   0.833000 1  18F15AF3x       Rx   d 8 00 00 00 00 00 00 00 00
   0.835000 1  18F15BF3x       Rx   d 7 00 00 00 00 00 00 00
   0.837000 1  18F15CF3x       Rx   d 8 00 00 00 00 00 00 00 00
   0.839000 1  18F15DF3x       Rx   d 8 00 00 00 00 00 00 00 00
   0.840000 1  18F15EF3x       Rx   d 8 00 00 00 00 00 00 00 00
   0.842000 1  CFF21CAx        Rx   d 8 03 00 80 0C 3B 38 00 24
   0.843000 1  18F100D0x       Rx   d 8 0C FF FF FF FF FF FF FF
   0.845000 1  CFF21CAx        Rx   d 8 02 00 80 0C 3B 38 00 24
   0.846000 1  18F100D0x       Rx   d 8 0C FF FF FF FF FF FF FF
   0.847000 1  CFF21CAx        Rx   d 8 02 00 80 0C 3B 38 00 24
   0.898000 1  CFF21CAx        Rx   d 8 02 00 80 0C 3B 38 00 24
   0.900000 1  18F100D0x       Rx   d 8 0C FF FF FF FF FF FF FF
   0.902000 1  CFF21CAx        Rx   d 8 03 00 80 0C 3B 38 00 24
   0.904000 1  18FECACAx       Rx   d 8 00 00 00 00 00 00 FF FF
   0.906000 1  CFF21CAx        Rx   d 8 03 00 80 0C 3B 38 00 24
   0.908000 1  18F100D0x       Rx   d 8 0C FF FF FF FF FF FF FF
   0.910000 1  CFF21CAx        Rx   d 8 03 00 80 0C 3B 38 00 24
   0.911000 1  18FF2112x       Rx   d 8 01 00 00 00 00 00 00 00
   0.914000 1  CFF21CAx        Rx   d 8 02 00 80 0C 3B 38 00 24
   0.916000 1  18F100F3x       Rx   d 8 02 EE 7D D2 98 FA 14 00
   0.917000 1  18F102F3x       Rx   d 8 0E AB 0E A2 0D 0A 00 09
   0.919000 1  18F106F3x       Rx   d 8 45 E0 FC FF FF FF FF FF
   0.921000 1  18F107F3x       Rx   d 8 38 A4 30 70 01 52 00 B4
   0.924000 1  18F108F3x       Rx   d 8 00 00 00 00 00 00 00 00
   0.925000 1  18F155F3x       Rx   d 8 36 35 36 36 35 36 36 00
   0.927000 1  18F156F3x       Rx   d 8 00 00 00 00 00 00 00 00
   0.928000 1  18F100D0x       Rx   d 8 0C FF FF FF FF FF FF FF
   0.930000 1  18F157F3x       Rx   d 8 00 00 00 00 00 00 00 00
   0.932000 1  18F158F3x       Rx   d 8 00 00 00 00 00 00 00 00
   0.934000 1  18F159F3x       Rx   d 8 00 00 00 00 00 00 00 00
   0.936000 1  18F15AF3x       Rx   d 8 00 00 00 00 00 00 00 00
   0.938000 1  CFF21CAx        Rx   d 8 02 00 80 0C 3B 38 00 24
   0.940000 1  18F15BF3x       Rx   d 7 00 00 00 00 00 00 00
   0.941000 1  18F15CF3x       Rx   d 8 00 00 00 00 00 00 00 00
   0.943000 1  18F15DF3x       Rx   d 8 00 00 00 00 00 00 00 00
   0.944000 1  18F15EF3x       Rx   d 8 00 00 00 00 00 00 00 00
   0.946000 1  CFF21CAx        Rx   d 8 02 00 80 0C 3B 38 00 24
   0.947000 1  18F100D0x       Rx   d 8 0C FF FF FF FF FF FF FF
   0.948000 1  CFF21CAx        Rx   d 8 02 00 80 0C 3B 38 00 24
   0.950000 1  CFF21CAx        Rx   d 8 02 00 80 0C 3B 38 00 24
   1.002000 1  18F100D0x       Rx   d 8 0C FF FF FF FF FF FF FF
   1.004000 1  CFF21CAx        Rx   d 8 02 00 80 0C 3B 38 00 24
   1.006000 1  18F100D0x       Rx   d 8 0C FF FF FF FF FF FF FF
   1.007000 1  CFF21CAx        Rx   d 8 02 00 80 0C 3B 38 00 24
   1.009000 1  18F104F3x       Rx   d 8 36 35 01 02 01 FF FF FF
   1.011000 1  18F113F3x       Rx   d 8 0E AA 0E A5 0E A9 0E A6
   1.013000 1  18F114F3x       Rx   d 8 0E A5 0E A3 0E AA 0E A8
   1.015000 1  CFF21CAx        Rx   d 8 02 00 80 0C 3B 38 00 24
   1.017000 1  18F115F3x       Rx   d 8 0E A3 0E A2 0E A7 0E A7
   1.019000 1  18F116F3x       Rx   d 8 0E AB 0E A4 0E AB 0E A9
   1.021000 1  18F117F3x       Rx   d 8 0E A4 0E A6 0E AA 0E AA
   1.023000 1  18F118F3x       Rx   d 8 00 00 00 00 00 00 00 00
   1.024000 1  18F100D0x       Rx   d 8 0C FF FF FF FF FF FF FF
   1.027000 1  18F119F3x       Rx   d 8 00 00 00 00 00 00 00 00
   1.028000 1  18FF2112x       Rx   d 8 01 00 00 00 00 00 00 00
   1.030000 1  18F11AF3x       Rx   d 8 00 00 00 00 00 00 00 00
   1.032000 1  18F11BF3x       Rx   d 8 00 00 00 00 00 00 00 00
   1.034000 1  18F11CF3x       Rx   d 8 00 00 00 00 00 00 00 00
   1.036000 1  18F11DF3x       Rx   d 8 00 00 00 00 00 00 00 00
   1.038000 1  18F11EF3x       Rx   d 8 00 00 00 00 00 00 00 00
   1.040000 1  18F11FF3x       Rx   d 8 00 00 00 00 00 00 00 00
   1.042000 1  18F120F3x       Rx   d 8 00 00 00 00 00 00 00 00
   1.044000 1  CFF21CAx        Rx   d 8 02 00 80 0C 3B 38 00 24
   1.045000 1  18F121F3x       Rx   d 8 00 00 00 00 00 00 00 00
   1.047000 1  18F122F3x       Rx   d 8 00 00 00 00 00 00 00 00
   1.048000 1  18F123F3x       Rx   d 8 00 00 00 00 00 00 00 00
   1.049000 1  18F124F3x       Rx   d 8 00 00 00 00 00 00 00 00
   1.051000 1  18F100F3x       Rx   d 8 02 EE 7D D2 98 FA 14 00
   1.052000 1  18F102F3x       Rx   d 8 0E AB 0E A2 0D 0A 00 09
   1.105000 1  18F106F3x       Rx   d 8 45 E0 FC FF FF FF FF FF
   1.107000 1  18F107F3x       Rx   d 8 38 A4 30 70 01 52 00 B4
   1.108000 1  18F108F3x       Rx   d 8 00 00 00 00 00 00 00 00
   1.111000 1  18F125F3x       Rx   d 8 00 00 00 00 00 00 00 00
   1.112000 1  18F126F3x       Rx   d 8 00 00 00 00 00 00 00 00
   1.114000 1  CFF21CAx        Rx   d 8 02 00 80 0C 3B 38 00 24
   1.116000 1  18F100D0x       Rx   d 8 0C FF FF FF FF FF FF FF
   1.118000 1  18F127F3x       Rx   d 8 00 00 00 00 00 00 00 00
   1.120000 1  18F128F3x       Rx   d 8 00 00 00 00 00 00 00 00
   1.122000 1  18F129F3x       Rx   d 8 00 00 00 00 00 00 00 00
   1.124000 1  18F12AF3x       Rx   d 8 00 00 00 00 00 00 00 00
   1.126000 1  18F12BF3x       Rx   d 8 00 00 00 00 00 00 00 00
   1.127000 1  18F12CF3x       Rx   d 8 00 00 00 00 00 00 00 00
   1.129000 1  18F12DF3x       Rx   d 8 00 00 00 00 00 00 00 00
   1.131000 1  18F12EF3x       Rx   d 8 00 00 00 00 00 00 00 00
   1.133000 1  18F12FF3x       Rx   d 8 00 00 00 00 00 00 00 00
   1.135000 1  18F130F3x       Rx   d 8 00 00 00 00 00 00 00 00
   1.137000 1  18F131F3x       Rx   d 8 00 00 00 00 00 00 00 00
   1.138000 1  18F132F3x       Rx   d 8 00 00 00 00 00 00 00 00
   1.141000 1  CFF21CAx        Rx   d 8 02 00 80 0C 3B 38 00 24
   1.142000 1  18F133F3x       Rx   d 8 00 00 00 00 00 00 00 00
   1.145000 1  18F134F3x       Rx   d 8 00 00 00 00 00 00 00 00
   1.146000 1  18F135F3x       Rx   d 8 00 00 00 00 00 00 00 00
   1.148000 1  18F136F3x       Rx   d 8 00 00 00 00 00 00 00 00
   1.149000 1  18F137F3x       Rx   d 8 00 00 00 00 00 00 00 00
   1.151000 1  18F138F3x       Rx   d 8 00 00 00 00 00 00 00 00
   1.152000 1  18F139F3x       Rx   d 8 00 00 00 00 00 00 00 00
   1.153000 1  18F13AF3x       Rx   d 8 00 00 00 00 00 00 00 00
   1.155000 1  18F13BF3x       Rx   d 8 00 00 00 00 00 00 00 00
   1.208000 1  18F13CF3x       Rx   d 8 00 00 00 00 00 00 00 00
   1.209000 1  18F155F3x       Rx   d 8 36 35 36 36 35 36 36 00
   1.211000 1  18F156F3x       Rx   d 8 00 00 00 00 00 00 00 00
   1.213000 1  18F157F3x       Rx   d 8 00 00 00 00 00 00 00 00
   1.215000 1  CFF21CAx        Rx   d 8 02 00 80 0C 3B 38 00 24
   1.217000 1  18F100D0x       Rx   d 8 0C FF FF FF FF FF FF FF
   1.219000 1  18F158F3x       Rx   d 8 00 00 00 00 00 00 00 00
   1.220000 1  18F159F3x       Rx   d 8 00 00 00 00 00 00 00 00
   1.222000 1  18F15AF3x       Rx   d 8 00 00 00 00 00 00 00 00
   1.224000 1  18F15BF3x       Rx   d 7 00 00 00 00 00 00 00
   1.226000 1  18F15CF3x       Rx   d 8 00 00 00 00 00 00 00 00
   1.228000 1  18F15DF3x       Rx   d 8 00 00 00 00 00 00 00 00
   1.230000 1  18F15EF3x       Rx   d 8 00 00 00 00 00 00 00 00
   1.232000 1  CFF21CAx        Rx   d 8 02 00 80 0C 3B 38 00 24
   1.234000 1  18F100D0x       Rx   d 8 0C FF FF FF FF FF FF FF
   1.235000 1  CFF21CAx        Rx   d 8 02 00 80 0C 3B 38 00 24
   1.237000 1  CFF21CAx        Rx   d 8 02 00 80 0C 3B 38 00 24
   1.239000 1  18F100D0x       Rx   d 8 0C FF FF FF FF FF FF FF
   1.241000 1  CFF21CAx        Rx   d 8 02 00 80 0C 3B 38 00 24
   1.242000 1  18FF2112x       Rx   d 8 01 00 00 00 00 00 00 00
   1.244000 1  CFF21CAx        Rx   d 8 02 00 80 0C 3B 38 00 24
   1.247000 1  18F100F3x       Rx   d 8 02 EE 7D D2 98 FA 14 00
   1.248000 1  18F102F3x       Rx   d 8 0E AB 0E A2 0D 0A 00 09
   1.250000 1  18F106F3x       Rx   d 8 45 E0 FC FF FF FF FF FF
   1.251000 1  18F107F3x       Rx   d 8 38 A4 30 70 01 52 00 B4
   1.252000 1  CFF21CAx        Rx   d 8 02 00 80 0C 3B 38 00 24
   1.254000 1  18F100D0x       Rx   d 8 0C FF FF FF FF FF FF FF
   1.255000 1  18F108F3x       Rx   d 8 00 00 00 00 00 00 00 00
   1.256000 1  18F155F3x       Rx   d 8 36 35 36 36 35 36 36 00
   1.309000 1  18F156F3x       Rx   d 8 00 00 00 00 00 00 00 00
   1.310000 1  18F157F3x       Rx   d 8 00 00 00 00 00 00 00 00
   1.316000 1  18F158F3x       Rx   d 8 00 00 00 00 00 00 00 00
   1.317000 1  18F159F3x       Rx   d 8 00 00 00 00 00 00 00 00
   1.319000 1  18F15AF3x       Rx   d 8 00 00 00 00 00 00 00 00
   1.321000 1  18F15BF3x       Rx   d 7 00 00 00 00 00 00 00
   1.323000 1  18F15CF3x       Rx   d 8 00 00 00 00 00 00 00 00
   1.326000 1  18F15DF3x       Rx   d 8 00 00 00 00 00 00 00 00
   1.327000 1  18F15EF3x       Rx   d 8 00 00 00 00 00 00 00 00
   1.330000 1  CFF21CAx        Rx   d 8 02 00 80 0C 3B 38 00 24
   1.332000 1  18F100D0x       Rx   d 8 0C FF FF FF FF FF FF FF
   1.333000 1  CFF21CAx        Rx   d 8 02 00 80 0C 3B 38 00 24
   1.335000 1  CFF21CAx        Rx   d 8 02 00 80 0C 3B 38 00 24
   1.336000 1  18F100D0x       Rx   d 8 0C FF FF FF FF FF FF FF
   1.337000 1  CFF21CAx        Rx   d 8 02 00 80 0C 3B 38 00 24
   1.338000 1  CFF21CAx        Rx   d 8 02 00 80 0C 3B 38 00 24
   1.340000 1  18F100D0x       Rx   d 8 0C FF FF FF FF FF FF FF
   1.341000 1  CFF21CAx        Rx   d 8 02 00 80 0C 3B 38 00 24
   1.359000 1  18FF2112x       Rx   d 8 01 00 00 00 00 00 00 00
   1.412000 1  CFF21CAx        Rx   d 8 02 00 80 0C 3B 38 00 24
   1.414000 1  18F100D0x       Rx   d 8 0C FF FF FF FF FF FF FF
   1.415000 1  18F100F3x       Rx   d 8 02 EE 7D D4 98 FA 14 00
   1.417000 1  18F102F3x       Rx   d 8 0E A9 0E A1 0D 0A 00 08
   1.419000 1  CFF21CAx        Rx   d 8 02 00 80 0C 3B 38 00 24
   1.421000 1  18F106F3x       Rx   d 8 45 E0 FC FF FF FF FF FF
   1.423000 1  18F107F3x       Rx   d 8 38 A4 30 70 01 52 00 B4
   1.425000 1  18F108F3x       Rx   d 8 00 00 00 00 00 00 00 00
   1.427000 1  18F155F3x       Rx   d 8 36 35 36 36 35 36 36 00
   1.429000 1  18F156F3x       Rx   d 8 00 00 00 00 00 00 00 00
   1.431000 1  18F157F3x       Rx   d 8 00 00 00 00 00 00 00 00
   1.433000 1  18F158F3x       Rx   d 8 00 00 00 00 00 00 00 00
   1.435000 1  18F159F3x       Rx   d 8 00 00 00 00 00 00 00 00
   1.437000 1  18F15AF3x       Rx   d 8 00 00 00 00 00 00 00 00
   1.439000 1  18F15BF3x       Rx   d 7 00 00 00 00 00 00 00
   1.440000 1  18F15CF3x       Rx   d 8 00 00 00 00 00 00 00 00
   1.442000 1  CFF21CAx        Rx   d 8 02 00 80 0C 3B 38 00 24
   1.444000 1  18F15DF3x       Rx   d 8 00 00 00 00 00 00 00 00
   1.445000 1  18F15EF3x       Rx   d 8 00 00 00 00 00 00 00 00
   1.448000 1  18F100D0x       Rx   d 8 0C FF FF FF FF FF FF FF
   1.449000 1  CFF21CAx        Rx   d 8 02 00 80 0C 3B 38 00 24
   1.451000 1  CFF21CAx        Rx   d 8 02 00 80 0C 3B 38 00 24
   1.453000 1  18F100D0x       Rx   d 8 0C FF FF FF FF FF FF FF
   1.454000 1  CFF21CAx        Rx   d 8 02 00 80 0C 3B 38 00 24
   1.456000 1  CFF21CAx        Rx   d 8 02 00 80 0C 3B 38 00 24
   1.457000 1  CFF21CAx        Rx   d 8 02 00 80 0C 3B 38 00 24
   1.459000 1  18F100D0x       Rx   d 8 0C FF FF FF FF FF FF FF
   1.460000 1  18FF2112x       Rx   d 8 01 00 00 00 00 00 00 00
   1.461000 1  CFF21CAx        Rx   d 8 03 00 80 0C 3B 38 00 24
   1.514000 1  18F100D0x       Rx   d 8 0C FF FF FF FF FF FF FF
   1.516000 1  CFF21CAx        Rx   d 8 03 00 80 0C 3B 38 00 24
   1.518000 1  18F100F3x       Rx   d 8 02 EE 7D D4 98 FA 14 00
   1.519000 1  18F102F3x       Rx   d 8 0E A9 0E A1 0D 0A 00 08
   1.521000 1  18F106F3x       Rx   d 8 45 E0 FC FF FF FF FF FF
   1.523000 1  18F107F3x       Rx   d 8 38 A4 30 70 01 52 00 B4
   1.525000 1  18F108F3x       Rx   d 8 00 00 00 00 00 00 00 00
   1.527000 1  18F155F3x       Rx   d 8 36 35 36 36 35 36 36 00
   1.529000 1  18F156F3x       Rx   d 8 00 00 00 00 00 00 00 00
   1.531000 1  18F157F3x       Rx   d 8 00 00 00 00 00 00 00 00
   1.533000 1  18F158F3x       Rx   d 8 00 00 00 00 00 00 00 00
   1.534000 1  CFF21CAx        Rx   d 8 03 00 80 0C 3B 38 00 24
   1.537000 1  18F159F3x       Rx   d 8 00 00 00 00 00 00 00 00
   1.538000 1  18F15AF3x       Rx   d 8 00 00 00 00 00 00 00 00
   1.541000 1  18F15BF3x       Rx   d 7 00 00 00 00 00 00 00
   1.542000 1  18F15CF3x       Rx   d 8 00 00 00 00 00 00 00 00
   1.544000 1  18F15DF3x       Rx   d 8 00 00 00 00 00 00 00 00
   1.546000 1  18F15EF3x       Rx   d 8 00 00 00 00 00 00 00 00
   1.548000 1  18F100D0x       Rx   d 8 0C FF FF FF FF FF FF FF
   1.550000 1  CFF21CAx        Rx   d 8 03 00 80 0C 3B 38 00 24
   1.551000 1  CFF21CAx        Rx   d 8 03 00 80 0C 3B 38 00 24
   1.553000 1  CFF21CAx        Rx   d 8 03 00 80 0C 3B 38 00 24
   1.555000 1  18F100D0x       Rx   d 8 0C FF FF FF FF FF FF FF
   1.557000 1  CFF21CAx        Rx   d 8 03 00 80 0C 3B 38 00 24
   1.558000 1  CFF21CAx        Rx   d 8 03 00 80 0C 3B 38 00 24
   1.560000 1  18F100D0x       Rx   d 8 0C FF FF FF FF FF FF FF
   1.561000 1  18FF2112x       Rx   d 8 01 00 00 00 00 00 00 00
   1.563000 1  CFF21CAx        Rx   d 8 03 00 80 0C 3B 38 00 24
   1.564000 1  CFF21CAx        Rx   d 8 03 00 80 0C 3B 38 00 24
   1.565000 1  18F100D0x       Rx   d 8 0C FF FF FF FF FF FF FF
   1.614000 1  18F100F3x       Rx   d 8 02 EE 7D D4 98 FA 14 00
   1.616000 1  18F102F3x       Rx   d 8 0E A9 0E A1 0D 0A 00 08
   1.618000 1  18F106F3x       Rx   d 8 45 E0 FC FF FF FF FF FF
   1.621000 1  18F107F3x       Rx   d 8 38 A4 30 70 01 52 00 B4
   1.622000 1  18F108F3x       Rx   d 8 00 00 00 00 00 00 00 00
   1.624000 1  CFF21CAx        Rx   d 8 03 00 80 0C 3B 38 00 24
   1.626000 1  18F155F3x       Rx   d 8 36 35 36 36 35 36 36 00
   1.628000 1  18F156F3x       Rx   d 8 00 00 00 00 00 00 00 00
   1.630000 1  18F157F3x       Rx   d 8 00 00 00 00 00 00 00 00
   1.632000 1  18F158F3x       Rx   d 8 00 00 00 00 00 00 00 00
   1.634000 1  18F159F3x       Rx   d 8 00 00 00 00 00 00 00 00
   1.636000 1  18F15AF3x       Rx   d 8 00 00 00 00 00 00 00 00
   1.637000 1  18F15BF3x       Rx   d 7 00 00 00 00 00 00 00
   1.640000 1  18F15CF3x       Rx   d 8 00 00 00 00 00 00 00 00
   1.641000 1  18F15DF3x       Rx   d 8 00 00 00 00 00 00 00 00
   1.643000 1  18F15EF3x       Rx   d 8 00 00 00 00 00 00 00 00
   1.645000 1  CFF21CAx        Rx   d 8 03 00 80 0C 3B 38 00 24
   1.647000 1  18F100D0x       Rx   d 8 0C FF FF FF FF FF FF FF
   1.649000 1  CFF21CAx        Rx   d 8 03 00 80 0C 3B 38 00 24
   1.651000 1  CFF21CAx        Rx   d 8 03 00 80 0C 3B 38 00 24
   1.652000 1  18F100D0x       Rx   d 8 0C FF FF FF FF FF FF FF
   1.655000 1  CFF21CAx        Rx   d 8 03 00 80 0C 3B 38 00 24
   1.656000 1  CFF21CAx        Rx   d 8 03 00 80 0C 3B 38 00 24
   1.658000 1  18F100D0x       Rx   d 8 0C FF FF FF FF FF FF FF
   1.659000 1  18FF2112x       Rx   d 8 01 00 00 00 00 00 00 00
   1.661000 1  CFF21CAx        Rx   d 8 03 00 80 0C 3B 38 00 24
   1.662000 1  CFF21CAx        Rx   d 8 03 00 80 0C 3B 38 00 24
   1.664000 1  18F100D0x       Rx   d 8 0C FF FF FF FF FF FF FF
   1.665000 1  18F100F3x       Rx   d 8 02 EE 7D D4 98 FA 14 00
   1.667000 1  18F102F3x       Rx   d 8 0E A9 0E A1 0D 0A 00 08
   1.720000 1  CFF21CAx        Rx   d 8 03 00 80 0C 3B 38 00 24
   1.721000 1  18F106F3x       Rx   d 8 45 E0 FC FF FF FF FF FF
   1.723000 1  18F107F3x       Rx   d 8 38 A4 30 70 01 52 00 B4
   1.725000 1  18F108F3x       Rx   d 8 00 00 00 00 00 00 00 00
   1.727000 1  18F155F3x       Rx   d 8 36 35 36 36 35 36 36 00
   1.729000 1  18F156F3x       Rx   d 8 00 00 00 00 00 00 00 00
   1.731000 1  18F157F3x       Rx   d 8 00 00 00 00 00 00 00 00
   1.733000 1  18F158F3x       Rx   d 8 00 00 00 00 00 00 00 00
   1.735000 1  18F159F3x       Rx   d 8 00 00 00 00 00 00 00 00
   1.737000 1  18F15AF3x       Rx   d 8 00 00 00 00 00 00 00 00
   1.739000 1  18F15BF3x       Rx   d 7 00 00 00 00 00 00 00
   1.741000 1  18F15CF3x       Rx   d 8 00 00 00 00 00 00 00 00
   1.743000 1  18F15DF3x       Rx   d 8 00 00 00 00 00 00 00 00
   1.745000 1  CFF21CAx        Rx   d 8 03 00 80 0C 3B 38 00 24
   1.747000 1  18F100D0x       Rx   d 8 0C FF FF FF FF FF FF FF
   1.749000 1  18F15EF3x       Rx   d 8 00 00 00 00 00 00 00 00
   1.750000 1  CFF21CAx        Rx   d 8 03 00 80 0C 3B 38 00 24
   1.752000 1  CFF21CAx        Rx   d 8 03 00 80 0C 3B 38 00 24
   1.754000 1  18F100D0x       Rx   d 8 0C FF FF FF FF FF FF FF
   1.756000 1  CFF21CAx        Rx   d 8 03 00 80 0C 3B 38 00 24
   1.758000 1  CFF21CAx        Rx   d 8 03 00 80 0C 3B 38 00 24
   1.759000 1  18F100D0x       Rx   d 8 0C FF FF FF FF FF FF FF
   1.761000 1  18FF2112x       Rx   d 8 01 00 00 00 00 00 00 00
   1.762000 1  CFF21CAx        Rx   d 8 03 00 80 0C 3B 38 00 24
   1.764000 1  18F100D0x       Rx   d 8 0C FF FF FF FF FF FF FF
   1.765000 1  CFF21CAx        Rx   d 8 03 00 80 0C 3B 38 00 24
   1.767000 1  CFF21CAx        Rx   d 8 03 00 80 0C 3B 38 00 24
   1.768000 1  18F100F3x       Rx   d 8 02 EE 7D D4 98 FA 14 00
   1.769000 1  18F102F3x       Rx   d 8 0E A9 0E A1 13 06 00 08
   1.821000 1  18F106F3x       Rx   d 8 45 E0 FC FF FF FF FF FF
   1.823000 1  18F107F3x       Rx   d 8 38 A4 30 70 01 52 00 B4
   1.825000 1  18F108F3x       Rx   d 8 00 00 00 00 00 00 00 00
   1.827000 1  18F155F3x       Rx   d 8 36 35 36 36 35 36 36 00
   1.829000 1  18F100D0x       Rx   d 8 0C FF FF FF FF FF FF FF
   1.831000 1  18F156F3x       Rx   d 8 00 00 00 00 00 00 00 00
   1.833000 1  18F157F3x       Rx   d 8 00 00 00 00 00 00 00 00
   1.834000 1  18F158F3x       Rx   d 8 00 00 00 00 00 00 00 00
   1.836000 1  18F159F3x       Rx   d 8 00 00 00 00 00 00 00 00
   1.838000 1  18F15AF3x       Rx   d 8 00 00 00 00 00 00 00 00
   1.840000 1  CFF21CAx        Rx   d 8 04 00 80 0C 3B 38 00 24
   1.842000 1  18F15BF3x       Rx   d 7 00 00 00 00 00 00 00
   1.844000 1  18F15CF3x       Rx   d 8 00 00 00 00 00 00 00 00
   1.846000 1  18F15DF3x       Rx   d 8 00 00 00 00 00 00 00 00
   1.848000 1  18F15EF3x       Rx   d 8 00 00 00 00 00 00 00 00
   1.850000 1  CFF21CAx        Rx   d 8 04 00 80 0C 3B 38 00 24
   1.852000 1  18F100D0x       Rx   d 8 0C FF FF FF FF FF FF FF
   1.854000 1  CFF21CAx        Rx   d 8 03 00 80 0C 3B 38 00 24
   1.856000 1  CFF21CAx        Rx   d 8 03 00 80 0C 3B 38 00 24
   1.858000 1  18F100D0x       Rx   d 8 0C FF FF FF FF FF FF FF
   1.860000 1  CFF21CAx        Rx   d 8 03 00 80 0C 3B 38 00 24
   1.862000 1  18FF2112x       Rx   d 8 01 00 00 00 00 00 00 00
   1.863000 1  CFF21CAx        Rx   d 8 02 00 80 0C 3B 38 00 24
   1.865000 1  18F100D0x       Rx   d 8 0C FF FF FF FF FF FF FF
   1.866000 1  CFF21CAx        Rx   d 8 02 00 80 0C 3B 38 00 24
   1.868000 1  CFF21CAx        Rx   d 8 02 00 80 0C 3B 38 00 24
   1.869000 1  18F100F3x       Rx   d 8 02 EE 7D D5 98 FA 14 00
   1.870000 1  18F102F3x       Rx   d 8 0E A9 0E A1 13 06 00 08
   1.872000 1  18F106F3x       Rx   d 8 45 E0 FC FF FF FF FF FF
   1.923000 1  18F100D0x       Rx   d 8 0C FF FF FF FF FF FF FF
   1.927000 1  18F107F3x       Rx   d 8 38 A4 30 70 01 52 00 B4
   1.928000 1  18F108F3x       Rx   d 8 00 00 00 00 00 00 00 00
   1.931000 1  18F155F3x       Rx   d 8 36 35 36 36 35 36 36 00
   1.933000 1  18F156F3x       Rx   d 8 00 00 00 00 00 00 00 00
   1.934000 1  CFF21CAx        Rx   d 8 02 00 80 0C 3B 38 00 24
   1.936000 1  18F157F3x       Rx   d 8 00 00 00 00 00 00 00 00
   1.938000 1  18F158F3x       Rx   d 8 00 00 00 00 00 00 00 00
   1.940000 1  18F159F3x       Rx   d 8 00 00 00 00 00 00 00 00
   1.942000 1  18F15AF3x       Rx   d 8 00 00 00 00 00 00 00 00
   1.944000 1  18F15BF3x       Rx   d 7 00 00 00 00 00 00 00
   1.946000 1  18F15CF3x       Rx   d 8 00 00 00 00 00 00 00 00
   1.947000 1  18F15DF3x       Rx   d 8 00 00 00 00 00 00 00 00
   1.949000 1  18F15EF3x       Rx   d 8 00 00 00 00 00 00 00 00
   1.951000 1  CFF21CAx        Rx   d 8 02 00 80 0C 3B 38 00 24
   1.953000 1  18F100D0x       Rx   d 8 0C FF FF FF FF FF FF FF
   1.955000 1  CFF21CAx        Rx   d 8 02 00 80 0C 3B 38 00 24
   1.957000 1  CFF21CAx        Rx   d 8 02 00 80 0C 3B 38 00 24
   1.959000 1  18F100D0x       Rx   d 8 0C FF FF FF FF FF FF FF
   1.961000 1  CFF21CAx        Rx   d 8 01 00 80 0C 3B 38 00 24
   1.963000 1  18FF2112x       Rx   d 8 01 00 00 00 00 00 00 00
   1.965000 1  CFF21CAx        Rx   d 8 01 00 80 0C 3B 38 00 24
   1.966000 1  18F100D0x       Rx   d 8 0C FF FF FF FF FF FF FF
   1.968000 1  CFF21CAx        Rx   d 8 01 00 80 0C 3B 38 00 24
   1.969000 1  CFF21CAx        Rx   d 8 01 00 80 0C 3B 38 00 24
   1.971000 1  18F100D0x       Rx   d 8 0C FF FF FF FF FF FF FF
   1.972000 1  18F100F3x       Rx   d 8 02 EE 7D D5 98 FA 14 00
   1.974000 1  18F102F3x       Rx   d 8 0E A9 0E A1 13 06 00 08
   2.027000 1  18F106F3x       Rx   d 8 45 E0 FC FF FF FF FF FF
   2.028000 1  CFF21CAx        Rx   d 8 02 00 80 0C 3B 38 00 24
   2.030000 1  18F107F3x       Rx   d 8 38 A4 30 70 01 52 00 B4
   2.032000 1  18F108F3x       Rx   d 8 00 00 00 00 00 00 00 00
   2.034000 1  18F155F3x       Rx   d 8 36 35 36 36 35 36 36 00
   2.036000 1  18F156F3x       Rx   d 8 00 00 00 00 00 00 00 00
   2.038000 1  18F157F3x       Rx   d 8 00 00 00 00 00 00 00 00
   2.040000 1  18F158F3x       Rx   d 8 00 00 00 00 00 00 00 00
   2.042000 1  18F159F3x       Rx   d 8 00 00 00 00 00 00 00 00
   2.044000 1  18F15AF3x       Rx   d 8 00 00 00 00 00 00 00 00
   2.046000 1  18F15BF3x       Rx   d 7 00 00 00 00 00 00 00
   2.048000 1  18F15CF3x       Rx   d 8 00 00 00 00 00 00 00 00
   2.050000 1  18F15DF3x       Rx   d 8 00 00 00 00 00 00 00 00
   2.052000 1  18F15EF3x       Rx   d 8 00 00 00 00 00 00 00 00
   2.054000 1  CFF21CAx        Rx   d 8 02 00 80 0C 3B 38 00 24
   2.055000 1  18F100D0x       Rx   d 8 0C FF FF FF FF FF FF FF
   2.057000 1  CFF21CAx        Rx   d 8 03 00 80 0C 3B 38 00 24
   2.060000 1  CFF21CAx        Rx   d 8 03 00 80 0C 3B 38 00 24
   2.061000 1  18F100D0x       Rx   d 8 0C FF FF FF FF FF FF FF
   2.063000 1  CFF21CAx        Rx   d 8 03 00 80 0C 3B 38 00 24
   2.065000 1  CFF21CAx        Rx   d 8 04 00 80 0C 3B 38 00 24
   2.067000 1  18FF2112x       Rx   d 8 01 00 00 00 00 00 00 00
   2.069000 1  18F100D0x       Rx   d 8 0C FF FF FF FF FF FF FF
   2.070000 1  CFF21CAx        Rx   d 8 04 00 80 0C 3B 38 00 24
   2.071000 1  CFF21CAx        Rx   d 8 03 00 80 0C 3B 38 00 24
   2.073000 1  18FECACAx       Rx   d 8 00 00 00 00 00 00 FF FF
   2.074000 1  18F100D0x       Rx   d 8 0C FF FF FF FF FF FF FF
   2.075000 1  CFF21CAx        Rx   d 8 03 00 80 0C 3B 38 00 24
   2.077000 1  18F100F3x       Rx   d 8 02 EE 7D D4 98 FA 14 00
   2.130000 1  18F102F3x       Rx   d 8 0E A9 0E A1 13 06 00 08
   2.131000 1  18F106F3x       Rx   d 8 45 E0 FC FF FF FF FF FF
   2.133000 1  18F107F3x       Rx   d 8 38 A4 30 70 01 52 00 B4
   2.135000 1  18F108F3x       Rx   d 8 00 00 00 00 00 00 00 00
   2.137000 1  18F155F3x       Rx   d 8 36 35 36 36 35 36 36 00
   2.139000 1  18F156F3x       Rx   d 8 00 00 00 00 00 00 00 00
   2.141000 1  18F157F3x       Rx   d 8 00 00 00 00 00 00 00 00
   2.142000 1  18F158F3x       Rx   d 8 00 00 00 00 00 00 00 00
   2.144000 1  18F159F3x       Rx   d 8 00 00 00 00 00 00 00 00
   2.146000 1  18F15AF3x       Rx   d 8 00 00 00 00 00 00 00 00
   2.148000 1  18F15BF3x       Rx   d 7 00 00 00 00 00 00 00
   2.150000 1  CFF21CAx        Rx   d 8 03 00 80 0C 3B 38 00 24
   2.151000 1  18F15CF3x       Rx   d 8 00 00 00 00 00 00 00 00
   2.153000 1  18F15DF3x       Rx   d 8 00 00 00 00 00 00 00 00
   2.155000 1  18F15EF3x       Rx   d 8 00 00 00 00 00 00 00 00
   2.157000 1  18F100D0x       Rx   d 8 0C FF FF FF FF FF FF FF
   2.159000 1  CFF21CAx        Rx   d 8 03 00 80 0C 3B 38 00 24
   2.161000 1  CFF21CAx        Rx   d 8 03 00 80 0C 3B 38 00 24
   2.163000 1  18F100D0x       Rx   d 8 0C FF FF FF FF FF FF FF
   2.165000 1  CFF21CAx        Rx   d 8 03 00 80 0C 3B 38 00 24
   2.166000 1  CFF21CAx        Rx   d 8 03 00 80 0C 3B 38 00 24
   2.168000 1  18FF2112x       Rx   d 8 01 00 00 00 00 00 00 00
   2.170000 1  18F100D0x       Rx   d 8 0C FF FF FF FF FF FF FF
   2.171000 1  CFF21CAx        Rx   d 8 03 00 80 0C 3B 38 00 24
   2.173000 1  18F104F3x       Rx   d 8 36 35 01 02 01 FF FF FF
   2.174000 1  18F113F3x       Rx   d 8 0E A8 0E A3 0E A7 0E A4
   2.176000 1  18F114F3x       Rx   d 8 0E A2 0E A1 0E A8 0E A5
   2.177000 1  CFF21CAx        Rx   d 8 02 00 80 0C 3B 38 00 24
   2.178000 1  18F115F3x       Rx   d 8 0E A1 0E A1 0E A5 0E A6
   2.229000 1  18F116F3x       Rx   d 8 0E A8 0E A2 0E A8 0E A7
   2.231000 1  18F117F3x       Rx   d 8 0E A2 0E A4 0E A9 0E A8
   2.233000 1  18F118F3x       Rx   d 8 00 00 00 00 00 00 00 00
   2.235000 1  18F119F3x       Rx   d 8 00 00 00 00 00 00 00 00
   2.237000 1  18F11AF3x       Rx   d 8 00 00 00 00 00 00 00 00
   2.239000 1  18F11BF3x       Rx   d 8 00 00 00 00 00 00 00 00
   2.241000 1  18F11CF3x       Rx   d 8 00 00 00 00 00 00 00 00
   2.243000 1  18F11DF3x       Rx   d 8 00 00 00 00 00 00 00 00
   2.244000 1  18F100D0x       Rx   d 8 0C FF FF FF FF FF FF FF
   2.246000 1  18F11EF3x       Rx   d 8 00 00 00 00 00 00 00 00
   2.248000 1  18F11FF3x       Rx   d 8 00 00 00 00 00 00 00 00
   2.250000 1  18F120F3x       Rx   d 8 00 00 00 00 00 00 00 00
   2.252000 1  18F121F3x       Rx   d 8 00 00 00 00 00 00 00 00
   2.254000 1  CFF21CAx        Rx   d 8 02 00 80 0C 3B 38 00 24
   2.256000 1  18F122F3x       Rx   d 8 00 00 00 00 00 00 00 00
   2.258000 1  18F123F3x       Rx   d 8 00 00 00 00 00 00 00 00
   2.260000 1  18F124F3x       Rx   d 8 00 00 00 00 00 00 00 00
   2.262000 1  18F125F3x       Rx   d 8 00 00 00 00 00 00 00 00
   2.264000 1  18F100F3x       Rx   d 8 02 EE 7D D4 98 FA 14 00
   2.266000 1  18F102F3x       Rx   d 8 0E A9 0E A1 13 06 00 08
   2.268000 1  18F106F3x       Rx   d 8 45 E0 FC FF FF FF FF FF
   2.270000 1  18F107F3x       Rx   d 8 38 A4 30 70 01 52 00 B4
   2.272000 1  18F108F3x       Rx   d 8 00 00 00 00 00 00 00 00
   2.273000 1  18F126F3x       Rx   d 8 00 00 00 00 00 00 00 00
   2.274000 1  18F127F3x       Rx   d 8 00 00 00 00 00 00 00 00
   2.276000 1  CFF21CAx        Rx   d 8 02 00 80 0C 3B 38 00 24
   2.277000 1  18F128F3x       Rx   d 8 00 00 00 00 00 00 00 00
   2.279000 1  18F129F3x       Rx   d 8 00 00 00 00 00 00 00 00
   2.280000 1  18F12AF3x       Rx   d 8 00 00 00 00 00 00 00 00
   2.334000 1  18F12BF3x       Rx   d 8 00 00 00 00 00 00 00 00
   2.336000 1  18F100D0x       Rx   d 8 0C FF FF FF FF FF FF FF
   2.337000 1  18F12CF3x       Rx   d 8 00 00 00 00 00 00 00 00
   2.339000 1  18F12DF3x       Rx   d 8 00 00 00 00 00 00 00 00
   2.340000 1  18F12EF3x       Rx   d 8 00 00 00 00 00 00 00 00
   2.342000 1  18F12FF3x       Rx   d 8 00 00 00 00 00 00 00 00
   2.344000 1  18F130F3x       Rx   d 8 00 00 00 00 00 00 00 00
   2.346000 1  18F131F3x       Rx   d 8 00 00 00 00 00 00 00 00
   2.348000 1  18F132F3x       Rx   d 8 00 00 00 00 00 00 00 00
   2.350000 1  18F133F3x       Rx   d 8 00 00 00 00 00 00 00 00
   2.352000 1  CFF21CAx        Rx   d 8 03 00 80 0C 3B 38 00 24
   2.354000 1  18F134F3x       Rx   d 8 00 00 00 00 00 00 00 00
   2.356000 1  18F135F3x       Rx   d 8 00 00 00 00 00 00 00 00
   2.358000 1  18F136F3x       Rx   d 8 00 00 00 00 00 00 00 00
   2.360000 1  18F137F3x       Rx   d 8 00 00 00 00 00 00 00 00
   2.361000 1  18F138F3x       Rx   d 8 00 00 00 00 00 00 00 00
   2.363000 1  18F139F3x       Rx   d 8 00 00 00 00 00 00 00 00
   2.365000 1  18F13AF3x       Rx   d 8 00 00 00 00 00 00 00 00
   2.367000 1  18F13BF3x       Rx   d 8 00 00 00 00 00 00 00 00
   2.369000 1  18F13CF3x       Rx   d 8 00 00 00 00 00 00 00 00
   2.370000 1  18F155F3x       Rx   d 8 36 35 36 36 35 36 36 00
   2.372000 1  18F156F3x       Rx   d 8 00 00 00 00 00 00 00 00
   2.374000 1  18F157F3x       Rx   d 8 00 00 00 00 00 00 00 00
   2.376000 1  18F158F3x       Rx   d 8 00 00 00 00 00 00 00 00
   2.377000 1  CFF21CAx        Rx   d 8 03 00 80 0C 3B 38 00 24
   2.379000 1  18F100D0x       Rx   d 8 0C FF FF FF FF FF FF FF
   2.380000 1  18F159F3x       Rx   d 8 00 00 00 00 00 00 00 00
   2.381000 1  18F15AF3x       Rx   d 8 00 00 00 00 00 00 00 00
   2.383000 1  18F15BF3x       Rx   d 7 00 00 00 00 00 00 00
   2.384000 1  18F15CF3x       Rx   d 8 00 00 00 00 00 00 00 00
   2.435000 1  18F15DF3x       Rx   d 8 00 00 00 00 00 00 00 00
   2.437000 1  18F15EF3x       Rx   d 8 00 00 00 00 00 00 00 00
   2.439000 1  CFF21CAx        Rx   d 8 03 00 80 0C 3B 38 00 24
   2.441000 1  CFF21CAx        Rx   d 8 03 00 80 0C 3B 38 00 24
   2.443000 1  18F100D0x       Rx   d 8 0C FF FF FF FF FF FF FF
   2.445000 1  18FF2112x       Rx   d 8 01 00 00 00 00 00 00 00
   2.447000 1  CFF21CAx        Rx   d 8 03 00 80 0C 3B 38 00 24
   2.449000 1  18F100D0x       Rx   d 8 0C FF FF FF FF FF FF FF
   2.451000 1  CFF21CAx        Rx   d 8 03 00 80 0C 3B 38 00 24
   2.453000 1  CFF21CAx        Rx   d 8 03 00 80 0C 3B 38 00 24
   2.455000 1  18F100D0x       Rx   d 8 0C FF FF FF FF FF FF FF
   2.457000 1  18F100F3x       Rx   d 8 02 EE 7D D4 98 FA 14 00
   2.459000 1  18F102F3x       Rx   d 8 0E A9 0E A1 13 06 00 08
   2.461000 1  18F106F3x       Rx   d 8 45 E0 FC FF FF FF FF FF
   2.463000 1  18F107F3x       Rx   d 8 38 A4 30 70 01 52 00 B4
   2.465000 1  CFF21CAx        Rx   d 8 03 00 80 0C 3B 38 00 24
   2.466000 1  18F108F3x       Rx   d 8 00 00 00 00 00 00 00 00
   2.469000 1  18F155F3x       Rx   d 8 36 35 36 36 35 36 36 00
   2.470000 1  18F156F3x       Rx   d 8 00 00 00 00 00 00 00 00
   2.472000 1  18F157F3x       Rx   d 8 00 00 00 00 00 00 00 00
   2.474000 1  18F158F3x       Rx   d 8 00 00 00 00 00 00 00 00
   2.476000 1  18F159F3x       Rx   d 8 00 00 00 00 00 00 00 00
   2.477000 1  18F15AF3x       Rx   d 8 00 00 00 00 00 00 00 00
   2.479000 1  18F15BF3x       Rx   d 7 00 00 00 00 00 00 00
   2.480000 1  18F15CF3x       Rx   d 8 00 00 00 00 00 00 00 00
   2.482000 1  18F15DF3x       Rx   d 8 00 00 00 00 00 00 00 00
   2.483000 1  18F15EF3x       Rx   d 8 00 00 00 00 00 00 00 00
   2.485000 1  CFF21CAx        Rx   d 8 03 00 80 0C 3B 38 00 24
   2.486000 1  18F100D0x       Rx   d 8 0C FF FF FF FF FF FF FF
   2.536000 1  CFF21CAx        Rx   d 8 03 00 80 0C 3B 38 00 24
   2.538000 1  18F100D0x       Rx   d 8 0C FF FF FF FF FF FF FF
   2.540000 1  CFF21CAx        Rx   d 8 03 00 80 0C 3B 38 00 24
   2.542000 1  CFF21CAx        Rx   d 8 03 00 80 0C 3B 38 00 24
   2.544000 1  18FF2112x       Rx   d 8 01 00 00 00 00 00 00 00
   2.546000 1  18F100D0x       Rx   d 8 0C FF FF FF FF FF FF FF
   2.548000 1  CFF21CAx        Rx   d 8 03 00 80 0C 3B 38 00 24
   2.550000 1  CFF21CAx        Rx   d 8 03 00 80 0C 3B 38 00 24
   2.552000 1  18F100D0x       Rx   d 8 0C FF FF FF FF FF FF FF
   2.554000 1  CFF21CAx        Rx   d 8 03 00 80 0C 3B 38 00 24
   2.556000 1  18F100F3x       Rx   d 8 02 EE 7D D4 98 FA 14 00
   2.558000 1  18F102F3x       Rx   d 8 0E A8 0E A0 07 0A 00 08
   2.560000 1  CFF21CAx        Rx   d 8 03 00 80 0C 3B 38 00 24
   2.562000 1  18F106F3x       Rx   d 8 45 E0 FC FF FF FF FF FF
   2.564000 1  18F107F3x       Rx   d 8 38 A4 30 70 01 52 00 B4
   2.565000 1  18F108F3x       Rx   d 8 00 00 00 00 00 00 00 00
   2.567000 1  18F155F3x       Rx   d 8 35 35 36 36 35 36 36 00
   2.569000 1  18F156F3x       Rx   d 8 00 00 00 00 00 00 00 00
   2.570000 1  18F157F3x       Rx   d 8 00 00 00 00 00 00 00 00
   2.572000 1  18F158F3x       Rx   d 8 00 00 00 00 00 00 00 00
   2.575000 1  18F100D0x       Rx   d 8 0C FF FF FF FF FF FF FF
   2.576000 1  18F159F3x       Rx   d 8 00 00 00 00 00 00 00 00
   2.578000 1  18F15AF3x       Rx   d 8 00 00 00 00 00 00 00 00
   2.580000 1  18F15BF3x       Rx   d 7 00 00 00 00 00 00 00
   2.581000 1  18F15CF3x       Rx   d 8 00 00 00 00 00 00 00 00
   2.583000 1  CFF21CAx        Rx   d 8 02 00 80 0C 3B 38 00 24
   2.585000 1  18F15DF3x       Rx   d 8 00 00 00 00 00 00 00 00
   2.586000 1  18F15EF3x       Rx   d 8 00 00 00 00 00 00 00 00
   2.587000 1  CFF21CAx        Rx   d 8 02 00 80 0C 3B 38 00 24
   2.589000 1  CFF21CAx        Rx   d 8 02 00 80 0C 3B 38 00 24
   2.640000 1  18F100D0x       Rx   d 8 0C FF FF FF FF FF FF FF
   2.642000 1  CFF21CAx        Rx   d 8 01 00 80 0C 3B 38 00 24
   2.643000 1  18FF2112x       Rx   d 8 01 00 00 00 00 00 00 00
   2.646000 1  18F100D0x       Rx   d 8 0C FF FF FF FF FF FF FF
   2.648000 1  CFF21CAx        Rx   d 8 01 00 80 0C 3B 38 00 24
   2.650000 1  CFF21CAx        Rx   d 8 01 00 80 0C 3B 38 00 24
   2.651000 1  18F100D0x       Rx   d 8 0C FF FF FF FF FF FF FF
   2.653000 1  CFF21CAx        Rx   d 8 01 00 80 0C 3B 38 00 24
   2.655000 1  CFF21CAx        Rx   d 8 01 00 80 0C 3B 38 00 24
   2.657000 1  18F100F3x       Rx   d 8 02 EE 7D D4 98 FA 14 00
   2.659000 1  18F102F3x       Rx   d 8 0E A8 0E A0 07 0A 00 08
   2.661000 1  18F106F3x       Rx   d 8 45 E0 FC FF FF FF FF FF
   2.663000 1  18F107F3x       Rx   d 8 38 A4 30 70 01 52 00 B4
   2.665000 1  18F108F3x       Rx   d 8 00 00 00 00 00 00 00 00
   2.666000 1  18F100D0x       Rx   d 8 0C FF FF FF FF FF FF FF
   2.668000 1  18F155F3x       Rx   d 8 35 35 36 36 35 36 36 00
   2.670000 1  18F156F3x       Rx   d 8 00 00 00 00 00 00 00 00
   2.672000 1  18F157F3x       Rx   d 8 00 00 00 00 00 00 00 00
   2.674000 1  18F158F3x       Rx   d 8 00 00 00 00 00 00 00 00
   2.676000 1  CFF21CAx        Rx   d 8 02 00 80 0C 3B 38 00 24
   2.678000 1  18F159F3x       Rx   d 8 00 00 00 00 00 00 00 00
   2.680000 1  18F15AF3x       Rx   d 8 00 00 00 00 00 00 00 00
   2.682000 1  18F15BF3x       Rx   d 7 00 00 00 00 00 00 00
   2.684000 1  18F15CF3x       Rx   d 8 00 00 00 00 00 00 00 00
   2.685000 1  18F15DF3x       Rx   d 8 00 00 00 00 00 00 00 00
   2.687000 1  18F15EF3x       Rx   d 8 00 00 00 00 00 00 00 00
   2.688000 1  CFF21CAx        Rx   d 8 02 00 80 0C 3B 38 00 24
   2.690000 1  18F100D0x       Rx   d 8 0C FF FF FF FF FF FF FF
   2.691000 1  CFF21CAx        Rx   d 8 02 00 80 0C 3B 38 00 24
   2.692000 1  CFF21CAx        Rx   d 8 02 00 80 0C 3B 38 00 24
   2.742000 1  18F100D0x       Rx   d 8 0C FF FF FF FF FF FF FF
   2.744000 1  18FF2112x       Rx   d 8 01 00 00 00 00 00 00 00
   2.745000 1  CFF21CAx        Rx   d 8 02 00 80 0C 3B 38 00 24
   2.748000 1  CFF21CAx        Rx   d 8 02 00 80 0C 3B 38 00 24
   2.749000 1  18F100D0x       Rx   d 8 0C FF FF FF FF FF FF FF
   2.752000 1  CFF21CAx        Rx   d 8 02 00 80 0C 3B 38 00 24
   2.753000 1  CFF21CAx        Rx   d 8 02 00 80 0C 3B 38 00 24
   2.755000 1  18F100D0x       Rx   d 8 0C FF FF FF FF FF FF FF
   2.757000 1  18F100F3x       Rx   d 8 02 EE 7D D5 98 FA 14 00
   2.760000 1  18F102F3x       Rx   d 8 0E A8 0E A0 07 0A 00 08
   2.761000 1  18F106F3x       Rx   d 8 45 E0 FC FF FF FF FF FF
   2.763000 1  18F107F3x       Rx   d 8 38 A4 30 70 01 52 00 B4
   2.765000 1  18F108F3x       Rx   d 8 00 00 00 00 00 00 00 00
   2.767000 1  CFF21CAx        Rx   d 8 02 00 80 0C 3B 38 00 24
   2.770000 1  18F155F3x       Rx   d 8 35 35 36 36 35 36 36 00
   2.771000 1  18F156F3x       Rx   d 8 00 00 00 00 00 00 00 00
   2.773000 1  18F157F3x       Rx   d 8 00 00 00 00 00 00 00 00
