date Mon May 25 15:04:31.547 2026
base hex  timestamps absolute
internal events logged
Begin Triggerblock Wed Dec 31 16:01:54.563 1969
 0.000000 Start of measurement
 0.000000 2  CFF21CAx        Rx   d 8 03 00 80 0C 3C 39 00 10
 0.000600 2  18F100D0x       Rx   d 8 0C FF FF FF FF FF FF FF
 0.007600 2  18F100F3x       Rx   d 8 03 01 7D B6 B1 FA 14 00
 0.008500 2  18F102F3x       Rx   d 8 0F 08 0F 03 10 02 00 05
 0.009700 2  18F106F3x       Rx   d 8 45 E0 FC FF FF FF FF FF
 0.011000 2  18F107F3x       Rx   d 8 38 A4 30 70 01 5A 00 B9
 0.012500 2  CFF21CAx        Rx   d 8 03 00 80 0C 3C 39 00 10
 0.013100 2  18F108F3x       Rx   d 8 00 00 00 00 00 00 00 00
 0.013900 2  18F155F3x       Rx   d 8 37 37 37 37 37 37 37 00
 0.014800 2  18F156F3x       Rx   d 8 00 00 00 00 00 00 00 00
 0.015700 2  18F157F3x       Rx   d 8 00 00 00 00 00 00 00 00
 0.016600 2  18F158F3x       Rx   d 8 00 00 00 00 00 00 00 00
 0.017500 2  18F159F3x       Rx   d 8 00 00 00 00 00 00 00 00
 0.018400 2  18F15AF3x       Rx   d 8 00 00 00 00 00 00 00 00
 0.019300 2  18F15BF3x       Rx   d 7 00 00 00 00 00 00 00 00
 0.020400 2  18F15CF3x       Rx   d 8 00 00 00 00 00 00 00 00
 0.021300 2  18F15DF3x       Rx   d 8 00 00 00 00 00 00 00 00
 0.022200 2  18F15EF3x       Rx   d 8 00 00 00 00 00 00 00 00
 0.024100 2  CFF21CAx        Rx   d 8 03 00 80 0C 3C 39 00 10
 0.028500 2  18F100D0x       Rx   d 8 0C FF FF FF FF FF FF FF
 0.036100 2  CFF21CAx        Rx   d 8 03 00 80 0C 3C 39 00 10
 0.048100 2  CFF21CAx        Rx   d 8 02 00 80 0C 3C 39 00 10
 0.052200 2  18F100D0x       Rx   d 8 0C FF FF FF FF FF FF FF
 0.060600 2  CFF21CAx        Rx   d 8 02 00 80 0C 3C 39 00 10
 0.072200 2  CFF21CAx        Rx   d 8 02 00 80 0C 3C 39 00 10
 0.076200 2  18F100D0x       Rx   d 8 0C FF FF FF FF FF FF FF
 0.084700 2  CFF21CAx        Rx   d 8 02 00 80 0C 3C 39 00 10
 0.086800 2  18FF2112x       Rx   d 8 01 00 00 00 00 00 00 00
 0.096200 2  CFF21CAx        Rx   d 8 02 00 80 0C 3C 39 00 10
 0.100300 2  18F100D0x       Rx   d 8 0C FF FF FF FF FF FF FF
 0.107400 2  18F100F3x       Rx   d 8 03 01 7D B5 B1 FA 14 00
 0.108300 2  18F102F3x       Rx   d 8 0F 08 0F 03 10 02 00 05
 0.108900 2  CFF21CAx        Rx   d 8 02 00 80 0C 3C 39 00 10
 0.109600 2  18F106F3x       Rx   d 8 45 E0 FC FF FF FF FF FF
 0.110900 2  18F107F3x       Rx   d 8 38 A4 30 70 01 5A 00 B9
 0.112700 2  18F108F3x       Rx   d 8 00 00 00 00 00 00 00 00
 0.113600 2  18F155F3x       Rx   d 8 37 37 37 37 37 37 37 00
 0.114400 2  18F156F3x       Rx   d 8 00 00 00 00 00 00 00 00
 0.115400 2  18F157F3x       Rx   d 8 00 00 00 00 00 00 00 00
 0.116300 2  18F158F3x       Rx   d 8 00 00 00 00 00 00 00 00
 0.117200 2  18F159F3x       Rx   d 8 00 00 00 00 00 00 00 00
 0.118100 2  18F15AF3x       Rx   d 8 00 00 00 00 00 00 00 00
 0.118900 2  18F15BF3x       Rx   d 7 00 00 00 00 00 00 00 00
 0.119800 2  18F15CF3x       Rx   d 8 00 00 00 00 00 00 00 00
 0.120400 2  CFF21CAx        Rx   d 8 02 00 80 0C 3C 39 00 10
 0.120900 2  18F15DF3x       Rx   d 8 00 00 00 00 00 00 00 00
 0.121800 2  18F15EF3x       Rx   d 8 00 00 00 00 00 00 00 00
 0.128400 2  18F100D0x       Rx   d 8 0C FF FF FF FF FF FF FF
 0.132400 2  CFF21CAx        Rx   d 8 02 00 80 0C 3C 39 00 10
 0.144400 2  CFF21CAx        Rx   d 8 02 00 80 0C 3C 39 00 10
 0.152400 2  18F100D0x       Rx   d 8 0C FF FF FF FF FF FF FF
 0.156900 2  CFF21CAx        Rx   d 8 02 00 80 0C 3C 39 00 10
 0.168500 2  CFF21CAx        Rx   d 8 02 00 80 0C 3C 39 00 10
 0.176500 2  18F100D0x       Rx   d 8 0C FF FF FF FF FF FF FF
 0.180500 2  CFF21CAx        Rx   d 8 02 00 80 0C 3C 39 00 10
 0.184000 2  18FF2112x       Rx   d 8 01 00 00 00 00 00 00 00
 0.192500 2  CFF21CAx        Rx   d 8 02 00 80 0C 3C 39 00 10
 0.200600 2  18F100D0x       Rx   d 8 0C FF FF FF FF FF FF FF
 0.204600 2  CFF21CAx        Rx   d 8 02 00 80 0C 3C 39 00 10
 0.207300 2  18F100F3x       Rx   d 8 03 01 7D B5 B1 FA 14 00
 0.208200 2  18F102F3x       Rx   d 8 0F 08 0F 03 10 02 00 05
 0.209500 2  18F106F3x       Rx   d 8 45 E0 FC FF FF FF FF FF
 0.210800 2  18F107F3x       Rx   d 8 38 A4 30 70 01 5A 00 B9
 0.212600 2  18F108F3x       Rx   d 8 00 00 00 00 00 00 00 00
 0.213400 2  18F155F3x       Rx   d 8 37 37 37 37 37 37 37 00
 0.214300 2  18F156F3x       Rx   d 8 00 00 00 00 00 00 00 00
 0.215200 2  18F157F3x       Rx   d 8 00 00 00 00 00 00 00 00
 0.216200 2  18F158F3x       Rx   d 8 00 00 00 00 00 00 00 00
 0.216700 2  CFF21CAx        Rx   d 8 02 00 80 0C 3C 39 00 10
 0.217300 2  18F159F3x       Rx   d 8 00 00 00 00 00 00 00 00
 0.218200 2  18F15AF3x       Rx   d 8 00 00 00 00 00 00 00 00
 0.219100 2  18F15BF3x       Rx   d 7 00 00 00 00 00 00 00 00
 0.220300 2  18F15CF3x       Rx   d 8 00 00 00 00 00 00 00 00
 0.221200 2  18F15DF3x       Rx   d 8 00 00 00 00 00 00 00 00
 0.222100 2  18F15EF3x       Rx   d 8 00 00 00 00 00 00 00 00
 0.224600 2  18F100D0x       Rx   d 8 0C FF FF FF FF FF FF FF
 0.228600 2  CFF21CAx        Rx   d 8 02 00 80 0C 3C 39 00 10
 0.240700 2  CFF21CAx        Rx   d 8 03 00 80 0C 3C 39 00 10
 0.248700 2  18F100D0x       Rx   d 8 0C FF FF FF FF FF FF FF
 0.253100 2  CFF21CAx        Rx   d 8 03 00 80 0C 3C 39 00 10
 0.264700 2  CFF21CAx        Rx   d 8 03 00 80 0C 3C 39 00 10
 0.272800 2  18F100D0x       Rx   d 8 0C FF FF FF FF FF FF FF
 0.276800 2  CFF21CAx        Rx   d 8 03 00 80 0C 3C 39 00 10
 0.281100 2  18FF2112x       Rx   d 8 01 00 00 00 00 00 00 00
 0.288800 2  CFF21CAx        Rx   d 8 03 00 80 0C 3C 39 00 10
 0.300800 2  CFF21CAx        Rx   d 8 02 00 80 0C 3C 39 00 10
 0.301400 2  18F100D0x       Rx   d 8 0C FF FF FF FF FF FF FF
 0.307200 2  18F100F3x       Rx   d 8 03 01 7D B5 B1 FA 14 00
 0.308100 2  18F102F3x       Rx   d 8 0F 08 0F 03 10 02 00 05
 0.309400 2  18F106F3x       Rx   d 8 45 E0 FC FF FF FF FF FF
 0.310700 2  18F107F3x       Rx   d 8 38 A4 30 70 01 5A 00 B9
 0.312500 2  18F108F3x       Rx   d 8 00 00 00 00 00 00 00 00
 0.313000 2  CFF21CAx        Rx   d 8 02 00 80 0C 3C 39 00 10
 0.313600 2  18F155F3x       Rx   d 8 37 37 37 37 37 37 37 00
 0.314500 2  18F156F3x       Rx   d 8 00 00 00 00 00 00 00 00
 0.315300 2  18F157F3x       Rx   d 8 00 00 00 00 00 00 00 00
 0.316200 2  18F158F3x       Rx   d 8 00 00 00 00 00 00 00 00
 0.317100 2  18F159F3x       Rx   d 8 00 00 00 00 00 00 00 00
 0.318000 2  18F15AF3x       Rx   d 8 00 00 00 00 00 00 00 00
 0.318900 2  18F15BF3x       Rx   d 7 00 00 00 00 00 00 00 00
 0.320100 2  18F15CF3x       Rx   d 8 00 00 00 00 00 00 00 00
 0.321000 2  18F15DF3x       Rx   d 8 00 00 00 00 00 00 00 00
 0.321900 2  18F15EF3x       Rx   d 8 00 00 00 00 00 00 00 00
 0.324900 2  CFF21CAx        Rx   d 8 02 00 80 0C 3C 39 00 10
 0.325500 2  18F100D0x       Rx   d 8 0C FF FF FF FF FF FF FF
 0.336900 2  CFF21CAx        Rx   d 8 02 00 80 0C 3C 39 00 10
 0.349000 2  CFF21CAx        Rx   d 8 02 00 80 0C 3C 39 00 10
 0.353000 2  18F100D0x       Rx   d 8 0C FF FF FF FF FF FF FF
 0.361000 2  CFF21CAx        Rx   d 8 02 00 80 0C 3C 39 00 10
 0.361600 2  18FECACAx       Rx   d 8 00 00 00 00 00 00 FF FF
 0.373000 2  CFF21CAx        Rx   d 8 02 00 80 0C 3C 39 00 10
 0.377100 2  18F100D0x       Rx   d 8 0C FF FF FF FF FF FF FF
 0.378300 2  18FF2112x       Rx   d 8 01 00 00 00 00 00 00 00
 0.384600 2  18F104F3x       Rx   d 8 37 37 01 01 00 FF FF FF
 0.385200 2  CFF21CAx        Rx   d 8 02 00 80 0C 3C 39 00 10
 0.385700 2  18F113F3x       Rx   d 8 0F 04 0F 03 0F 05 0F 05
 0.386600 2  18F114F3x       Rx   d 8 0F 04 0F 03 0F 06 0F 06
 0.387500 2  18F115F3x       Rx   d 8 0F 05 0F 03 0F 04 0F 03
 0.388400 2  18F116F3x       Rx   d 8 0F 06 0F 05 0F 07 0F 08
 0.389400 2  18F117F3x       Rx   d 8 0F 04 0F 05 0F 08 0F 08
 0.390300 2  18F118F3x       Rx   d 8 00 00 00 00 00 00 00 00
 0.391200 2  18F119F3x       Rx   d 8 00 00 00 00 00 00 00 00
 0.392100 2  18F11AF3x       Rx   d 8 00 00 00 00 00 00 00 00
 0.393100 2  18F11BF3x       Rx   d 8 00 00 00 00 00 00 00 00
 0.394000 2  18F11CF3x       Rx   d 8 00 00 00 00 00 00 00 00
 0.395000 2  18F11DF3x       Rx   d 8 00 00 00 00 00 00 00 00
 0.396000 2  18F11EF3x       Rx   d 8 00 00 00 00 00 00 00 00
 0.396900 2  18F11FF3x       Rx   d 8 00 00 00 00 00 00 00 00
 0.397500 2  CFF21CAx        Rx   d 8 03 00 80 0C 3C 39 00 10
 0.398100 2  18F120F3x       Rx   d 8 00 00 00 00 00 00 00 00
 0.399000 2  18F121F3x       Rx   d 8 00 00 00 00 00 00 00 00
 0.400300 2  18F122F3x       Rx   d 8 00 00 00 00 00 00 00 00
 0.401100 2  18F100D0x       Rx   d 8 0C FF FF FF FF FF FF FF
 0.401700 2  18F123F3x       Rx   d 8 00 00 00 00 00 00 00 00
 0.402600 2  18F124F3x       Rx   d 8 00 00 00 00 00 00 00 00
 0.403500 2  18F125F3x       Rx   d 8 00 00 00 00 00 00 00 00
 0.404400 2  18F126F3x       Rx   d 8 00 00 00 00 00 00 00 00
 0.405300 2  18F127F3x       Rx   d 8 00 00 00 00 00 00 00 00
 0.406200 2  18F128F3x       Rx   d 8 00 00 00 00 00 00 00 00
 0.407200 2  18F100F3x       Rx   d 8 03 01 7D B5 B1 FA 14 00
 0.407800 2  18F102F3x       Rx   d 8 0F 08 0F 03 10 02 00 05
 0.409100 2  18F106F3x       Rx   d 8 45 E0 FC FF FF FF FF FF
 0.409700 2  CFF21CAx        Rx   d 8 03 00 80 0C 3C 39 00 10
 0.410600 2  18F107F3x       Rx   d 8 38 A4 30 70 01 5A 00 B9
 0.412400 2  18F108F3x       Rx   d 8 00 00 00 00 00 00 00 00
 0.413300 2  18F129F3x       Rx   d 8 00 00 00 00 00 00 00 00
 0.414200 2  18F12AF3x       Rx   d 8 00 00 00 00 00 00 00 00
 0.415100 2  18F12BF3x       Rx   d 8 00 00 00 00 00 00 00 00
 0.416000 2  18F12CF3x       Rx   d 8 00 00 00 00 00 00 00 00
 0.417000 2  18F12DF3x       Rx   d 8 00 00 00 00 00 00 00 00
 0.417900 2  18F12EF3x       Rx   d 8 00 00 00 00 00 00 00 00
 0.418800 2  18F12FF3x       Rx   d 8 00 00 00 00 00 00 00 00
 0.420000 2  18F130F3x       Rx   d 8 00 00 00 00 00 00 00 00
 0.421000 2  18F131F3x       Rx   d 8 00 00 00 00 00 00 00 00
 0.421500 2  CFF21CAx        Rx   d 8 03 00 80 0C 3C 39 00 10
 0.422100 2  18F132F3x       Rx   d 8 00 00 00 00 00 00 00 00
 0.423000 2  18F133F3x       Rx   d 8 00 00 00 00 00 00 00 00
 0.423900 2  18F134F3x       Rx   d 8 00 00 00 00 00 00 00 00
 0.424800 2  18F135F3x       Rx   d 8 00 00 00 00 00 00 00 00
 0.425400 2  18F100D0x       Rx   d 8 0C FF FF FF FF FF FF FF
 0.426000 2  18F136F3x       Rx   d 8 00 00 00 00 00 00 00 00
 0.426900 2  18F137F3x       Rx   d 8 00 00 00 00 00 00 00 00
 0.427900 2  18F138F3x       Rx   d 8 00 00 00 00 00 00 00 00
 0.428800 2  18F139F3x       Rx   d 8 00 00 00 00 00 00 00 00
 0.430000 2  18F13AF3x       Rx   d 8 00 00 00 00 00 00 00 00
 0.430900 2  18F13BF3x       Rx   d 8 00 00 00 00 00 00 00 00
 0.431800 2  18F13CF3x       Rx   d 8 00 00 00 00 00 00 00 00
 0.432700 2  18F155F3x       Rx   d 8 37 37 37 37 37 37 37 00
 0.433200 2  CFF21CAx        Rx   d 8 02 00 80 0C 3C 39 00 10
 0.433800 2  18F156F3x       Rx   d 8 00 00 00 00 00 00 00 00
 0.434700 2  18F157F3x       Rx   d 8 00 00 00 00 00 00 00 00
 0.435600 2  18F158F3x       Rx   d 8 00 00 00 00 00 00 00 00
 0.436500 2  18F159F3x       Rx   d 8 00 00 00 00 00 00 00 00
 0.437400 2  18F15AF3x       Rx   d 8 00 00 00 00 00 00 00 00
 0.438200 2  18F15BF3x       Rx   d 7 00 00 00 00 00 00 00 00
 0.439000 2  18F15CF3x       Rx   d 8 00 00 00 00 00 00 00 00
 0.440100 2  18F15DF3x       Rx   d 8 00 00 00 00 00 00 00 00
 0.441000 2  18F15EF3x       Rx   d 8 00 00 00 00 00 00 00 00
 0.445200 2  CFF21CAx        Rx   d 8 02 00 80 0C 3C 39 00 10
 0.449300 2  18F100D0x       Rx   d 8 0C FF FF FF FF FF FF FF
 0.457300 2  CFF21CAx        Rx   d 8 03 00 80 0C 3C 39 00 10
 0.469300 2  CFF21CAx        Rx   d 8 03 00 80 0C 3C 39 00 10
 0.473300 2  18F100D0x       Rx   d 8 0C FF FF FF FF FF FF FF
 0.475500 2  18FF2112x       Rx   d 8 01 00 00 00 00 00 00 00
 0.481300 2  CFF21CAx        Rx   d 8 03 00 80 0C 3C 39 00 10
 0.493400 2  CFF21CAx        Rx   d 8 03 00 80 0C 3C 39 00 10
 0.501400 2  18F100D0x       Rx   d 8 0C FF FF FF FF FF FF FF
 0.505400 2  CFF21CAx        Rx   d 8 03 00 80 0C 3C 39 00 10
 0.507000 2  18F100F3x       Rx   d 8 03 01 7D B5 B1 FA 14 00
 0.507900 2  18F102F3x       Rx   d 8 0F 08 0F 03 10 02 00 05
 0.509200 2  18F106F3x       Rx   d 8 45 E0 FC FF FF FF FF FF
 0.510500 2  18F107F3x       Rx   d 8 38 A4 30 70 01 5A 00 B9
 0.512200 2  18F108F3x       Rx   d 8 00 00 00 00 00 00 00 00
 0.513100 2  18F155F3x       Rx   d 8 37 37 37 37 37 37 37 00
 0.514000 2  18F156F3x       Rx   d 8 00 00 00 00 00 00 00 00
 0.514900 2  18F157F3x       Rx   d 8 00 00 00 00 00 00 00 00
 0.515800 2  18F158F3x       Rx   d 8 00 00 00 00 00 00 00 00
 0.516700 2  18F159F3x       Rx   d 8 00 00 00 00 00 00 00 00
 0.517400 2  CFF21CAx        Rx   d 8 03 00 80 0C 3C 39 00 10
 0.518000 2  18F15AF3x       Rx   d 8 00 00 00 00 00 00 00 00
 0.518800 2  18F15BF3x       Rx   d 7 00 00 00 00 00 00 00 00
 0.520000 2  18F15CF3x       Rx   d 8 00 00 00 00 00 00 00 00
 0.520900 2  18F15DF3x       Rx   d 8 00 00 00 00 00 00 00 00
 0.521800 2  18F15EF3x       Rx   d 8 00 00 00 00 00 00 00 00
 0.525500 2  18F100D0x       Rx   d 8 0C FF FF FF FF FF FF FF
 0.529500 2  CFF21CAx        Rx   d 8 03 00 80 0C 3C 39 00 10
 0.541500 2  CFF21CAx        Rx   d 8 03 00 80 0C 3C 39 00 10
 0.549500 2  18F100D0x       Rx   d 8 0C FF FF FF FF FF FF FF
 0.553600 2  CFF21CAx        Rx   d 8 03 00 80 0C 3C 39 00 10
 0.565600 2  CFF21CAx        Rx   d 8 02 00 80 0C 3C 39 00 10
 0.572600 2  18FF2112x       Rx   d 8 01 00 00 00 00 00 00 00
 0.573600 2  18F100D0x       Rx   d 8 0C FF FF FF FF FF FF FF
 0.577600 2  CFF21CAx        Rx   d 8 02 00 80 0C 3C 39 00 10
 0.589700 2  CFF21CAx        Rx   d 8 02 00 80 0C 3C 39 00 10
 0.601700 2  CFF21CAx        Rx   d 8 02 00 80 0C 3C 39 00 10
 0.602300 2  18F100D0x       Rx   d 8 0C FF FF FF FF FF FF FF
 0.606900 2  18F100F3x       Rx   d 8 03 01 7D B5 B1 FA 14 00
 0.607700 2  18F102F3x       Rx   d 8 0F 08 0F 02 10 0B 00 06
 0.609000 2  18F106F3x       Rx   d 8 45 E0 FC FF FF FF FF FF
 0.610300 2  18F107F3x       Rx   d 8 38 A4 30 70 01 5A 00 B9
 0.612100 2  18F108F3x       Rx   d 8 00 00 00 00 00 00 00 00
 0.613000 2  18F155F3x       Rx   d 8 37 37 37 37 37 37 37 00
 0.613800 2  CFF21CAx        Rx   d 8 03 00 80 0C 3C 39 00 10
 0.614300 2  18F156F3x       Rx   d 8 00 00 00 00 00 00 00 00
 0.615200 2  18F157F3x       Rx   d 8 00 00 00 00 00 00 00 00
 0.616100 2  18F158F3x       Rx   d 8 00 00 00 00 00 00 00 00
 0.617000 2  18F159F3x       Rx   d 8 00 00 00 00 00 00 00 00
 0.617800 2  18F15AF3x       Rx   d 8 00 00 00 00 00 00 00 00
 0.618700 2  18F15BF3x       Rx   d 7 00 00 00 00 00 00 00 00
 0.619900 2  18F15CF3x       Rx   d 8 00 00 00 00 00 00 00 00
 0.620700 2  18F15DF3x       Rx   d 8 00 00 00 00 00 00 00 00
 0.621600 2  18F15EF3x       Rx   d 8 00 00 00 00 00 00 00 00
 0.625800 2  CFF21CAx        Rx   d 8 03 00 80 0C 3C 39 00 10
 0.626300 2  18F100D0x       Rx   d 8 0C FF FF FF FF FF FF FF
 0.637800 2  CFF21CAx        Rx   d 8 03 00 80 0C 3C 39 00 10
 0.649800 2  CFF21CAx        Rx   d 8 03 00 80 0C 3C 39 00 10
 0.650400 2  18F100D0x       Rx   d 8 0C FF FF FF FF FF FF FF
 0.661900 2  CFF21CAx        Rx   d 8 03 00 80 0C 3C 39 00 10
 0.669800 2  18FF2112x       Rx   d 8 01 00 00 00 00 00 00 00
 0.673900 2  CFF21CAx        Rx   d 8 03 00 80 0C 3C 39 00 10
 0.674500 2  18F100D0x       Rx   d 8 0C FF FF FF FF FF FF FF
 0.685900 2  CFF21CAx        Rx   d 8 03 00 80 0C 3C 39 00 10
 0.698000 2  CFF21CAx        Rx   d 8 03 00 80 0C 3C 39 00 10
 0.698600 2  18F100D0x       Rx   d 8 0C FF FF FF FF FF FF FF
 0.706700 2  18F100F3x       Rx   d 8 03 01 7D B5 B1 FA 14 00
 0.707600 2  18F102F3x       Rx   d 8 0F 08 0F 02 10 0B 00 06
 0.708900 2  18F106F3x       Rx   d 8 45 E0 FC FF FF FF FF FF
 0.710000 2  CFF21CAx        Rx   d 8 03 00 80 0C 3C 39 00 10
 0.710600 2  18F107F3x       Rx   d 8 38 A4 30 70 01 5A 00 B9
 0.712400 2  18F108F3x       Rx   d 8 00 00 00 00 00 00 00 00
 0.713300 2  18F155F3x       Rx   d 8 37 37 37 37 37 37 37 00
 0.714100 2  18F156F3x       Rx   d 8 00 00 00 00 00 00 00 00
 0.715000 2  18F157F3x       Rx   d 8 00 00 00 00 00 00 00 00
 0.715900 2  18F158F3x       Rx   d 8 00 00 00 00 00 00 00 00
 0.716800 2  18F159F3x       Rx   d 8 00 00 00 00 00 00 00 00
 0.717600 2  18F15AF3x       Rx   d 8 00 00 00 00 00 00 00 00
 0.718500 2  18F15BF3x       Rx   d 7 00 00 00 00 00 00 00 00
 0.719700 2  18F15CF3x       Rx   d 8 00 00 00 00 00 00 00 00
 0.720600 2  18F15DF3x       Rx   d 8 00 00 00 00 00 00 00 00
 0.721500 2  18F15EF3x       Rx   d 8 00 00 00 00 00 00 00 00
 0.722500 2  CFF21CAx        Rx   d 8 03 00 80 0C 3C 39 00 10
 0.723100 2  18F100D0x       Rx   d 8 0C FF FF FF FF FF FF FF
 0.734100 2  CFF21CAx        Rx   d 8 03 00 80 0C 3C 39 00 10
 0.746100 2  CFF21CAx        Rx   d 8 03 00 80 0C 3C 39 00 10
 0.746700 2  18F100D0x       Rx   d 8 0C FF FF FF FF FF FF FF
 0.758100 2  CFF21CAx        Rx   d 8 03 00 80 0C 3C 39 00 10
 0.766900 2  18FF2112x       Rx   d 8 01 00 00 00 00 00 00 00
 0.770200 2  CFF21CAx        Rx   d 8 03 00 80 0C 3C 39 00 10
 0.770800 2  18F100D0x       Rx   d 8 0C FF FF FF FF FF FF FF
 0.782200 2  CFF21CAx        Rx   d 8 03 00 80 0C 3C 39 00 10
 0.794300 2  CFF21CAx        Rx   d 8 03 00 80 0C 3C 39 00 10
 0.798300 2  18F100D0x       Rx   d 8 0C FF FF FF FF FF FF FF
 0.806300 2  CFF21CAx        Rx   d 8 03 00 80 0C 3C 39 00 10
 0.806800 2  18F100F3x       Rx   d 8 03 01 7D B5 B1 FA 14 00
 0.807700 2  18F102F3x       Rx   d 8 0F 08 0F 02 10 0B 00 06
 0.808900 2  18F106F3x       Rx   d 8 45 E0 FC FF FF FF FF FF
 0.810200 2  18F107F3x       Rx   d 8 38 A4 30 70 01 5A 00 B9
 0.811900 2  18F108F3x       Rx   d 8 00 00 00 00 00 00 00 00
 0.812800 2  18F155F3x       Rx   d 8 37 37 37 37 37 37 37 00
 0.813700 2  18F156F3x       Rx   d 8 00 00 00 00 00 00 00 00
 0.814600 2  18F157F3x       Rx   d 8 00 00 00 00 00 00 00 00
 0.815500 2  18F158F3x       Rx   d 8 00 00 00 00 00 00 00 00
 0.816400 2  18F159F3x       Rx   d 8 00 00 00 00 00 00 00 00
 0.817300 2  18F15AF3x       Rx   d 8 00 00 00 00 00 00 00 00
 0.818100 2  18F15BF3x       Rx   d 7 00 00 00 00 00 00 00 00
 0.818700 2  CFF21CAx        Rx   d 8 03 00 80 0C 3C 39 00 10
 0.819300 2  18F15CF3x       Rx   d 8 00 00 00 00 00 00 00 00
 0.820100 2  18F15DF3x       Rx   d 8 00 00 00 00 00 00 00 00
 0.821000 2  18F15EF3x       Rx   d 8 00 00 00 00 00 00 00 00
 0.822300 2  18F100D0x       Rx   d 8 0C FF FF FF FF FF FF FF
 0.830300 2  CFF21CAx        Rx   d 8 03 00 80 0C 3C 39 00 10
 0.842800 2  CFF21CAx        Rx   d 8 03 00 80 0C 3C 39 00 10
 0.846400 2  18F100D0x       Rx   d 8 0C FF FF FF FF FF FF FF
 0.854400 2  CFF21CAx        Rx   d 8 03 00 80 0C 3C 39 00 10
 0.864100 2  18FF2112x       Rx   d 8 01 00 00 00 00 00 00 00
 0.866500 2  CFF21CAx        Rx   d 8 03 00 80 0C 3C 39 00 10
 0.874500 2  18F100D0x       Rx   d 8 0C FF FF FF FF FF FF FF
 0.878500 2  CFF21CAx        Rx   d 8 02 00 80 0C 3C 39 00 10
 0.890900 2  CFF21CAx        Rx   d 8 02 00 80 0C 3C 39 00 10
 0.898600 2  18F100D0x       Rx   d 8 0C FF FF FF FF FF FF FF
 0.902500 2  CFF21CAx        Rx   d 8 03 00 80 0C 3C 39 00 10
 0.906500 2  18F100F3x       Rx   d 8 03 01 7D B5 B1 FA 14 00
 0.907400 2  18F102F3x       Rx   d 8 0F 08 0F 02 10 0B 00 06
 0.908700 2  18F106F3x       Rx   d 8 45 E0 FC FF FF FF FF FF
 0.910000 2  18F107F3x       Rx   d 8 38 A4 30 70 01 5A 00 B9
 0.911800 2  18F108F3x       Rx   d 8 00 00 00 00 00 00 00 00
 0.912600 2  18F155F3x       Rx   d 8 37 37 37 37 37 37 37 00
 0.913500 2  18F156F3x       Rx   d 8 00 00 00 00 00 00 00 00
 0.914400 2  18F157F3x       Rx   d 8 00 00 00 00 00 00 00 00
 0.915100 2  CFF21CAx        Rx   d 8 03 00 80 0C 3C 39 00 10
 0.915700 2  18F158F3x       Rx   d 8 00 00 00 00 00 00 00 00
 0.916600 2  18F159F3x       Rx   d 8 00 00 00 00 00 00 00 00
 0.917400 2  18F15AF3x       Rx   d 8 00 00 00 00 00 00 00 00
 0.918300 2  18F15BF3x       Rx   d 7 00 00 00 00 00 00 00 00
 0.919500 2  18F15CF3x       Rx   d 8 00 00 00 00 00 00 00 00
 0.920400 2  18F15DF3x       Rx   d 8 00 00 00 00 00 00 00 00
 0.921300 2  18F15EF3x       Rx   d 8 00 00 00 00 00 00 00 00
 0.923100 2  18F100D0x       Rx   d 8 0C FF FF FF FF FF FF FF
 0.926600 2  CFF21CAx        Rx   d 8 03 00 80 0C 3C 39 00 10
 0.939100 2  CFF21CAx        Rx   d 8 02 00 80 0C 3C 39 00 10
 0.946700 2  18F100D0x       Rx   d 8 0C FF FF FF FF FF FF FF
 0.950700 2  CFF21CAx        Rx   d 8 02 00 80 0C 3C 39 00 10
 0.961200 2  18FF2112x       Rx   d 8 01 00 00 00 00 00 00 00
 0.962700 2  CFF21CAx        Rx   d 8 02 00 80 0C 3C 39 00 10
 0.970800 2  18F100D0x       Rx   d 8 0C FF FF FF FF FF FF FF
 0.974700 2  CFF21CAx        Rx   d 8 03 00 80 0C 3C 39 00 10
 0.987200 2  CFF21CAx        Rx   d 8 03 00 80 0C 3C 39 00 10
 0.994800 2  18F100D0x       Rx   d 8 0C FF FF FF FF FF FF FF
 0.998800 2  CFF21CAx        Rx   d 8 03 00 80 0C 3C 39 00 10
 1.006400 2  18F100F3x       Rx   d 8 03 01 7D B5 B1 FA 14 00
 1.007300 2  18F102F3x       Rx   d 8 0F 07 0F 01 10 0C 00 06
 1.008600 2  18F106F3x       Rx   d 8 45 E0 FC FF FF FF FF FF
 1.009900 2  18F107F3x       Rx   d 8 38 A4 30 70 01 5A 00 B9
 1.011300 2  CFF21CAx        Rx   d 8 02 00 80 0C 3C 39 00 10
 1.011900 2  18F108F3x       Rx   d 8 00 00 00 00 00 00 00 00
 1.012800 2  18F155F3x       Rx   d 8 37 37 37 37 37 37 37 00
 1.013700 2  18F156F3x       Rx   d 8 00 00 00 00 00 00 00 00
 1.014500 2  18F157F3x       Rx   d 8 00 00 00 00 00 00 00 00
 1.015400 2  18F158F3x       Rx   d 8 00 00 00 00 00 00 00 00
 1.016300 2  18F159F3x       Rx   d 8 00 00 00 00 00 00 00 00
 1.017200 2  18F15AF3x       Rx   d 8 00 00 00 00 00 00 00 00
 1.018100 2  18F15BF3x       Rx   d 7 00 00 00 00 00 00 00 00
 1.019200 2  18F15CF3x       Rx   d 8 00 00 00 00 00 00 00 00
 1.019800 2  18F100D0x       Rx   d 8 0C FF FF FF FF FF FF FF
 1.020400 2  18F15DF3x       Rx   d 8 00 00 00 00 00 00 00 00
 1.021200 2  18F15EF3x       Rx   d 8 00 00 00 00 00 00 00 00
 1.022900 2  CFF21CAx        Rx   d 8 02 00 80 0C 3C 39 00 10
 1.035000 2  CFF21CAx        Rx   d 8 03 00 80 0C 3C 39 00 10
 1.047000 2  CFF21CAx        Rx   d 8 03 00 80 0C 3C 39 00 10
 1.047500 2  18F100D0x       Rx   d 8 0C FF FF FF FF FF FF FF
 1.058400 2  18FF2112x       Rx   d 8 01 00 00 00 00 00 00 00
 1.059000 2  CFF21CAx        Rx   d 8 03 00 80 0C 3C 39 00 10
 1.071000 2  CFF21CAx        Rx   d 8 02 00 80 0C 3C 39 00 10
 1.071600 2  18F100D0x       Rx   d 8 0C FF FF FF FF FF FF FF
 1.083500 2  CFF21CAx        Rx   d 8 02 00 80 0C 3C 39 00 10
 1.095100 2  CFF21CAx        Rx   d 8 02 00 80 0C 3C 39 00 10
 1.095700 2  18F100D0x       Rx   d 8 0C FF FF FF FF FF FF FF
 1.106300 2  18F100F3x       Rx   d 8 03 01 7D B5 B1 FA 14 00
 1.107200 2  18F102F3x       Rx   d 8 0F 07 0F 01 10 0C 00 06
 1.107700 2  CFF21CAx        Rx   d 8 03 00 80 0C 3C 39 00 10
 1.108500 2  18F106F3x       Rx   d 8 45 E0 FC FF FF FF FF FF
 1.109700 2  18F107F3x       Rx   d 8 38 A4 30 70 01 5A 00 B9
 1.111500 2  18F108F3x       Rx   d 8 00 00 00 00 00 00 00 00
 1.112400 2  18F155F3x       Rx   d 8 37 37 37 37 37 37 37 00
 1.113300 2  18F156F3x       Rx   d 8 00 00 00 00 00 00 00 00
 1.114200 2  18F157F3x       Rx   d 8 00 00 00 00 00 00 00 00
 1.115100 2  18F158F3x       Rx   d 8 00 00 00 00 00 00 00 00
 1.116000 2  18F159F3x       Rx   d 8 00 00 00 00 00 00 00 00
 1.116900 2  18F15AF3x       Rx   d 8 00 00 00 00 00 00 00 00
 1.117800 2  18F15BF3x       Rx   d 7 00 00 00 00 00 00 00 00
 1.118600 2  18F15CF3x       Rx   d 8 00 00 00 00 00 00 00 00
 1.119200 2  CFF21CAx        Rx   d 8 03 00 80 0C 3C 39 00 10
 1.119700 2  18F15DF3x       Rx   d 8 00 00 00 00 00 00 00 00
 1.120600 2  18F15EF3x       Rx   d 8 00 00 00 00 00 00 00 00
 1.123200 2  18F100D0x       Rx   d 8 0C FF FF FF FF FF FF FF
 1.131300 2  CFF21CAx        Rx   d 8 03 00 80 0C 3C 39 00 10
 1.143200 2  CFF21CAx        Rx   d 8 03 00 80 0C 3C 39 00 10
 1.147700 2  18F100D0x       Rx   d 8 0C FF FF FF FF FF FF FF
 1.155200 2  CFF21CAx        Rx   d 8 03 00 80 0C 3C 39 00 10
 1.155800 2  18FF2112x       Rx   d 8 01 00 00 00 00 00 00 00
 1.167300 2  CFF21CAx        Rx   d 8 03 00 80 0C 3C 39 00 10
 1.171300 2  18F100D0x       Rx   d 8 0C FF FF FF FF FF FF FF
 1.179800 2  CFF21CAx        Rx   d 8 03 00 80 0C 3C 39 00 10
 1.191400 2  CFF21CAx        Rx   d 8 02 00 80 0C 3C 39 00 10
 1.195400 2  18F100D0x       Rx   d 8 0C FF FF FF FF FF FF FF
 1.203400 2  CFF21CAx        Rx   d 8 02 00 80 0C 3C 39 00 10
 1.206200 2  18F100F3x       Rx   d 8 03 01 7D B5 B1 FA 14 00
 1.207000 2  18F102F3x       Rx   d 8 0F 07 0F 01 10 0C 00 06
 1.208300 2  18F106F3x       Rx   d 8 45 E0 FC FF FF FF FF FF
 1.209600 2  18F107F3x       Rx   d 8 38 A4 30 70 01 5A 00 B9
 1.211400 2  18F108F3x       Rx   d 8 00 00 00 00 00 00 00 00
 1.212200 2  18F155F3x       Rx   d 8 37 37 37 37 37 37 37 00
 1.213100 2  18F156F3x       Rx   d 8 00 00 00 00 00 00 00 00
 1.214100 2  18F157F3x       Rx   d 8 00 00 00 00 00 00 00 00
 1.215000 2  18F158F3x       Rx   d 8 00 00 00 00 00 00 00 00
 1.215500 2  CFF21CAx        Rx   d 8 02 00 80 0C 3C 39 00 10
 1.216100 2  18F159F3x       Rx   d 8 00 00 00 00 00 00 00 00
 1.217000 2  18F15AF3x       Rx   d 8 00 00 00 00 00 00 00 00
 1.217900 2  18F15BF3x       Rx   d 7 00 00 00 00 00 00 00 00
 1.219100 2  18F15CF3x       Rx   d 8 00 00 00 00 00 00 00 00
 1.219700 2  18F100D0x       Rx   d 8 0C FF FF FF FF FF FF FF
 1.220200 2  18F15DF3x       Rx   d 8 00 00 00 00 00 00 00 00
 1.221100 2  18F15EF3x       Rx   d 8 00 00 00 00 00 00 00 00
 1.227500 2  CFF21CAx        Rx   d 8 02 00 80 0C 3C 39 00 10
 1.239500 2  CFF21CAx        Rx   d 8 02 00 80 0C 3C 39 00 10
 1.244000 2  18F100D0x       Rx   d 8 0C FF FF FF FF FF FF FF
 1.251500 2  CFF21CAx        Rx   d 8 02 00 80 0C 3C 39 00 10
 1.252800 2  18FF2112x       Rx   d 8 01 00 00 00 00 00 00 00
 1.263600 2  CFF21CAx        Rx   d 8 02 00 80 0C 3C 39 00 10
 1.267600 2  18F100D0x       Rx   d 8 0C FF FF FF FF FF FF FF
 1.276000 2  CFF21CAx        Rx   d 8 02 00 80 0C 3C 39 00 10
 1.287600 2  CFF21CAx        Rx   d 8 02 00 80 0C 3C 39 00 10
 1.291700 2  18F100D0x       Rx   d 8 0C FF FF FF FF FF FF FF
 1.299700 2  CFF21CAx        Rx   d 8 02 00 80 0C 3C 39 00 10
 1.306000 2  18F100F3x       Rx   d 8 03 01 7D B6 B1 FA 14 00
 1.306900 2  18F102F3x       Rx   d 8 0F 07 0F 01 10 0C 00 06
 1.308200 2  18F106F3x       Rx   d 8 45 E0 FC FF FF FF FF FF
 1.309500 2  18F107F3x       Rx   d 8 38 A4 30 70 01 5A 00 B9
 1.311300 2  18F108F3x       Rx   d 8 00 00 00 00 00 00 00 00
 1.311800 2  CFF21CAx        Rx   d 8 02 00 80 0C 3C 39 00 10
 1.312400 2  18F155F3x       Rx   d 8 37 37 37 37 37 37 37 00
 1.313300 2  18F156F3x       Rx   d 8 00 00 00 00 00 00 00 00
 1.314100 2  18F157F3x       Rx   d 8 00 00 00 00 00 00 00 00
 1.315000 2  18F158F3x       Rx   d 8 00 00 00 00 00 00 00 00
 1.315900 2  18F159F3x       Rx   d 8 00 00 00 00 00 00 00 00
 1.316800 2  18F15AF3x       Rx   d 8 00 00 00 00 00 00 00 00
 1.317700 2  18F15BF3x       Rx   d 7 00 00 00 00 00 00 00 00
 1.318900 2  18F15CF3x       Rx   d 8 00 00 00 00 00 00 00 00
 1.319700 2  18F100D0x       Rx   d 8 0C FF FF FF FF FF FF FF
 1.320300 2  18F15DF3x       Rx   d 8 00 00 00 00 00 00 00 00
 1.321200 2  18F15EF3x       Rx   d 8 00 00 00 00 00 00 00 00
 1.323700 2  CFF21CAx        Rx   d 8 02 00 80 0C 3C 39 00 10
 1.335800 2  CFF21CAx        Rx   d 8 02 00 80 0C 3C 39 00 10
 1.343800 2  18F100D0x       Rx   d 8 0C FF FF FF FF FF FF FF
 1.347800 2  CFF21CAx        Rx   d 8 02 00 80 0C 3C 39 00 10
 1.349800 2  18FF2112x       Rx   d 8 01 00 00 00 00 00 00 00
 1.359800 2  CFF21CAx        Rx   d 8 02 00 80 0C 3C 39 00 10
 1.367900 2  18F100D0x       Rx   d 8 0C FF FF FF FF FF FF FF
 1.371900 2  CFF21CAx        Rx   d 8 02 00 80 0C 3C 39 00 10
 1.379900 2  18FECACAx       Rx   d 8 00 00 00 00 00 00 FF FF
 1.383400 2  18F104F3x       Rx   d 8 37 37 01 01 00 FF FF FF
 1.384000 2  CFF21CAx        Rx   d 8 02 00 80 0C 3C 39 00 10
 1.384500 2  18F113F3x       Rx   d 8 0F 02 0F 02 0F 03 0F 03
 1.385400 2  18F114F3x       Rx   d 8 0F 03 0F 02 0F 05 0F 05
 1.386300 2  18F115F3x       Rx   d 8 0F 03 0F 03 0F 02 0F 01
 1.387200 2  18F116F3x       Rx   d 8 0F 05 0F 03 0F 05 0F 07
 1.388100 2  18F117F3x       Rx   d 8 0F 02 0F 04 0F 06 0F 06
 1.389100 2  18F118F3x       Rx   d 8 00 00 00 00 00 00 00 00
 1.390000 2  18F119F3x       Rx   d 8 00 00 00 00 00 00 00 00
 1.391000 2  18F11AF3x       Rx   d 8 00 00 00 00 00 00 00 00
 1.392000 2  18F11BF3x       Rx   d 8 00 00 00 00 00 00 00 00
 1.392900 2  18F11CF3x       Rx   d 8 00 00 00 00 00 00 00 00
 1.393800 2  18F11DF3x       Rx   d 8 00 00 00 00 00 00 00 00
 1.394800 2  18F11EF3x       Rx   d 8 00 00 00 00 00 00 00 00
 1.395800 2  18F11FF3x       Rx   d 8 00 00 00 00 00 00 00 00
 1.396300 2  CFF21CAx        Rx   d 8 02 00 80 0C 3C 39 00 10
 1.396900 2  18F100D0x       Rx   d 8 0C FF FF FF FF FF FF FF
 1.397500 2  18F120F3x       Rx   d 8 00 00 00 00 00 00 00 00
 1.398400 2  18F121F3x       Rx   d 8 00 00 00 00 00 00 00 00
 1.399300 2  18F122F3x       Rx   d 8 00 00 00 00 00 00 00 00
 1.400200 2  18F123F3x       Rx   d 8 00 00 00 00 00 00 00 00
 1.401100 2  18F124F3x       Rx   d 8 00 00 00 00 00 00 00 00
 1.402000 2  18F125F3x       Rx   d 8 00 00 00 00 00 00 00 00
 1.402900 2  18F126F3x       Rx   d 8 00 00 00 00 00 00 00 00
 1.403900 2  18F127F3x       Rx   d 8 00 00 00 00 00 00 00 00
 1.404800 2  18F128F3x       Rx   d 8 00 00 00 00 00 00 00 00
 1.405700 2  18F129F3x       Rx   d 8 00 00 00 00 00 00 00 00
 1.406700 2  18F100F3x       Rx   d 8 03 01 7D B6 B1 FA 14 00
 1.407600 2  18F102F3x       Rx   d 8 0F 07 0F 01 10 0C 00 06
 1.408200 2  CFF21CAx        Rx   d 8 02 00 80 0C 3C 39 00 10
 1.409200 2  18F106F3x       Rx   d 8 45 E0 FC FF FF FF FF FF
 1.410600 2  18F107F3x       Rx   d 8 38 A4 30 70 01 5A 00 B9
 1.412400 2  18F108F3x       Rx   d 8 00 00 00 00 00 00 00 00
 1.413300 2  18F12AF3x       Rx   d 8 00 00 00 00 00 00 00 00
 1.414200 2  18F12BF3x       Rx   d 8 00 00 00 00 00 00 00 00
 1.415100 2  18F12CF3x       Rx   d 8 00 00 00 00 00 00 00 00
 1.416000 2  18F12DF3x       Rx   d 8 00 00 00 00 00 00 00 00
 1.416900 2  18F12EF3x       Rx   d 8 00 00 00 00 00 00 00 00
 1.417800 2  18F12FF3x       Rx   d 8 00 00 00 00 00 00 00 00
 1.419000 2  18F130F3x       Rx   d 8 00 00 00 00 00 00 00 00
 1.419900 2  18F131F3x       Rx   d 8 00 00 00 00 00 00 00 00
 1.420400 2  CFF21CAx        Rx   d 8 02 00 80 0C 3C 39 00 10
 1.421000 2  18F100D0x       Rx   d 8 0C FF FF FF FF FF FF FF
 1.421600 2  18F132F3x       Rx   d 8 00 00 00 00 00 00 00 00
 1.422500 2  18F133F3x       Rx   d 8 00 00 00 00 00 00 00 00
 1.423400 2  18F134F3x       Rx   d 8 00 00 00 00 00 00 00 00
 1.424300 2  18F135F3x       Rx   d 8 00 00 00 00 00 00 00 00
 1.425200 2  18F136F3x       Rx   d 8 00 00 00 00 00 00 00 00
 1.426100 2  18F137F3x       Rx   d 8 00 00 00 00 00 00 00 00
 1.426900 2  18F138F3x       Rx   d 8 00 00 00 00 00 00 00 00
 1.427800 2  18F139F3x       Rx   d 8 00 00 00 00 00 00 00 00
 1.429000 2  18F13AF3x       Rx   d 8 00 00 00 00 00 00 00 00
 1.429800 2  18F13BF3x       Rx   d 8 00 00 00 00 00 00 00 00
 1.430700 2  18F13CF3x       Rx   d 8 00 00 00 00 00 00 00 00
 1.431600 2  18F155F3x       Rx   d 8 37 37 37 37 37 37 37 00
 1.432200 2  CFF21CAx        Rx   d 8 02 00 80 0C 3C 39 00 10
 1.432800 2  18F156F3x       Rx   d 8 00 00 00 00 00 00 00 00
 1.433700 2  18F157F3x       Rx   d 8 00 00 00 00 00 00 00 00
 1.434600 2  18F158F3x       Rx   d 8 00 00 00 00 00 00 00 00
 1.435600 2  18F159F3x       Rx   d 8 00 00 00 00 00 00 00 00
 1.436400 2  18F15AF3x       Rx   d 8 00 00 00 00 00 00 00 00
 1.437300 2  18F15BF3x       Rx   d 7 00 00 00 00 00 00 00 00
 1.438100 2  18F15CF3x       Rx   d 8 00 00 00 00 00 00 00 00
 1.439000 2  18F15DF3x       Rx   d 8 00 00 00 00 00 00 00 00
 1.439800 2  18F15EF3x       Rx   d 8 00 00 00 00 00 00 00 00
 1.444100 2  CFF21CAx        Rx   d 8 02 00 80 0C 3C 39 00 10
 1.444600 2  18F100D0x       Rx   d 8 0C FF FF FF FF FF FF FF
 1.447000 2  18FF2112x       Rx   d 8 01 00 00 00 00 00 00 00
 1.456100 2  CFF21CAx        Rx   d 8 02 00 80 0C 3C 39 00 10
 1.468100 2  CFF21CAx        Rx   d 8 02 00 80 0C 3C 39 00 10
 1.472200 2  18F100D0x       Rx   d 8 0C FF FF FF FF FF FF FF
 1.480200 2  CFF21CAx        Rx   d 8 02 00 80 0C 3C 39 00 10
 1.492200 2  CFF21CAx        Rx   d 8 02 00 80 0C 3C 39 00 10
 1.496200 2  18F100D0x       Rx   d 8 0C FF FF FF FF FF FF FF
 1.504300 2  CFF21CAx        Rx   d 8 02 00 80 0C 3C 39 00 10
 1.505800 2  18F100F3x       Rx   d 8 03 01 7D B6 B1 FA 14 00
 1.506700 2  18F102F3x       Rx   d 8 0F 07 0F 01 10 0C 00 06
 1.508000 2  18F106F3x       Rx   d 8 45 E0 FC FF FF FF FF FF
 1.509300 2  18F107F3x       Rx   d 8 38 A4 30 70 01 5A 00 B9
 1.511100 2  18F108F3x       Rx   d 8 00 00 00 00 00 00 00 00
 1.511900 2  18F155F3x       Rx   d 8 37 37 37 37 37 37 37 00
 1.512800 2  18F156F3x       Rx   d 8 00 00 00 00 00 00 00 00
 1.513700 2  18F157F3x       Rx   d 8 00 00 00 00 00 00 00 00
 1.514600 2  18F158F3x       Rx   d 8 00 00 00 00 00 00 00 00
 1.515500 2  18F159F3x       Rx   d 8 00 00 00 00 00 00 00 00
 1.516300 2  CFF21CAx        Rx   d 8 02 00 80 0C 3C 39 00 10
 1.516900 2  18F15AF3x       Rx   d 8 00 00 00 00 00 00 00 00
 1.517700 2  18F15BF3x       Rx   d 7 00 00 00 00 00 00 00 00
 1.518900 2  18F15CF3x       Rx   d 8 00 00 00 00 00 00 00 00
 1.519700 2  18F15DF3x       Rx   d 8 00 00 00 00 00 00 00 00
 1.520300 2  18F100D0x       Rx   d 8 0C FF FF FF FF FF FF FF
 1.520900 2  18F15EF3x       Rx   d 8 00 00 00 00 00 00 00 00
 1.528300 2  CFF21CAx        Rx   d 8 03 00 80 0C 3C 39 00 10
 1.540300 2  CFF21CAx        Rx   d 8 03 00 80 0C 3C 39 00 10
 1.544200 2  18FF2112x       Rx   d 8 01 00 00 00 00 00 00 00
 1.544700 2  18F100D0x       Rx   d 8 0C FF FF FF FF FF FF FF
 1.552400 2  CFF21CAx        Rx   d 8 02 00 80 0C 3C 39 00 10
 1.564400 2  CFF21CAx        Rx   d 8 02 00 80 0C 3C 39 00 10
 1.568500 2  18F100D0x       Rx   d 8 0C FF FF FF FF FF FF FF
 1.576500 2  CFF21CAx        Rx   d 8 03 00 80 0C 3C 39 00 10
 1.588500 2  CFF21CAx        Rx   d 8 03 00 80 0C 3C 39 00 10
 1.596500 2  18F100D0x       Rx   d 8 0C FF FF FF FF FF FF FF
 1.600500 2  CFF21CAx        Rx   d 8 03 00 80 0C 3C 39 00 10
 1.605700 2  18F100F3x       Rx   d 8 03 01 7D B6 B1 FA 14 00
 1.606600 2  18F102F3x       Rx   d 8 0F 06 0F 00 10 0C 00 06
 1.607900 2  18F106F3x       Rx   d 8 45 E0 FC FF FF FF FF FF
 1.609200 2  18F107F3x       Rx   d 8 38 A4 30 70 01 5A 00 B9
 1.610900 2  18F108F3x       Rx   d 8 00 00 00 00 00 00 00 00
 1.611800 2  18F155F3x       Rx   d 8 37 37 37 37 37 37 37 00
 1.612600 2  CFF21CAx        Rx   d 8 02 00 80 0C 3C 39 00 10
 1.613200 2  18F156F3x       Rx   d 8 00 00 00 00 00 00 00 00
 1.614100 2  18F157F3x       Rx   d 8 00 00 00 00 00 00 00 00
 1.614900 2  18F158F3x       Rx   d 8 00 00 00 00 00 00 00 00
 1.615800 2  18F159F3x       Rx   d 8 00 00 00 00 00 00 00 00
 1.616700 2  18F15AF3x       Rx   d 8 00 00 00 00 00 00 00 00
 1.617500 2  18F15BF3x       Rx   d 7 00 00 00 00 00 00 00 00
 1.618700 2  18F15CF3x       Rx   d 8 00 00 00 00 00 00 00 00
 1.619600 2  18F15DF3x       Rx   d 8 00 00 00 00 00 00 00 00
 1.620400 2  18F15EF3x       Rx   d 8 00 00 00 00 00 00 00 00
 1.621000 2  18F100D0x       Rx   d 8 0C FF FF FF FF FF FF FF
 1.624600 2  CFF21CAx        Rx   d 8 02 00 80 0C 3C 39 00 10
 1.636600 2  CFF21CAx        Rx   d 8 02 00 80 0C 3C 39 00 10
 1.641300 2  18FF2112x       Rx   d 8 01 00 00 00 00 00 00 00
 1.648700 2  CFF21CAx        Rx   d 8 03 00 80 0C 3C 39 00 10
 1.649300 2  18F100D0x       Rx   d 8 0C FF FF FF FF FF FF FF
 1.660700 2  CFF21CAx        Rx   d 8 03 00 80 0C 3C 39 00 10
 1.668700 2  18F100D0x       Rx   d 8 0C FF FF FF FF FF FF FF
 1.672700 2  CFF21CAx        Rx   d 8 03 00 80 0C 3C 39 00 10
 1.684800 2  CFF21CAx        Rx   d 8 03 00 80 0C 3C 39 00 10
 1.696800 2  CFF21CAx        Rx   d 8 03 00 80 0C 3C 39 00 10
 1.697400 2  18F100D0x       Rx   d 8 0C FF FF FF FF FF FF FF
 1.705600 2  18F100F3x       Rx   d 8 03 01 7D B6 B1 FA 14 00
 1.706500 2  18F102F3x       Rx   d 8 0F 06 0F 00 10 0C 00 06
 1.707700 2  18F106F3x       Rx   d 8 45 E0 FC FF FF FF FF FF
 1.708900 2  CFF21CAx        Rx   d 8 03 00 80 0C 3C 39 00 10
 1.709400 2  18F107F3x       Rx   d 8 38 A4 30 70 01 5A 00 B9
 1.711200 2  18F108F3x       Rx   d 8 00 00 00 00 00 00 00 00
 1.712100 2  18F155F3x       Rx   d 8 37 37 37 37 37 37 37 00
 1.713000 2  18F156F3x       Rx   d 8 00 00 00 00 00 00 00 00
 1.713900 2  18F157F3x       Rx   d 8 00 00 00 00 00 00 00 00
 1.714800 2  18F158F3x       Rx   d 8 00 00 00 00 00 00 00 00
 1.715700 2  18F159F3x       Rx   d 8 00 00 00 00 00 00 00 00
 1.716500 2  18F15AF3x       Rx   d 8 00 00 00 00 00 00 00 00
 1.717400 2  18F15BF3x       Rx   d 7 00 00 00 00 00 00 00 00
 1.718600 2  18F15CF3x       Rx   d 8 00 00 00 00 00 00 00 00
 1.719400 2  18F15DF3x       Rx   d 8 00 00 00 00 00 00 00 00
 1.720300 2  18F15EF3x       Rx   d 8 00 00 00 00 00 00 00 00
 1.720900 2  CFF21CAx        Rx   d 8 03 00 80 0C 3C 39 00 10
 1.721500 2  18F100D0x       Rx   d 8 0C FF FF FF FF FF FF FF
 1.732900 2  CFF21CAx        Rx   d 8 03 00 80 0C 3C 39 00 10
 1.738500 2  18FF2112x       Rx   d 8 01 00 00 00 00 00 00 00
 1.745400 2  CFF21CAx        Rx   d 8 02 00 80 0C 3C 39 00 10
 1.746000 2  18F100D0x       Rx   d 8 0C FF FF FF FF FF FF FF
 1.757000 2  CFF21CAx        Rx   d 8 02 00 80 0C 3C 39 00 10
 1.769000 2  CFF21CAx        Rx   d 8 02 00 80 0C 3C 39 00 10
 1.773000 2  18F100D0x       Rx   d 8 0C FF FF FF FF FF FF FF
 1.781000 2  CFF21CAx        Rx   d 8 02 00 80 0C 3C 39 00 10
 1.793100 2  CFF21CAx        Rx   d 8 02 00 80 0C 3C 39 00 10
 1.793700 2  18F100D0x       Rx   d 8 0C FF FF FF FF FF FF FF
 1.805100 2  CFF21CAx        Rx   d 8 02 00 80 0C 3C 39 00 10
 1.805700 2  18F100F3x       Rx   d 8 03 01 7D B5 B1 FA 14 00
 1.806500 2  18F102F3x       Rx   d 8 0F 06 0F 00 10 0C 00 06
 1.807800 2  18F106F3x       Rx   d 8 45 E0 FC FF FF FF FF FF
 1.809100 2  18F107F3x       Rx   d 8 38 A4 30 70 01 5A 00 B9
 1.810800 2  18F108F3x       Rx   d 8 00 00 00 00 00 00 00 00
 1.811700 2  18F155F3x       Rx   d 8 37 37 37 37 37 37 37 00
 1.812600 2  18F156F3x       Rx   d 8 00 00 00 00 00 00 00 00
 1.813500 2  18F157F3x       Rx   d 8 00 00 00 00 00 00 00 00
 1.814300 2  18F158F3x       Rx   d 8 00 00 00 00 00 00 00 00
 1.815300 2  18F159F3x       Rx   d 8 00 00 00 00 00 00 00 00
 1.816200 2  18F15AF3x       Rx   d 8 00 00 00 00 00 00 00 00
 1.817100 2  18F15BF3x       Rx   d 7 00 00 00 00 00 00 00 00
 1.817600 2  CFF21CAx        Rx   d 8 02 00 80 0C 3C 39 00 10
 1.818200 2  18F15CF3x       Rx   d 8 00 00 00 00 00 00 00 00
 1.819100 2  18F15DF3x       Rx   d 8 00 00 00 00 00 00 00 00
 1.819900 2  18F15EF3x       Rx   d 8 00 00 00 00 00 00 00 00
 1.821200 2  18F100D0x       Rx   d 8 0C FF FF FF FF FF FF FF
 1.829200 2  CFF21CAx        Rx   d 8 02 00 80 0C 3C 39 00 10
 1.835600 2  18FF2112x       Rx   d 8 01 00 00 00 00 00 00 00
 1.841200 2  CFF21CAx        Rx   d 8 02 00 80 0C 3C 39 00 10
 1.845200 2  18F100D0x       Rx   d 8 0C FF FF FF FF FF FF FF
 1.853200 2  CFF21CAx        Rx   d 8 02 00 80 0C 3C 39 00 10
 1.865700 2  CFF21CAx        Rx   d 8 02 00 80 0C 3C 39 00 10
 1.869300 2  18F100D0x       Rx   d 8 0C FF FF FF FF FF FF FF
 1.877300 2  CFF21CAx        Rx   d 8 02 00 80 0C 3C 39 00 10
 1.889400 2  CFF21CAx        Rx   d 8 02 00 80 0C 3C 39 00 10
 1.893400 2  18F100D0x       Rx   d 8 0C FF FF FF FF FF FF FF
 1.901400 2  CFF21CAx        Rx   d 8 03 00 80 0C 3C 39 00 10
 1.905300 2  18F100F3x       Rx   d 8 03 01 7D B5 B1 FA 14 00
 1.906200 2  18F102F3x       Rx   d 8 0F 06 0F 00 10 0C 00 06
 1.907500 2  18F106F3x       Rx   d 8 45 E0 FC FF FF FF FF FF
 1.908800 2  18F107F3x       Rx   d 8 38 A4 30 70 01 5A 00 B9
 1.910600 2  18F108F3x       Rx   d 8 00 00 00 00 00 00 00 00
 1.911400 2  18F155F3x       Rx   d 8 37 37 37 37 37 37 37 00
 1.912300 2  18F156F3x       Rx   d 8 00 00 00 00 00 00 00 00
 1.913200 2  18F157F3x       Rx   d 8 00 00 00 00 00 00 00 00
 1.913900 2  CFF21CAx        Rx   d 8 03 00 80 0C 3C 39 00 10
 1.914500 2  18F158F3x       Rx   d 8 00 00 00 00 00 00 00 00
 1.915400 2  18F159F3x       Rx   d 8 00 00 00 00 00 00 00 00
 1.916200 2  18F15AF3x       Rx   d 8 00 00 00 00 00 00 00 00
 1.917100 2  18F15BF3x       Rx   d 7 00 00 00 00 00 00 00 00
 1.918300 2  18F15CF3x       Rx   d 8 00 00 00 00 00 00 00 00
 1.919200 2  18F15DF3x       Rx   d 8 00 00 00 00 00 00 00 00
 1.920100 2  18F15EF3x       Rx   d 8 00 00 00 00 00 00 00 00
 1.921500 2  18F100D0x       Rx   d 8 0C FF FF FF FF FF FF FF
 1.925400 2  CFF21CAx        Rx   d 8 03 00 80 0C 3C 39 00 10
 1.932800 2  18FF2112x       Rx   d 8 01 00 00 00 00 00 00 00
 1.938000 2  CFF21CAx        Rx   d 8 02 00 80 0C 3C 39 00 10
 1.945900 2  18F100D0x       Rx   d 8 0C FF FF FF FF FF FF FF
 1.949500 2  CFF21CAx        Rx   d 8 02 00 80 0C 3C 39 00 10
 1.961600 2  CFF21CAx        Rx   d 8 02 00 80 0C 3C 39 00 10
 1.969600 2  18F100D0x       Rx   d 8 0C FF FF FF FF FF FF FF
 1.973600 2  CFF21CAx        Rx   d 8 02 00 80 0C 3C 39 00 10
 1.985600 2  CFF21CAx        Rx   d 8 02 00 80 0C 3C 39 00 10
 1.993700 2  18F100D0x       Rx   d 8 0C FF FF FF FF FF FF FF
 1.997600 2  CFF21CAx        Rx   d 8 02 00 80 0C 3C 39 00 10
 2.005200 2  18F100F3x       Rx   d 8 03 01 7D B5 B1 FA 14 00
 2.006100 2  18F102F3x       Rx   d 8 0F 06 0F 00 10 0C 00 06
 2.007400 2  18F106F3x       Rx   d 8 45 E0 FC FF FF FF FF FF
 2.008700 2  18F107F3x       Rx   d 8 38 A4 30 70 01 5A 00 B9
 2.010200 2  CFF21CAx        Rx   d 8 02 00 80 0C 3C 39 00 10
 2.010800 2  18F108F3x       Rx   d 8 00 00 00 00 00 00 00 00
 2.011600 2  18F155F3x       Rx   d 8 37 37 37 37 37 37 37 00
 2.012500 2  18F156F3x       Rx   d 8 00 00 00 00 00 00 00 00
 2.013400 2  18F157F3x       Rx   d 8 00 00 00 00 00 00 00 00
 2.014300 2  18F158F3x       Rx   d 8 00 00 00 00 00 00 00 00
 2.015200 2  18F159F3x       Rx   d 8 00 00 00 00 00 00 00 00
 2.016100 2  18F15AF3x       Rx   d 8 00 00 00 00 00 00 00 00
 2.017600 2  18F15BF3x       Rx   d 7 00 00 00 00 00 00 00 00
 2.018400 2  18F15CF3x       Rx   d 8 00 00 00 00 00 00 00 00
 2.019300 2  18F15DF3x       Rx   d 8 00 00 00 00 00 00 00 00
 2.020100 2  18F15EF3x       Rx   d 8 00 00 00 00 00 00 00 00
 2.021700 2  CFF21CAx        Rx   d 8 02 00 80 0C 3C 39 00 10
 2.022300 2  18F100D0x       Rx   d 8 0C FF FF FF FF FF FF FF
 2.029900 2  18FF2112x       Rx   d 8 01 00 00 00 00 00 00 00
 2.033800 2  CFF21CAx        Rx   d 8 03 00 80 0C 3C 39 00 10
 2.045800 2  CFF21CAx        Rx   d 8 03 00 80 0C 3C 39 00 10
 2.046400 2  18F100D0x       Rx   d 8 0C FF FF FF FF FF FF FF
 2.057900 2  CFF21CAx        Rx   d 8 02 00 80 0C 3C 39 00 10
 2.069900 2  CFF21CAx        Rx   d 8 02 00 80 0C 3C 39 00 10
 2.070400 2  18F100D0x       Rx   d 8 0C FF FF FF FF FF FF FF
 2.081900 2  CFF21CAx        Rx   d 8 02 00 80 0C 3C 39 00 10
 2.093900 2  CFF21CAx        Rx   d 8 02 00 80 0C 3C 39 00 10
 2.094500 2  18F100D0x       Rx   d 8 0C FF FF FF FF FF FF FF
 2.105100 2  18F100F3x       Rx   d 8 03 01 7D B6 B1 FA 14 00
 2.106000 2  18F102F3x       Rx   d 8 0F 06 0F 00 10 0C 00 06
 2.106500 2  CFF21CAx        Rx   d 8 02 00 80 0C 3C 39 00 10
 2.107300 2  18F106F3x       Rx   d 8 45 E0 FC FF FF FF FF FF
 2.108600 2  18F107F3x       Rx   d 8 38 A4 30 70 01 5A 00 B9
 2.110300 2  18F108F3x       Rx   d 8 00 00 00 00 00 00 00 00
 2.111200 2  18F155F3x       Rx   d 8 37 37 37 37 37 37 37 00
 2.112100 2  18F156F3x       Rx   d 8 00 00 00 00 00 00 00 00
 2.113000 2  18F157F3x       Rx   d 8 00 00 00 00 00 00 00 00
 2.113900 2  18F158F3x       Rx   d 8 00 00 00 00 00 00 00 00
 2.114800 2  18F159F3x       Rx   d 8 00 00 00 00 00 00 00 00
 2.115800 2  18F15AF3x       Rx   d 8 00 00 00 00 00 00 00 00
 2.116600 2  18F15BF3x       Rx   d 7 00 00 00 00 00 00 00 00
 2.117400 2  18F15CF3x       Rx   d 8 00 00 00 00 00 00 00 00
 2.118000 2  CFF21CAx        Rx   d 8 02 00 80 0C 3C 39 00 10
 2.118600 2  18F100D0x       Rx   d 8 0C FF FF FF FF FF FF FF
 2.119100 2  18F15DF3x       Rx   d 8 00 00 00 00 00 00 00 00
 2.120000 2  18F15EF3x       Rx   d 8 00 00 00 00 00 00 00 00
 2.127100 2  18FF2112x       Rx   d 8 01 00 00 00 00 00 00 00
 2.130500 2  CFF21CAx        Rx   d 8 02 00 80 0C 3C 39 00 10
 2.138500 2  18F100D0x       Rx   d 8 0C FF FF FF FF FF FF FF
 2.142100 2  CFF21CAx        Rx   d 8 02 00 80 0C 3C 39 00 10
 2.154200 2  CFF21CAx        Rx   d 8 02 00 80 0C 3C 39 00 10
 2.162200 2  18F100D0x       Rx   d 8 0C FF FF FF FF FF FF FF
 2.166100 2  CFF21CAx        Rx   d 8 02 00 80 0C 3C 39 00 10
 2.178200 2  CFF21CAx        Rx   d 8 02 00 80 0C 3C 39 00 10
 2.186200 2  18F100D0x       Rx   d 8 0C FF FF FF FF FF FF FF
 2.190200 2  CFF21CAx        Rx   d 8 02 00 80 0C 3C 39 00 10
 2.202700 2  CFF21CAx        Rx   d 8 01 00 80 0C 3C 39 00 10
 2.205000 2  18F100F3x       Rx   d 8 03 01 7D B6 B1 FA 14 00
 2.205900 2  18F102F3x       Rx   d 8 0F 06 0F 00 10 0C 00 06
 2.207200 2  18F106F3x       Rx   d 8 45 E0 FC FF FF FF FF FF
 2.208400 2  18F107F3x       Rx   d 8 38 A4 30 70 01 5A 00 B9
 2.210200 2  18F108F3x       Rx   d 8 00 00 00 00 00 00 00 00
 2.211100 2  18F155F3x       Rx   d 8 37 37 37 37 37 37 37 00
 2.212000 2  18F156F3x       Rx   d 8 00 00 00 00 00 00 00 00
 2.212900 2  18F157F3x       Rx   d 8 00 00 00 00 00 00 00 00
 2.213800 2  18F158F3x       Rx   d 8 00 00 00 00 00 00 00 00
 2.214400 2  CFF21CAx        Rx   d 8 01 00 80 0C 3C 39 00 10
 2.214900 2  18F100D0x       Rx   d 8 0C FF FF FF FF FF FF FF
 2.215500 2  18F159F3x       Rx   d 8 00 00 00 00 00 00 00 00
 2.216400 2  18F15AF3x       Rx   d 8 00 00 00 00 00 00 00 00
 2.217200 2  18F15BF3x       Rx   d 7 00 00 00 00 00 00 00 00
 2.218100 2  18F15CF3x       Rx   d 8 00 00 00 00 00 00 00 00
 2.218900 2  18F15DF3x       Rx   d 8 00 00 00 00 00 00 00 00
 2.219800 2  18F15EF3x       Rx   d 8 00 00 00 00 00 00 00 00
 2.224300 2  18FF2112x       Rx   d 8 01 00 00 00 00 00 00 00
 2.226300 2  CFF21CAx        Rx   d 8 02 00 80 0C 3C 39 00 10
 2.238300 2  CFF21CAx        Rx   d 8 02 00 80 0C 3C 39 00 10
 2.238900 2  18F100D0x       Rx   d 8 0C FF FF FF FF FF FF FF
 2.250400 2  CFF21CAx        Rx   d 8 02 00 80 0C 3C 39 00 10
 2.262400 2  CFF21CAx        Rx   d 8 02 00 80 0C 3C 39 00 10
 2.263000 2  18F100D0x       Rx   d 8 0C FF FF FF FF FF FF FF
 2.274400 2  CFF21CAx        Rx   d 8 02 00 80 0C 3C 39 00 10
 2.286500 2  CFF21CAx        Rx   d 8 02 00 80 0C 3C 39 00 10
 2.287100 2  18F100D0x       Rx   d 8 0C FF FF FF FF FF FF FF
 2.298900 2  CFF21CAx        Rx   d 8 02 00 80 0C 3C 39 00 10
 2.304900 2  18F100F3x       Rx   d 8 03 01 7D B5 B1 FA 14 00
 2.305800 2  18F102F3x       Rx   d 8 0F 06 0F 00 10 0C 00 06
 2.307000 2  18F106F3x       Rx   d 8 45 E0 FC FF FF FF FF FF
 2.308300 2  18F107F3x       Rx   d 8 38 A4 30 70 01 5A 00 B9
 2.310100 2  18F108F3x       Rx   d 8 00 00 00 00 00 00 00 00
 2.310700 2  CFF21CAx        Rx   d 8 02 00 80 0C 3C 39 00 10
 2.311200 2  18F100D0x       Rx   d 8 0C FF FF FF FF FF FF FF
 2.311800 2  18F155F3x       Rx   d 8 37 37 37 37 37 37 37 00
 2.312700 2  18F156F3x       Rx   d 8 00 00 00 00 00 00 00 00
 2.313600 2  18F157F3x       Rx   d 8 00 00 00 00 00 00 00 00
 2.314600 2  18F158F3x       Rx   d 8 00 00 00 00 00 00 00 00
 2.315500 2  18F159F3x       Rx   d 8 00 00 00 00 00 00 00 00
 2.316400 2  18F15AF3x       Rx   d 8 00 00 00 00 00 00 00 00
 2.317200 2  18F15BF3x       Rx   d 7 00 00 00 00 00 00 00 00
 2.318000 2  18F15CF3x       Rx   d 8 00 00 00 00 00 00 00 00
 2.318900 2  18F15DF3x       Rx   d 8 00 00 00 00 00 00 00 00
 2.319700 2  18F15EF3x       Rx   d 8 00 00 00 00 00 00 00 00
 2.321400 2  18FF2112x       Rx   d 8 01 00 00 00 00 00 00 00
 2.322600 2  CFF21CAx        Rx   d 8 02 00 80 0C 3C 39 00 10
 2.334600 2  CFF21CAx        Rx   d 8 02 00 80 0C 3C 39 00 10
 2.338600 2  18F100D0x       Rx   d 8 0C FF FF FF FF FF FF FF
 2.346600 2  CFF21CAx        Rx   d 8 02 00 80 0C 3C 39 00 10
 2.358700 2  CFF21CAx        Rx   d 8 02 00 80 0C 3C 39 00 10
 2.362700 2  18F100D0x       Rx   d 8 0C FF FF FF FF FF FF FF
 2.370700 2  CFF21CAx        Rx   d 8 02 00 80 0C 3C 39 00 10
 2.382200 2  18F104F3x       Rx   d 8 37 37 01 01 00 FF FF FF
 2.382800 2  CFF21CAx        Rx   d 8 02 00 80 0C 3C 39 00 10
 2.383400 2  18F113F3x       Rx   d 8 0F 02 0F 02 0F 03 0F 02
 2.384300 2  18F114F3x       Rx   d 8 0F 02 0F 01 0F 04 0F 03
 2.385200 2  18F115F3x       Rx   d 8 0F 02 0F 01 0F 02 0F 00
 2.386100 2  18F116F3x       Rx   d 8 0F 05 0F 02 0F 05 0F 06
 2.386800 2  18F100D0x       Rx   d 8 0C FF FF FF FF FF FF FF
 2.387300 2  18F117F3x       Rx   d 8 0F 02 0F 03 0F 06 0F 05
 2.388200 2  18F118F3x       Rx   d 8 00 00 00 00 00 00 00 00
 2.389200 2  18F119F3x       Rx   d 8 00 00 00 00 00 00 00 00
 2.390100 2  18F11AF3x       Rx   d 8 00 00 00 00 00 00 00 00
 2.391000 2  18F11BF3x       Rx   d 8 00 00 00 00 00 00 00 00
 2.391900 2  18F11CF3x       Rx   d 8 00 00 00 00 00 00 00 00
 2.392800 2  18F11DF3x       Rx   d 8 00 00 00 00 00 00 00 00
 2.393700 2  18F11EF3x       Rx   d 8 00 00 00 00 00 00 00 00
 2.394700 2  18F11FF3x       Rx   d 8 00 00 00 00 00 00 00 00
 2.395200 2  CFF21CAx        Rx   d 8 02 00 80 0C 3C 39 00 10
 2.395800 2  18F120F3x       Rx   d 8 00 00 00 00 00 00 00 00
 2.396400 2  18FECACAx       Rx   d 8 00 00 00 00 00 00 FF FF
 2.397000 2  18F121F3x       Rx   d 8 00 00 00 00 00 00 00 00
 2.397900 2  18F122F3x       Rx   d 8 00 00 00 00 00 00 00 00
 2.398800 2  18F123F3x       Rx   d 8 00 00 00 00 00 00 00 00
 2.399700 2  18F124F3x       Rx   d 8 00 00 00 00 00 00 00 00
 2.400600 2  18F125F3x       Rx   d 8 00 00 00 00 00 00 00 00
 2.401600 2  18F126F3x       Rx   d 8 00 00 00 00 00 00 00 00
 2.402500 2  18F127F3x       Rx   d 8 00 00 00 00 00 00 00 00
 2.403400 2  18F128F3x       Rx   d 8 00 00 00 00 00 00 00 00
 2.404400 2  18F129F3x       Rx   d 8 00 00 00 00 00 00 00 00
 2.405200 2  18F100F3x       Rx   d 8 03 01 7D B5 B1 FA 14 00
 2.406100 2  18F102F3x       Rx   d 8 0F 06 0F 00 10 0C 00 06
 2.406800 2  CFF21CAx        Rx   d 8 02 00 80 0C 3C 39 00 10
 2.407700 2  18F106F3x       Rx   d 8 45 E0 FC FF FF FF FF FF
 2.409000 2  18F107F3x       Rx   d 8 38 A4 30 70 01 5A 00 B9
 2.410900 2  18F100D0x       Rx   d 8 0C FF FF FF FF FF FF FF
 2.411400 2  18F108F3x       Rx   d 8 00 00 00 00 00 00 00 00
 2.412400 2  18F12AF3x       Rx   d 8 00 00 00 00 00 00 00 00
 2.413300 2  18F12BF3x       Rx   d 8 00 00 00 00 00 00 00 00
 2.414200 2  18F12CF3x       Rx   d 8 00 00 00 00 00 00 00 00
 2.415100 2  18F12DF3x       Rx   d 8 00 00 00 00 00 00 00 00
 2.416000 2  18F12EF3x       Rx   d 8 00 00 00 00 00 00 00 00
 2.416900 2  18F12FF3x       Rx   d 8 00 00 00 00 00 00 00 00
 2.417800 2  18F130F3x       Rx   d 8 00 00 00 00 00 00 00 00
 2.418600 2  18FF2112x       Rx   d 8 01 00 00 00 00 00 00 00
 2.419100 2  CFF21CAx        Rx   d 8 02 00 80 0C 3C 39 00 10
 2.419700 2  18F131F3x       Rx   d 8 00 00 00 00 00 00 00 00
 2.420600 2  18F132F3x       Rx   d 8 00 00 00 00 00 00 00 00
 2.421600 2  18F133F3x       Rx   d 8 00 00 00 00 00 00 00 00
 2.422500 2  18F134F3x       Rx   d 8 00 00 00 00 00 00 00 00
 2.423400 2  18F135F3x       Rx   d 8 00 00 00 00 00 00 00 00
 2.424300 2  18F136F3x       Rx   d 8 00 00 00 00 00 00 00 00
 2.425200 2  18F137F3x       Rx   d 8 00 00 00 00 00 00 00 00
 2.426100 2  18F138F3x       Rx   d 8 00 00 00 00 00 00 00 00
 2.427000 2  18F139F3x       Rx   d 8 00 00 00 00 00 00 00 00
 2.427800 2  18F13AF3x       Rx   d 8 00 00 00 00 00 00 00 00
 2.428700 2  18F13BF3x       Rx   d 8 00 00 00 00 00 00 00 00
 2.429600 2  18F13CF3x       Rx   d 8 00 00 00 00 00 00 00 00
 2.430500 2  18F155F3x       Rx   d 8 37 37 37 37 37 37 37 00
 2.431000 2  CFF21CAx        Rx   d 8 02 00 80 0C 3C 39 00 10
 2.431600 2  18F156F3x       Rx   d 8 00 00 00 00 00 00 00 00
 2.432600 2  18F157F3x       Rx   d 8 00 00 00 00 00 00 00 00
 2.433500 2  18F158F3x       Rx   d 8 00 00 00 00 00 00 00 00
 2.434400 2  18F159F3x       Rx   d 8 00 00 00 00 00 00 00 00
 2.435300 2  18F15AF3x       Rx   d 8 00 00 00 00 00 00 00 00
 2.436200 2  18F15BF3x       Rx   d 7 00 00 00 00 00 00 00 00
 2.437000 2  18F15CF3x       Rx   d 8 00 00 00 00 00 00 00 00
 2.437900 2  18F15DF3x       Rx   d 8 00 00 00 00 00 00 00 00
 2.438700 2  18F15EF3x       Rx   d 8 00 00 00 00 00 00 00 00
 2.439300 2  18F100D0x       Rx   d 8 0C FF FF FF FF FF FF FF
 2.442900 2  CFF21CAx        Rx   d 8 02 00 80 0C 3C 39 00 10
 2.454900 2  CFF21CAx        Rx   d 8 02 00 80 0C 3C 39 00 10
 2.463000 2  18F100D0x       Rx   d 8 0C FF FF FF FF FF FF FF
 2.467000 2  CFF21CAx        Rx   d 8 02 00 80 0C 3C 39 00 10
 2.479000 2  CFF21CAx        Rx   d 8 03 00 80 0C 3C 39 00 10
 2.487000 2  18F100D0x       Rx   d 8 0C FF FF FF FF FF FF FF
 2.491000 2  CFF21CAx        Rx   d 8 03 00 80 0C 3C 39 00 10
 2.503100 2  CFF21CAx        Rx   d 8 03 00 80 0C 3C 39 00 10
 2.504600 2  18F100F3x       Rx   d 8 03 01 7D B5 B1 FA 14 00
 2.505500 2  18F102F3x       Rx   d 8 0F 06 0F 00 10 0C 00 06
 2.506800 2  18F106F3x       Rx   d 8 45 E0 FC FF FF FF FF FF
 2.508100 2  18F107F3x       Rx   d 8 38 A4 30 70 01 5A 00 B9
 2.509900 2  18F108F3x       Rx   d 8 00 00 00 00 00 00 00 00
 2.510700 2  18F155F3x       Rx   d 8 37 37 37 37 37 37 37 00
 2.511300 2  18F100D0x       Rx   d 8 0C FF FF FF FF FF FF FF
 2.511900 2  18F156F3x       Rx   d 8 00 00 00 00 00 00 00 00
 2.512800 2  18F157F3x       Rx   d 8 00 00 00 00 00 00 00 00
 2.513600 2  18F158F3x       Rx   d 8 00 00 00 00 00 00 00 00
 2.514500 2  18F159F3x       Rx   d 8 00 00 00 00 00 00 00 00
 2.515100 2  CFF21CAx        Rx   d 8 02 00 80 0C 3C 39 00 10
 2.515700 2  18F15AF3x       Rx   d 8 00 00 00 00 00 00 00 00
 2.516300 2  18FF2112x       Rx   d 8 01 00 00 00 00 00 00 00
 2.516800 2  18F15BF3x       Rx   d 7 00 00 00 00 00 00 00 00
 2.517700 2  18F15CF3x       Rx   d 8 00 00 00 00 00 00 00 00
 2.518500 2  18F15DF3x       Rx   d 8 00 00 00 00 00 00 00 00
 2.519400 2  18F15EF3x       Rx   d 8 00 00 00 00 00 00 00 00
 2.527200 2  CFF21CAx        Rx   d 8 02 00 80 0C 3C 39 00 10
 2.535200 2  18F100D0x       Rx   d 8 0C FF FF FF FF FF FF FF
 2.539200 2  CFF21CAx        Rx   d 8 02 00 80 0C 3C 39 00 10
 2.551200 2  CFF21CAx        Rx   d 8 03 00 80 0C 3C 39 00 10
 2.559300 2  18F100D0x       Rx   d 8 0C FF FF FF FF FF FF FF
 2.563200 2  CFF21CAx        Rx   d 8 03 00 80 0C 3C 39 00 10
 2.575300 2  CFF21CAx        Rx   d 8 03 00 80 0C 3C 39 00 10
 2.583300 2  18F100D0x       Rx   d 8 0C FF FF FF FF FF FF FF
 2.587300 2  CFF21CAx        Rx   d 8 03 00 80 0C 3C 39 00 10
 2.599400 2  CFF21CAx        Rx   d 8 03 00 80 0C 3C 39 00 10
 2.604500 2  18F100F3x       Rx   d 8 03 00 7D B5 B1 FA 14 00
 2.605400 2  18F102F3x       Rx   d 8 0F 05 0E FF 10 0C 00 06
 2.606700 2  18F106F3x       Rx   d 8 45 E0 FC FF FF FF FF FF
 2.608000 2  18F107F3x       Rx   d 8 38 A4 30 70 01 5A 00 B8
 2.609700 2  18F108F3x       Rx   d 8 00 00 00 00 00 00 00 00
 2.610600 2  18F155F3x       Rx   d 8 37 37 37 37 37 37 37 00
 2.611400 2  CFF21CAx        Rx   d 8 03 00 80 0C 3C 39 00 10
 2.612000 2  18F100D0x       Rx   d 8 0C FF FF FF FF FF FF FF
 2.612600 2  18F156F3x       Rx   d 8 00 00 00 00 00 00 00 00
 2.613200 2  18FF2112x       Rx   d 8 01 00 00 00 00 00 00 00
 2.613700 2  18F157F3x       Rx   d 8 00 00 00 00 00 00 00 00
 2.614600 2  18F158F3x       Rx   d 8 00 00 00 00 00 00 00 00
 2.615500 2  18F159F3x       Rx   d 8 00 00 00 00 00 00 00 00
 2.616400 2  18F15AF3x       Rx   d 8 00 00 00 00 00 00 00 00
 2.617500 2  18F15BF3x       Rx   d 7 00 00 00 00 00 00 00 00
 2.618400 2  18F15CF3x       Rx   d 8 00 00 00 00 00 00 00 00
 2.619300 2  18F15DF3x       Rx   d 8 00 00 00 00 00 00 00 00
 2.620200 2  18F15EF3x       Rx   d 8 00 00 00 00 00 00 00 00
 2.623400 2  CFF21CAx        Rx   d 8 03 00 80 0C 3C 39 00 10
 2.635500 2  CFF21CAx        Rx   d 8 03 00 80 0C 3C 39 00 10
 2.636000 2  18F100D0x       Rx   d 8 0C FF FF FF FF FF FF FF
 2.647500 2  CFF21CAx        Rx   d 8 03 00 80 0C 3C 39 00 10
 2.659500 2  CFF21CAx        Rx   d 8 03 00 80 0C 3C 39 00 10
 2.663600 2  18F100D0x       Rx   d 8 0C FF FF FF FF FF FF FF
 2.671600 2  CFF21CAx        Rx   d 8 03 00 80 0C 3C 39 00 10
 2.683600 2  CFF21CAx        Rx   d 8 03 00 80 0C 3C 39 00 10
 2.687700 2  18F100D0x       Rx   d 8 0C FF FF FF FF FF FF FF
 2.695600 2  CFF21CAx        Rx   d 8 03 00 80 0C 3C 39 00 10
 2.704400 2  18F100F3x       Rx   d 8 03 00 7D B5 B1 FA 14 00
 2.705300 2  18F102F3x       Rx   d 8 0F 05 0E FF 10 0C 00 06
 2.706600 2  18F106F3x       Rx   d 8 45 E0 FC FF FF FF FF FF
 2.707700 2  CFF21CAx        Rx   d 8 02 00 80 0C 3C 39 00 10
 2.708200 2  18F107F3x       Rx   d 8 38 A4 30 70 01 5A 00 B8
 2.710000 2  18FF2112x       Rx   d 8 01 00 00 00 00 00 00 00
 2.710600 2  18F108F3x       Rx   d 8 00 00 00 00 00 00 00 00
 2.711500 2  18F155F3x       Rx   d 8 37 37 37 37 37 37 37 00
 2.712000 2  18F100D0x       Rx   d 8 0C FF FF FF FF FF FF FF
 2.712600 2  18F156F3x       Rx   d 8 00 00 00 00 00 00 00 00
 2.713500 2  18F157F3x       Rx   d 8 00 00 00 00 00 00 00 00
 2.714400 2  18F158F3x       Rx   d 8 00 00 00 00 00 00 00 00
 2.715300 2  18F159F3x       Rx   d 8 00 00 00 00 00 00 00 00
 2.716200 2  18F15AF3x       Rx   d 8 00 00 00 00 00 00 00 00
 2.717300 2  18F15BF3x       Rx   d 7 00 00 00 00 00 00 00 00
 2.718200 2  18F15CF3x       Rx   d 8 00 00 00 00 00 00 00 00
 2.719100 2  18F15DF3x       Rx   d 8 00 00 00 00 00 00 00 00
 2.719700 2  CFF21CAx        Rx   d 8 02 00 80 0C 3C 39 00 10
 2.720300 2  18F15EF3x       Rx   d 8 00 00 00 00 00 00 00 00
 2.731700 2  CFF21CAx        Rx   d 8 02 00 80 0C 3C 39 00 10
 2.735800 2  18F100D0x       Rx   d 8 0C FF FF FF FF FF FF FF
 2.743800 2  CFF21CAx        Rx   d 8 02 00 80 0C 3C 39 00 10
 2.755800 2  CFF21CAx        Rx   d 8 02 00 80 0C 3C 39 00 10
 2.759800 2  18F100D0x       Rx   d 8 0C FF FF FF FF FF FF FF
 2.768400 2  CFF21CAx        Rx   d 8 02 00 80 0C 3C 39 00 10
 2.779900 2  CFF21CAx        Rx   d 8 02 00 80 0C 3C 39 00 10
 2.783900 2  18F100D0x       Rx   d 8 0C FF FF FF FF FF FF FF
 2.792000 2  CFF21CAx        Rx   d 8 02 00 80 0C 3C 39 00 10
 2.803900 2  CFF21CAx        Rx   d 8 02 00 80 0C 3C 39 00 10
 2.804500 2  18F100F3x       Rx   d 8 03 00 7D B5 B1 FA 14 00
 2.805300 2  18F102F3x       Rx   d 8 0F 05 0E FF 10 0C 00 06
 2.806600 2  18F106F3x       Rx   d 8 45 E0 FC FF FF FF FF FF
 2.807300 2  18FF2112x       Rx   d 8 01 00 00 00 00 00 00 00
 2.807900 2  18F107F3x       Rx   d 8 38 A4 30 70 01 5A 00 B8
 2.808500 2  18F100D0x       Rx   d 8 0C FF FF FF FF FF FF FF
 2.809900 2  18F108F3x       Rx   d 8 00 00 00 00 00 00 00 00
 2.810700 2  18F155F3x       Rx   d 8 37 37 37 37 37 37 37 00
 2.811600 2  18F156F3x       Rx   d 8 00 00 00 00 00 00 00 00
 2.812500 2  18F157F3x       Rx   d 8 00 00 00 00 00 00 00 00
 2.813400 2  18F158F3x       Rx   d 8 00 00 00 00 00 00 00 00
 2.814300 2  18F159F3x       Rx   d 8 00 00 00 00 00 00 00 00
 2.815200 2  18F15AF3x       Rx   d 8 00 00 00 00 00 00 00 00
 2.816000 2  CFF21CAx        Rx   d 8 02 00 80 0C 3C 39 00 10
 2.816600 2  18F15BF3x       Rx   d 7 00 00 00 00 00 00 00 00
 2.817400 2  18F15CF3x       Rx   d 8 00 00 00 00 00 00 00 00
 2.818300 2  18F15DF3x       Rx   d 8 00 00 00 00 00 00 00 00
 2.819100 2  18F15EF3x       Rx   d 8 00 00 00 00 00 00 00 00
 2.828000 2  CFF21CAx        Rx   d 8 02 00 80 0C 3C 39 00 10
 2.836000 2  18F100D0x       Rx   d 8 0C FF FF FF FF FF FF FF
 2.840500 2  CFF21CAx        Rx   d 8 02 00 80 0C 3C 39 00 10
 2.852100 2  CFF21CAx        Rx   d 8 02 00 80 0C 3C 39 00 10
 2.860100 2  18F100D0x       Rx   d 8 0C FF FF FF FF FF FF FF
 2.864100 2  CFF21CAx        Rx   d 8 02 00 80 0C 3C 39 00 10
 2.876100 2  CFF21CAx        Rx   d 8 02 00 80 0C 3C 39 00 10
 2.884200 2  18F100D0x       Rx   d 8 0C FF FF FF FF FF FF FF
 2.888300 2  CFF21CAx        Rx   d 8 02 00 80 0C 3C 39 00 10
 2.900200 2  CFF21CAx        Rx   d 8 02 00 80 0C 3C 39 00 10
 2.904100 2  18F100F3x       Rx   d 8 03 00 7D B5 B1 FA 14 00
 2.904700 2  18FF2112x       Rx   d 8 01 00 00 00 00 00 00 00
 2.905300 2  18F102F3x       Rx   d 8 0F 05 0E FF 10 0C 00 06
 2.906500 2  18F106F3x       Rx   d 8 45 E0 FC FF FF FF FF FF
 2.907800 2  18F107F3x       Rx   d 8 38 A4 30 70 01 5A 00 B8
 2.909600 2  18F108F3x       Rx   d 8 00 00 00 00 00 00 00 00
 2.910400 2  18F155F3x       Rx   d 8 37 37 37 37 37 37 37 00
 2.911300 2  18F156F3x       Rx   d 8 00 00 00 00 00 00 00 00
 2.912200 2  18F157F3x       Rx   d 8 00 00 00 00 00 00 00 00
 2.912800 2  CFF21CAx        Rx   d 8 02 00 80 0C 3C 39 00 10
 2.913400 2  18F100D0x       Rx   d 8 0C FF FF FF FF FF FF FF
 2.913900 2  18F158F3x       Rx   d 8 00 00 00 00 00 00 00 00
 2.914900 2  18F159F3x       Rx   d 8 00 00 00 00 00 00 00 00
 2.915800 2  18F15AF3x       Rx   d 8 00 00 00 00 00 00 00 00
 2.916600 2  18F15BF3x       Rx   d 7 00 00 00 00 00 00 00 00
 2.917500 2  18F15CF3x       Rx   d 8 00 00 00 00 00 00 00 00
 2.918300 2  18F15DF3x       Rx   d 8 00 00 00 00 00 00 00 00
 2.919200 2  18F15EF3x       Rx   d 8 00 00 00 00 00 00 00 00
 2.924300 2  CFF21CAx        Rx   d 8 03 00 80 0C 3C 39 00 10
 2.936700 2  CFF21CAx        Rx   d 8 03 00 80 0C 3C 39 00 10
 2.937300 2  18F100D0x       Rx   d 8 0C FF FF FF FF FF FF FF
 2.948300 2  CFF21CAx        Rx   d 8 03 00 80 0C 3C 39 00 10
 2.960900 2  CFF21CAx        Rx   d 8 02 00 80 0C 3C 39 00 10
 2.961500 2  18F100D0x       Rx   d 8 0C FF FF FF FF FF FF FF
 2.972400 2  CFF21CAx        Rx   d 8 02 00 80 0C 3C 39 00 10
 2.984500 2  CFF21CAx        Rx   d 8 02 00 80 0C 3C 39 00 10
 2.985100 2  18F100D0x       Rx   d 8 0C FF FF FF FF FF FF FF
 2.996500 2  CFF21CAx        Rx   d 8 03 00 80 0C 3C 39 00 10
 3.001900 2  18FF2112x       Rx   d 8 01 00 00 00 00 00 00 00
 3.004000 2  18F100F3x       Rx   d 8 03 00 7D B5 B1 FA 14 00
 3.004900 2  18F102F3x       Rx   d 8 0F 05 0E FF 10 02 00 06
 3.006200 2  18F106F3x       Rx   d 8 45 E0 FC FF FF FF FF FF
 3.007500 2  18F107F3x       Rx   d 8 38 A4 30 70 01 5A 00 B8
 3.009000 2  CFF21CAx        Rx   d 8 03 00 80 0C 3C 39 00 10
 3.009600 2  18F100D0x       Rx   d 8 0C FF FF FF FF FF FF FF
 3.010200 2  18F108F3x       Rx   d 8 00 00 00 00 00 00 00 00
 3.011000 2  18F155F3x       Rx   d 8 37 37 37 37 37 37 37 00
 3.011900 2  18F156F3x       Rx   d 8 00 00 00 00 00 00 00 00
 3.012900 2  18F157F3x       Rx   d 8 00 00 00 00 00 00 00 00
 3.013800 2  18F158F3x       Rx   d 8 00 00 00 00 00 00 00 00
 3.014700 2  18F159F3x       Rx   d 8 00 00 00 00 00 00 00 00
 3.015600 2  18F15AF3x       Rx   d 8 00 00 00 00 00 00 00 00
 3.016500 2  18F15BF3x       Rx   d 7 00 00 00 00 00 00 00 00
 3.017300 2  18F15CF3x       Rx   d 8 00 00 00 00 00 00 00 00
 3.018200 2  18F15DF3x       Rx   d 8 00 00 00 00 00 00 00 00
 3.019000 2  18F15EF3x       Rx   d 8 00 00 00 00 00 00 00 00
 3.020500 2  CFF21CAx        Rx   d 8 03 00 80 0C 3C 39 00 10
 3.033000 2  CFF21CAx        Rx   d 8 03 00 80 0C 3C 39 00 10
 3.033600 2  18F100D0x       Rx   d 8 0C FF FF FF FF FF FF FF
 3.044600 2  CFF21CAx        Rx   d 8 03 00 80 0C 3C 39 00 10
 3.056700 2  CFF21CAx        Rx   d 8 03 00 80 0C 3C 39 00 10
 3.057300 2  18F100D0x       Rx   d 8 0C FF FF FF FF FF FF FF
 3.068700 2  CFF21CAx        Rx   d 8 03 00 80 0C 3C 39 00 10
 3.080800 2  CFF21CAx        Rx   d 8 03 00 80 0C 3C 39 00 10
 3.081300 2  18F100D0x       Rx   d 8 0C FF FF FF FF FF FF FF
 3.092800 2  CFF21CAx        Rx   d 8 02 00 80 0C 3C 39 00 10
 3.098700 2  18FF2112x       Rx   d 8 01 00 00 00 00 00 00 00
 3.103900 2  18F100F3x       Rx   d 8 03 00 7D B6 B1 FA 14 00
 3.104800 2  18F102F3x       Rx   d 8 0F 05 0E FF 10 02 00 06
 3.105400 2  CFF21CAx        Rx   d 8 02 00 80 0C 3C 39 00 10
 3.106100 2  18F106F3x       Rx   d 8 45 E0 FC FF FF FF FF FF
 3.107400 2  18F107F3x       Rx   d 8 38 A4 30 70 01 5A 00 B8
 3.108800 2  18F100D0x       Rx   d 8 0C FF FF FF FF FF FF FF
 3.109400 2  18F108F3x       Rx   d 8 00 00 00 00 00 00 00 00
 3.110300 2  18F155F3x       Rx   d 8 37 37 37 37 37 37 37 00
 3.111200 2  18F156F3x       Rx   d 8 00 00 00 00 00 00 00 00
 3.112000 2  18F157F3x       Rx   d 8 00 00 00 00 00 00 00 00
 3.112900 2  18F158F3x       Rx   d 8 00 00 00 00 00 00 00 00
 3.113800 2  18F159F3x       Rx   d 8 00 00 00 00 00 00 00 00
 3.114700 2  18F15AF3x       Rx   d 8 00 00 00 00 00 00 00 00
 3.115600 2  18F15BF3x       Rx   d 7 00 00 00 00 00 00 00 00
 3.116800 2  18F15CF3x       Rx   d 8 00 00 00 00 00 00 00 00
 3.117300 2  CFF21CAx        Rx   d 8 02 00 80 0C 3C 39 00 10
 3.117900 2  18F15DF3x       Rx   d 8 00 00 00 00 00 00 00 00
 3.118800 2  18F15EF3x       Rx   d 8 00 00 00 00 00 00 00 00
 3.129300 2  CFF21CAx        Rx   d 8 02 00 80 0C 3C 39 00 10
 3.132900 2  18F100D0x       Rx   d 8 0C FF FF FF FF FF FF FF
 3.140900 2  CFF21CAx        Rx   d 8 02 00 80 0C 3C 39 00 10
 3.152900 2  CFF21CAx        Rx   d 8 02 00 80 0C 3C 39 00 10
 3.156900 2  18F100D0x       Rx   d 8 0C FF FF FF FF FF FF FF
 3.165000 2  CFF21CAx        Rx   d 8 02 00 80 0C 3C 39 00 10
 3.177000 2  CFF21CAx        Rx   d 8 02 00 80 0C 3C 39 00 10
 3.185100 2  18F100D0x       Rx   d 8 0C FF FF FF FF FF FF FF
 3.189000 2  CFF21CAx        Rx   d 8 02 00 80 0C 3C 39 00 10
 3.195800 2  18FF2112x       Rx   d 8 01 00 00 00 00 00 00 00
 3.201100 2  CFF21CAx        Rx   d 8 02 00 80 0C 3C 39 00 10
 3.203800 2  18F100F3x       Rx   d 8 03 00 7D B6 B1 FA 14 00
 3.204700 2  18F102F3x       Rx   d 8 0F 05 0E FF 10 02 00 06
 3.206000 2  18F106F3x       Rx   d 8 45 E0 FC FF FF FF FF FF
 3.207300 2  18F107F3x       Rx   d 8 38 A4 30 70 01 5A 00 B8
 3.209000 2  18F108F3x       Rx   d 8 00 00 00 00 00 00 00 00
 3.209600 2  18F100D0x       Rx   d 8 0C FF FF FF FF FF FF FF
 3.210200 2  18F155F3x       Rx   d 8 37 37 37 37 37 37 37 00
 3.211000 2  18F156F3x       Rx   d 8 00 00 00 00 00 00 00 00
 3.211900 2  18F157F3x       Rx   d 8 00 00 00 00 00 00 00 00
 3.212800 2  18F158F3x       Rx   d 8 00 00 00 00 00 00 00 00
 3.213400 2  CFF21CAx        Rx   d 8 02 00 80 0C 3C 39 00 10
 3.213900 2  18F159F3x       Rx   d 8 00 00 00 00 00 00 00 00
 3.214800 2  18F15AF3x       Rx   d 8 00 00 00 00 00 00 00 00
 3.215600 2  18F15BF3x       Rx   d 7 00 00 00 00 00 00 00 00
 3.216800 2  18F15CF3x       Rx   d 8 00 00 00 00 00 00 00 00
 3.217700 2  18F15DF3x       Rx   d 8 00 00 00 00 00 00 00 00
 3.218600 2  18F15EF3x       Rx   d 8 00 00 00 00 00 00 00 00
 3.225600 2  CFF21CAx        Rx   d 8 02 00 80 0C 3C 39 00 10
 3.233200 2  18F100D0x       Rx   d 8 0C FF FF FF FF FF FF FF
 3.237200 2  CFF21CAx        Rx   d 8 02 00 80 0C 3C 39 00 10
 3.249200 2  CFF21CAx        Rx   d 8 02 00 80 0C 3C 39 00 10
 3.257700 2  18F100D0x       Rx   d 8 0C FF FF FF FF FF FF FF
 3.261200 2  CFF21CAx        Rx   d 8 02 00 80 0C 3C 39 00 10
 3.273300 2  CFF21CAx        Rx   d 8 02 00 80 0C 3C 39 00 10
 3.281300 2  18F100D0x       Rx   d 8 0C FF FF FF FF FF FF FF
 3.285300 2  CFF21CAx        Rx   d 8 03 00 80 0C 3C 39 00 10
 3.293000 2  18FF2112x       Rx   d 8 01 00 00 00 00 00 00 00
 3.297300 2  CFF21CAx        Rx   d 8 03 00 80 0C 3C 39 00 10
 3.303700 2  18F100F3x       Rx   d 8 03 00 7D B5 B1 FA 14 00
 3.304600 2  18F102F3x       Rx   d 8 0F 05 0E FF 10 02 00 06
 3.305400 2  18F100D0x       Rx   d 8 0C FF FF FF FF FF FF FF
 3.306000 2  18F106F3x       Rx   d 8 45 E0 FC FF FF FF FF FF
 3.307200 2  18F107F3x       Rx   d 8 38 A4 30 70 01 5A 00 B8
 3.309000 2  18F108F3x       Rx   d 8 00 00 00 00 00 00 00 00
 3.309500 2  CFF21CAx        Rx   d 8 03 00 80 0C 3C 39 00 10
 3.310100 2  18F155F3x       Rx   d 8 37 37 37 37 37 37 37 00
 3.311000 2  18F156F3x       Rx   d 8 00 00 00 00 00 00 00 00
 3.311800 2  18F157F3x       Rx   d 8 00 00 00 00 00 00 00 00
 3.312700 2  18F158F3x       Rx   d 8 00 00 00 00 00 00 00 00
 3.313600 2  18F159F3x       Rx   d 8 00 00 00 00 00 00 00 00
 3.314500 2  18F15AF3x       Rx   d 8 00 00 00 00 00 00 00 00
 3.315400 2  18F15BF3x       Rx   d 7 00 00 00 00 00 00 00 00
 3.316600 2  18F15CF3x       Rx   d 8 00 00 00 00 00 00 00 00
 3.317500 2  18F15DF3x       Rx   d 8 00 00 00 00 00 00 00 00
 3.318300 2  18F15EF3x       Rx   d 8 00 00 00 00 00 00 00 00
 3.321400 2  CFF21CAx        Rx   d 8 03 00 80 0C 3C 39 00 10
 3.333400 2  CFF21CAx        Rx   d 8 03 00 80 0C 3C 39 00 10
 3.334000 2  18F100D0x       Rx   d 8 0C FF FF FF FF FF FF FF
 3.345500 2  CFF21CAx        Rx   d 8 03 00 80 0C 3C 39 00 10
 3.357500 2  CFF21CAx        Rx   d 8 03 00 80 0C 3C 39 00 10
 3.358100 2  18F100D0x       Rx   d 8 0C FF FF FF FF FF FF FF
 3.369500 2  CFF21CAx        Rx   d 8 03 00 80 0C 3C 39 00 10
 3.381100 2  18F104F3x       Rx   d 8 37 37 01 01 00 FF FF FF
 3.381600 2  CFF21CAx        Rx   d 8 03 00 80 0C 3C 39 00 10
 3.382200 2  18F100D0x       Rx   d 8 0C FF FF FF FF FF FF FF
 3.382700 2  18F113F3x       Rx   d 8 0F 00 0E FF 0F 01 0F 01
 3.383700 2  18F114F3x       Rx   d 8 0F 00 0E FF 0F 02 0F 02
 3.384600 2  18F115F3x       Rx   d 8 0F 00 0E FF 0F 00 0E FF
 3.385500 2  18F116F3x       Rx   d 8 0F 03 0F 01 0F 03 0F 05
 3.386700 2  18F117F3x       Rx   d 8 0F 00 0F 02 0F 05 0F 03
 3.387600 2  18F118F3x       Rx   d 8 00 00 00 00 00 00 00 00
 3.388600 2  18F119F3x       Rx   d 8 00 00 00 00 00 00 00 00
 3.389500 2  18F11AF3x       Rx   d 8 00 00 00 00 00 00 00 00
 3.390100 2  18FF2112x       Rx   d 8 01 00 00 00 00 00 00 00
 3.390700 2  18F11BF3x       Rx   d 8 00 00 00 00 00 00 00 00
 3.391600 2  18F11CF3x       Rx   d 8 00 00 00 00 00 00 00 00
 3.392500 2  18F11DF3x       Rx   d 8 00 00 00 00 00 00 00 00
 3.393600 2  18F11EF3x       Rx   d 8 00 00 00 00 00 00 00 00
 3.394100 2  CFF21CAx        Rx   d 8 03 00 80 0C 3C 39 00 10
 3.394700 2  18F11FF3x       Rx   d 8 00 00 00 00 00 00 00 00
 3.395600 2  18F120F3x       Rx   d 8 00 00 00 00 00 00 00 00
 3.396700 2  18F121F3x       Rx   d 8 00 00 00 00 00 00 00 00
 3.397600 2  18F122F3x       Rx   d 8 00 00 00 00 00 00 00 00
 3.398500 2  18F123F3x       Rx   d 8 00 00 00 00 00 00 00 00
 3.399500 2  18F124F3x       Rx   d 8 00 00 00 00 00 00 00 00
 3.400500 2  18F125F3x       Rx   d 8 00 00 00 00 00 00 00 00
 3.401400 2  18F126F3x       Rx   d 8 00 00 00 00 00 00 00 00
 3.402400 2  18F127F3x       Rx   d 8 00 00 00 00 00 00 00 00
 3.403300 2  18F128F3x       Rx   d 8 00 00 00 00 00 00 00 00
 3.404200 2  18F100F3x       Rx   d 8 03 00 7D B5 B1 FA 14 00
 3.405200 2  18F102F3x       Rx   d 8 0F 05 0E FF 10 02 00 06
 3.405700 2  CFF21CAx        Rx   d 8 03 00 80 0C 3C 39 00 10
 3.406300 2  18F100D0x       Rx   d 8 0C FF FF FF FF FF FF FF
 3.406900 2  18F106F3x       Rx   d 8 45 E0 FC FF FF FF FF FF
 3.408200 2  18F107F3x       Rx   d 8 38 A4 30 70 01 5A 00 B8
 3.409700 2  18FECACAx       Rx   d 8 00 00 00 00 00 00 FF FF
 3.410300 2  18F108F3x       Rx   d 8 00 00 00 00 00 00 00 00
 3.411200 2  18F129F3x       Rx   d 8 00 00 00 00 00 00 00 00
 3.412100 2  18F12AF3x       Rx   d 8 00 00 00 00 00 00 00 00
 3.413000 2  18F12BF3x       Rx   d 8 00 00 00 00 00 00 00 00
 3.413900 2  18F12CF3x       Rx   d 8 00 00 00 00 00 00 00 00
 3.414800 2  18F12DF3x       Rx   d 8 00 00 00 00 00 00 00 00
 3.415700 2  18F12EF3x       Rx   d 8 00 00 00 00 00 00 00 00
 3.416700 2  18F12FF3x       Rx   d 8 00 00 00 00 00 00 00 00
 3.417500 2  18F130F3x       Rx   d 8 00 00 00 00 00 00 00 00
 3.418100 2  CFF21CAx        Rx   d 8 03 00 80 0C 3C 39 00 10
 3.418700 2  18F131F3x       Rx   d 8 00 00 00 00 00 00 00 00
 3.419600 2  18F132F3x       Rx   d 8 00 00 00 00 00 00 00 00
 3.420500 2  18F133F3x       Rx   d 8 00 00 00 00 00 00 00 00
 3.421400 2  18F134F3x       Rx   d 8 00 00 00 00 00 00 00 00
 3.422300 2  18F135F3x       Rx   d 8 00 00 00 00 00 00 00 00
 3.423200 2  18F136F3x       Rx   d 8 00 00 00 00 00 00 00 00
 3.424200 2  18F137F3x       Rx   d 8 00 00 00 00 00 00 00 00
 3.425000 2  18F138F3x       Rx   d 8 00 00 00 00 00 00 00 00
 3.425700 2  18F100D0x       Rx   d 8 0C FF FF FF FF FF FF FF
 3.426300 2  18F139F3x       Rx   d 8 00 00 00 00 00 00 00 00
 3.427200 2  18F13AF3x       Rx   d 8 00 00 00 00 00 00 00 00
 3.428100 2  18F13BF3x       Rx   d 8 00 00 00 00 00 00 00 00
 3.428900 2  18F13CF3x       Rx   d 8 00 00 00 00 00 00 00 00
 3.429700 2  CFF21CAx        Rx   d 8 03 00 80 0C 3C 39 00 10
 3.430200 2  18F155F3x       Rx   d 8 37 37 37 37 37 37 37 00
 3.431200 2  18F156F3x       Rx   d 8 00 00 00 00 00 00 00 00
 3.432100 2  18F157F3x       Rx   d 8 00 00 00 00 00 00 00 00
 3.432900 2  18F158F3x       Rx   d 8 00 00 00 00 00 00 00 00
 3.433800 2  18F159F3x       Rx   d 8 00 00 00 00 00 00 00 00
 3.434700 2  18F15AF3x       Rx   d 8 00 00 00 00 00 00 00 00
 3.435500 2  18F15BF3x       Rx   d 7 00 00 00 00 00 00 00 00
 3.436600 2  18F15CF3x       Rx   d 8 00 00 00 00 00 00 00 00
 3.437400 2  18F15DF3x       Rx   d 8 00 00 00 00 00 00 00 00
 3.438300 2  18F15EF3x       Rx   d 8 00 00 00 00 00 00 00 00
 3.441800 2  CFF21CAx        Rx   d 8 03 00 80 0C 3C 39 00 10
 3.453800 2  CFF21CAx        Rx   d 8 03 00 80 0C 3C 39 00 10
 3.454400 2  18F100D0x       Rx   d 8 0C FF FF FF FF FF FF FF
 3.465800 2  CFF21CAx        Rx   d 8 03 00 80 0C 3C 39 00 10
 3.477800 2  CFF21CAx        Rx   d 8 03 00 80 0C 3C 39 00 10
 3.478400 2  18F100D0x       Rx   d 8 0C FF FF FF FF FF FF FF
 3.487300 2  18FF2112x       Rx   d 8 01 00 00 00 00 00 00 00
 3.489900 2  CFF21CAx        Rx   d 8 03 00 80 0C 3C 39 00 10
 3.501900 2  CFF21CAx        Rx   d 8 03 00 80 0C 3C 39 00 10
 3.502500 2  18F100D0x       Rx   d 8 0C FF FF FF FF FF FF FF
 3.503600 2  18F100F3x       Rx   d 8 03 00 7D B5 B1 FA 14 00
 3.504400 2  18F102F3x       Rx   d 8 0F 05 0E FF 10 02 00 06
 3.505700 2  18F106F3x       Rx   d 8 45 E0 FC FF FF FF FF FF
 3.507000 2  18F107F3x       Rx   d 8 38 A4 30 70 01 5A 00 B8
 3.508700 2  18F108F3x       Rx   d 8 00 00 00 00 00 00 00 00
 3.509600 2  18F155F3x       Rx   d 8 37 37 37 37 37 37 37 00
 3.510500 2  18F156F3x       Rx   d 8 00 00 00 00 00 00 00 00
 3.511400 2  18F157F3x       Rx   d 8 00 00 00 00 00 00 00 00
 3.512300 2  18F158F3x       Rx   d 8 00 00 00 00 00 00 00 00
 3.513200 2  18F159F3x       Rx   d 8 00 00 00 00 00 00 00 00
 3.513900 2  CFF21CAx        Rx   d 8 02 00 80 0C 3C 39 00 10
 3.514500 2  18F15AF3x       Rx   d 8 00 00 00 00 00 00 00 00
 3.515300 2  18F15BF3x       Rx   d 7 00 00 00 00 00 00 00 00
 3.516500 2  18F15CF3x       Rx   d 8 00 00 00 00 00 00 00 00
 3.517400 2  18F15DF3x       Rx   d 8 00 00 00 00 00 00 00 00
 3.518200 2  18F15EF3x       Rx   d 8 00 00 00 00 00 00 00 00
 3.526000 2  CFF21CAx        Rx   d 8 02 00 80 0C 3C 39 00 10
 3.526600 2  18F100D0x       Rx   d 8 0C FF FF FF FF FF FF FF
 3.538000 2  CFF21CAx        Rx   d 8 02 00 80 0C 3C 39 00 10
 3.550100 2  CFF21CAx        Rx   d 8 02 00 80 0C 3C 39 00 10
 3.550600 2  18F100D0x       Rx   d 8 0C FF FF FF FF FF FF FF
 3.562100 2  CFF21CAx        Rx   d 8 02 00 80 0C 3C 39 00 10
 3.574100 2  CFF21CAx        Rx   d 8 03 00 80 0C 3C 39 00 10
 3.574700 2  18F100D0x       Rx   d 8 0C FF FF FF FF FF FF FF
 3.584400 2  18FF2112x       Rx   d 8 01 00 00 00 00 00 00 00
 3.586200 2  CFF21CAx        Rx   d 8 03 00 80 0C 3C 39 00 10
 3.598200 2  CFF21CAx        Rx   d 8 02 00 80 0C 3C 39 00 10
 3.602200 2  18F100D0x       Rx   d 8 0C FF FF FF FF FF FF FF
 3.603400 2  18F100F3x       Rx   d 8 03 00 7D B6 B1 FA 14 00
 3.604300 2  18F102F3x       Rx   d 8 0F 05 0E FF 13 02 00 06
 3.605600 2  18F106F3x       Rx   d 8 45 E0 FC FF FF FF FF FF
 3.606800 2  18F107F3x       Rx   d 8 38 A4 30 70 01 5A 00 B8
 3.608600 2  18F108F3x       Rx   d 8 00 00 00 00 00 00 00 00
 3.609400 2  18F155F3x       Rx   d 8 37 37 37 37 37 37 37 00
 3.610300 2  CFF21CAx        Rx   d 8 02 00 80 0C 3C 39 00 10
 3.610800 2  18F156F3x       Rx   d 8 00 00 00 00 00 00 00 00
