date Tue May 26 09:00:00.319 PM 2026
base hex  timestamps absolute
internal events logged
// version 8.0.0
Begin Triggerblock Tue May 26 09:00:00.319 PM 2026
   0.000000 Start of measurement
   0.000000 1  CFF21CAx        Rx   d 8 06 00 80 0C 47 40 00 14
   0.012000 1  CFF21CAx        Rx   d 8 06 00 80 0C 47 40 00 14
   0.016000 1  18F100D0x       Rx   d 8 0C FF FF FF FF FF FF FF
   0.023000 1  18F100F3x       Rx   d 8 02 D9 7D AA 7E FA 14 00
   0.024000 1  18F102F3x       Rx   d 8 0E 42 0E 3C 10 0C 00 06
   0.026000 1  CFF21CAx        Rx   d 8 06 00 80 0C 47 40 00 14
   0.028000 1  18F106F3x       Rx   d 8 45 E0 FC FF FF FF FF FF
   0.030000 1  18F107F3x       Rx   d 8 38 A4 30 70 01 48 00 AF
   0.032000 1  18F108F3x       Rx   d 8 00 00 00 00 00 00 00 00
   0.034000 1  18F155F3x       Rx   d 8 36 35 36 36 35 36 36 00
   0.035000 1  18F156F3x       Rx   d 8 00 00 00 00 00 00 00 00
   0.036000 1  18F157F3x       Rx   d 8 00 00 00 00 00 00 00 00
   0.038000 1  18F158F3x       Rx   d 8 00 00 00 00 00 00 00 00
   0.039000 1  18F159F3x       Rx   d 8 00 00 00 00 00 00 00 00
   0.041000 1  18F15AF3x       Rx   d 8 00 00 00 00 00 00 00 00
   0.042000 1  18F15BF3x       Rx   d 7 00 00 00 00 00 00 00
   0.084000 1  18FF2112x       Rx   d 8 01 00 00 00 00 00 00 00
   0.095000 1  18F15CF3x       Rx   d 8 00 00 00 00 00 00 00 00
   0.097000 1  18F15DF3x       Rx   d 8 00 00 00 00 00 00 00 00
   0.099000 1  CFF21CAx        Rx   d 8 06 00 80 0C 47 40 00 14
   0.100000 1  18F100D0x       Rx   d 8 0C FF FF FF FF FF FF FF
   0.102000 1  18F15EF3x       Rx   d 8 00 00 00 00 00 00 00 00
   0.104000 1  CFF21CAx        Rx   d 8 06 00 80 0C 47 40 00 14
   0.106000 1  18F100D0x       Rx   d 8 0C FF FF FF FF FF FF FF
   0.108000 1  CFF21CAx        Rx   d 8 06 00 80 0C 47 40 00 14
   0.110000 1  CFF21CAx        Rx   d 8 06 00 80 0C 47 40 00 14
   0.112000 1  18F100D0x       Rx   d 8 0C FF FF FF FF FF FF FF
   0.114000 1  CFF21CAx        Rx   d 8 06 00 80 0C 47 40 00 14
   0.116000 1  CFF21CAx        Rx   d 8 06 00 80 0C 47 40 00 14
   0.117000 1  18F100D0x       Rx   d 8 0C FF FF FF FF FF FF FF
   0.119000 1  CFF21CAx        Rx   d 8 06 00 80 0C 47 40 00 14
   0.121000 1  CFF21CAx        Rx   d 8 06 00 80 0C 47 40 00 14
   0.123000 1  18F100F3x       Rx   d 8 02 D9 7D AA 7E FA 14 00
   0.125000 1  18F102F3x       Rx   d 8 0E 41 0E 3C 10 0C 00 05
   0.127000 1  18F106F3x       Rx   d 8 45 E0 FC FF FF FF FF FF
   0.128000 1  18F107F3x       Rx   d 8 38 A4 30 70 01 48 00 AF
   0.130000 1  18F108F3x       Rx   d 8 00 00 00 00 00 00 00 00
   0.132000 1  18F155F3x       Rx   d 8 36 35 36 36 35 36 36 00
   0.134000 1  18F156F3x       Rx   d 8 00 00 00 00 00 00 00 00
   0.136000 1  18F157F3x       Rx   d 8 00 00 00 00 00 00 00 00
   0.138000 1  18F158F3x       Rx   d 8 00 00 00 00 00 00 00 00
   0.139000 1  18FF2112x       Rx   d 8 01 00 00 00 00 00 00 00
   0.141000 1  18F159F3x       Rx   d 8 00 00 00 00 00 00 00 00
   0.142000 1  CFF21CAx        Rx   d 8 06 00 80 0C 47 40 00 14
   0.144000 1  18F100D0x       Rx   d 8 0C FF FF FF FF FF FF FF
   0.145000 1  18F15AF3x       Rx   d 8 00 00 00 00 00 00 00 00
   0.146000 1  18F15BF3x       Rx   d 7 00 00 00 00 00 00 00
   0.196000 1  18F15CF3x       Rx   d 8 00 00 00 00 00 00 00 00
   0.198000 1  18F15DF3x       Rx   d 8 00 00 00 00 00 00 00 00
   0.200000 1  18F15EF3x       Rx   d 8 00 00 00 00 00 00 00 00
   0.202000 1  CFF21CAx        Rx   d 8 06 00 80 0C 47 40 00 14
   0.204000 1  18F100D0x       Rx   d 8 0C FF FF FF FF FF FF FF
   0.206000 1  CFF21CAx        Rx   d 8 06 00 80 0C 47 40 00 14
   0.208000 1  CFF21CAx        Rx   d 8 06 00 80 0C 47 40 00 14
   0.210000 1  18F100D0x       Rx   d 8 0C FF FF FF FF FF FF FF
   0.212000 1  CFF21CAx        Rx   d 8 06 00 80 0C 47 40 00 14
   0.214000 1  CFF21CAx        Rx   d 8 06 00 80 0C 47 40 00 14
   0.215000 1  18F100D0x       Rx   d 8 0C FF FF FF FF FF FF FF
   0.217000 1  CFF21CAx        Rx   d 8 06 00 80 0C 47 40 00 14
   0.220000 1  CFF21CAx        Rx   d 8 06 00 80 0C 47 40 00 14
   0.221000 1  18F100D0x       Rx   d 8 0C FF FF FF FF FF FF FF
   0.223000 1  18F100F3x       Rx   d 8 02 D9 7D AB 7E FA 14 00
   0.224000 1  18F102F3x       Rx   d 8 0E 41 0E 3C 10 0C 00 05
   0.227000 1  18F106F3x       Rx   d 8 45 E0 FC FF FF FF FF FF
   0.229000 1  18F107F3x       Rx   d 8 38 A4 30 70 01 48 00 AF
   0.231000 1  18F108F3x       Rx   d 8 00 00 00 00 00 00 00 00
   0.233000 1  18F155F3x       Rx   d 8 36 35 36 36 35 36 36 00
   0.235000 1  18FF2112x       Rx   d 8 01 00 00 00 00 00 00 00
   0.237000 1  CFF21CAx        Rx   d 8 06 00 80 0C 47 40 00 14
   0.239000 1  18F156F3x       Rx   d 8 00 00 00 00 00 00 00 00
   0.240000 1  18F157F3x       Rx   d 8 00 00 00 00 00 00 00 00
   0.242000 1  18F158F3x       Rx   d 8 00 00 00 00 00 00 00 00
   0.243000 1  18F159F3x       Rx   d 8 00 00 00 00 00 00 00 00
   0.245000 1  18F15AF3x       Rx   d 8 00 00 00 00 00 00 00 00
   0.246000 1  18F15BF3x       Rx   d 7 00 00 00 00 00 00 00
   0.247000 1  18F15CF3x       Rx   d 8 00 00 00 00 00 00 00 00
   0.249000 1  18F15DF3x       Rx   d 8 00 00 00 00 00 00 00 00
   0.299000 1  18F15EF3x       Rx   d 8 00 00 00 00 00 00 00 00
   0.301000 1  CFF21CAx        Rx   d 8 06 00 80 0C 47 40 00 14
   0.303000 1  18F100D0x       Rx   d 8 0C FF FF FF FF FF FF FF
   0.305000 1  CFF21CAx        Rx   d 8 06 00 80 0C 47 40 00 14
   0.307000 1  18F100D0x       Rx   d 8 0C FF FF FF FF FF FF FF
   0.309000 1  CFF21CAx        Rx   d 8 06 00 80 0C 47 40 00 14
   0.310000 1  CFF21CAx        Rx   d 8 06 00 80 0C 47 40 00 14
   0.312000 1  18F100D0x       Rx   d 8 0C FF FF FF FF FF FF FF
   0.314000 1  CFF21CAx        Rx   d 8 06 00 80 0C 47 40 00 14
   0.316000 1  CFF21CAx        Rx   d 8 06 00 80 0C 47 40 00 14
   0.318000 1  18F100D0x       Rx   d 8 0C FF FF FF FF FF FF FF
   0.320000 1  18FECACAx       Rx   d 8 00 00 00 00 00 00 FF FF
   0.322000 1  CFF21CAx        Rx   d 8 06 00 80 0C 47 40 00 14
   0.324000 1  18F100F3x       Rx   d 8 02 D9 7D AB 7E FA 14 00
   0.325000 1  18F102F3x       Rx   d 8 0E 41 0E 3C 10 0C 00 05
   0.327000 1  18F106F3x       Rx   d 8 45 E0 FC FF FF FF FF FF
   0.328000 1  CFF21CAx        Rx   d 8 06 00 80 0C 47 40 00 14
   0.330000 1  18F107F3x       Rx   d 8 38 A4 30 70 01 48 00 AF
   0.331000 1  18FF2112x       Rx   d 8 01 00 00 00 00 00 00 00
   0.332000 1  18F108F3x       Rx   d 8 00 00 00 00 00 00 00 00
   0.348000 1  18F155F3x       Rx   d 8 36 35 36 36 35 36 36 00
   0.349000 1  18F100D0x       Rx   d 8 0C FF FF FF FF FF FF FF
   0.403000 1  18F156F3x       Rx   d 8 00 00 00 00 00 00 00 00
   0.405000 1  18F157F3x       Rx   d 8 00 00 00 00 00 00 00 00
   0.406000 1  18F158F3x       Rx   d 8 00 00 00 00 00 00 00 00
   0.408000 1  18F159F3x       Rx   d 8 00 00 00 00 00 00 00 00
   0.410000 1  18F15AF3x       Rx   d 8 00 00 00 00 00 00 00 00
   0.412000 1  18F15BF3x       Rx   d 7 00 00 00 00 00 00 00
   0.414000 1  18F15CF3x       Rx   d 8 00 00 00 00 00 00 00 00
   0.416000 1  18F15DF3x       Rx   d 8 00 00 00 00 00 00 00 00
   0.418000 1  18F15EF3x       Rx   d 8 00 00 00 00 00 00 00 00
   0.420000 1  CFF21CAx        Rx   d 8 06 00 80 0C 47 40 00 14
   0.421000 1  CFF21CAx        Rx   d 8 06 00 80 0C 47 40 00 14
   0.423000 1  18F100D0x       Rx   d 8 0C FF FF FF FF FF FF FF
   0.425000 1  CFF21CAx        Rx   d 8 06 00 80 0C 47 40 00 14
   0.427000 1  CFF21CAx        Rx   d 8 06 00 80 0C 47 40 00 14
   0.429000 1  18F100D0x       Rx   d 8 0C FF FF FF FF FF FF FF
   0.431000 1  CFF21CAx        Rx   d 8 06 00 80 0C 47 40 00 14
   0.433000 1  18F100D0x       Rx   d 8 0C FF FF FF FF FF FF FF
   0.435000 1  CFF21CAx        Rx   d 8 06 00 80 0C 47 40 00 14
   0.437000 1  CFF21CAx        Rx   d 8 06 00 80 0C 47 40 00 14
   0.439000 1  18F100D0x       Rx   d 8 0C FF FF FF FF FF FF FF
   0.441000 1  CFF21CAx        Rx   d 8 06 00 80 0C 47 40 00 14
   0.443000 1  18F100F3x       Rx   d 8 02 D9 7D AB 7E FA 14 00
   0.444000 1  18FF2112x       Rx   d 8 01 00 00 00 00 00 00 00
   0.446000 1  18F102F3x       Rx   d 8 0E 41 0E 3C 10 0C 00 05
   0.448000 1  18F106F3x       Rx   d 8 45 E0 FC FF FF FF FF FF
   0.449000 1  18F107F3x       Rx   d 8 38 A4 30 70 01 48 00 AF
   0.451000 1  18F108F3x       Rx   d 8 00 00 00 00 00 00 00 00
   0.452000 1  18F104F3x       Rx   d 8 36 35 01 02 01 FF FF FF
   0.454000 1  18F113F3x       Rx   d 8 0E 3D 0E 3D 0E 3E 0E 3F
   0.517000 1  18F114F3x       Rx   d 8 0E 3E 0E 3E 0E 3F 0E 3E
   0.523000 1  18F115F3x       Rx   d 8 0E 3E 0E 3E 0E 3E 0E 3C
   0.525000 1  18F116F3x       Rx   d 8 0E 3F 0E 3F 0E 40 0E 41
   0.527000 1  CFF21CAx        Rx   d 8 06 00 80 0C 47 40 00 14
   0.529000 1  18F117F3x       Rx   d 8 0E 3E 0E 40 0E 41 0E 40
   0.531000 1  18F118F3x       Rx   d 8 00 00 00 00 00 00 00 00
   0.533000 1  18F119F3x       Rx   d 8 00 00 00 00 00 00 00 00
   0.535000 1  18F11AF3x       Rx   d 8 00 00 00 00 00 00 00 00
   0.537000 1  18F100D0x       Rx   d 8 0C FF FF FF FF FF FF FF
   0.539000 1  18F11BF3x       Rx   d 8 00 00 00 00 00 00 00 00
   0.540000 1  18F11CF3x       Rx   d 8 00 00 00 00 00 00 00 00
   0.542000 1  18F11DF3x       Rx   d 8 00 00 00 00 00 00 00 00
   0.543000 1  18F11EF3x       Rx   d 8 00 00 00 00 00 00 00 00
   0.544000 1  18F11FF3x       Rx   d 8 00 00 00 00 00 00 00 00
   0.545000 1  18F120F3x       Rx   d 8 00 00 00 00 00 00 00 00
   0.576000 1  18F121F3x       Rx   d 8 00 00 00 00 00 00 00 00
   0.578000 1  18F122F3x       Rx   d 8 00 00 00 00 00 00 00 00
   0.579000 1  CFF21CAx        Rx   d 8 06 00 80 0C 47 40 00 14
   0.636000 1  18F123F3x       Rx   d 8 00 00 00 00 00 00 00 00
   0.638000 1  18F124F3x       Rx   d 8 00 00 00 00 00 00 00 00
   0.640000 1  18F125F3x       Rx   d 8 00 00 00 00 00 00 00 00
   0.642000 1  18F126F3x       Rx   d 8 00 00 00 00 00 00 00 00
   0.644000 1  18F127F3x       Rx   d 8 00 00 00 00 00 00 00 00
   0.645000 1  18F128F3x       Rx   d 8 00 00 00 00 00 00 00 00
   0.647000 1  18F129F3x       Rx   d 8 00 00 00 00 00 00 00 00
   0.649000 1  18F12AF3x       Rx   d 8 00 00 00 00 00 00 00 00
   0.650000 1  18F12BF3x       Rx   d 8 00 00 00 00 00 00 00 00
   0.652000 1  18F12CF3x       Rx   d 8 00 00 00 00 00 00 00 00
   0.653000 1  18F12DF3x       Rx   d 8 00 00 00 00 00 00 00 00
   0.655000 1  18F12EF3x       Rx   d 8 00 00 00 00 00 00 00 00
   0.656000 1  CFF21CAx        Rx   d 8 07 00 80 0C 47 40 00 14
   0.657000 1  18F12FF3x       Rx   d 8 00 00 00 00 00 00 00 00
   0.711000 1  18F130F3x       Rx   d 8 00 00 00 00 00 00 00 00
   0.713000 1  18F131F3x       Rx   d 8 00 00 00 00 00 00 00 00
   0.715000 1  18F132F3x       Rx   d 8 00 00 00 00 00 00 00 00
   0.716000 1  18F100D0x       Rx   d 8 0C FF FF FF FF FF FF FF
   0.719000 1  18F133F3x       Rx   d 8 00 00 00 00 00 00 00 00
   0.720000 1  18F134F3x       Rx   d 8 00 00 00 00 00 00 00 00
   0.722000 1  18F135F3x       Rx   d 8 00 00 00 00 00 00 00 00
   0.724000 1  18F136F3x       Rx   d 8 00 00 00 00 00 00 00 00
   0.726000 1  18F137F3x       Rx   d 8 00 00 00 00 00 00 00 00
   0.728000 1  18F138F3x       Rx   d 8 00 00 00 00 00 00 00 00
   0.730000 1  18F139F3x       Rx   d 8 00 00 00 00 00 00 00 00
   0.732000 1  18F13AF3x       Rx   d 8 00 00 00 00 00 00 00 00
   0.734000 1  CFF21CAx        Rx   d 8 07 00 80 0C 47 40 00 14
   0.736000 1  18F13BF3x       Rx   d 8 00 00 00 00 00 00 00 00
   0.737000 1  18F13CF3x       Rx   d 8 00 00 00 00 00 00 00 00
   0.739000 1  18F155F3x       Rx   d 8 36 35 36 36 35 36 36 00
   0.741000 1  18F156F3x       Rx   d 8 00 00 00 00 00 00 00 00
   0.743000 1  18F157F3x       Rx   d 8 00 00 00 00 00 00 00 00
   0.745000 1  18F158F3x       Rx   d 8 00 00 00 00 00 00 00 00
   0.747000 1  18F159F3x       Rx   d 8 00 00 00 00 00 00 00 00
   0.748000 1  18F15AF3x       Rx   d 8 00 00 00 00 00 00 00 00
   0.750000 1  18F15BF3x       Rx   d 7 00 00 00 00 00 00 00
   0.752000 1  18F15CF3x       Rx   d 8 00 00 00 00 00 00 00 00
   0.753000 1  18F15DF3x       Rx   d 8 00 00 00 00 00 00 00 00
   0.755000 1  18F15EF3x       Rx   d 8 00 00 00 00 00 00 00 00
   0.756000 1  CFF21CAx        Rx   d 8 07 00 80 0C 47 40 00 14
   0.758000 1  18F100D0x       Rx   d 8 0C FF FF FF FF FF FF FF
   0.759000 1  CFF21CAx        Rx   d 8 07 00 80 0C 47 40 00 14
   0.760000 1  CFF21CAx        Rx   d 8 07 00 80 0C 47 40 00 14
   0.813000 1  18F100D0x       Rx   d 8 0C FF FF FF FF FF FF FF
   0.815000 1  CFF21CAx        Rx   d 8 09 00 80 0C 47 40 00 14
   0.816000 1  18FF2112x       Rx   d 8 01 00 00 00 00 00 00 00
   0.818000 1  18F100F3x       Rx   d 8 02 D9 7D AB 7E FA 14 00
   0.820000 1  18F102F3x       Rx   d 8 0E 41 0E 3C 10 0C 00 05
   0.822000 1  18F106F3x       Rx   d 8 45 E0 FC FF FF FF FF FF
   0.824000 1  18F107F3x       Rx   d 8 38 A4 30 70 01 48 00 AF
   0.826000 1  18F108F3x       Rx   d 8 00 00 00 00 00 00 00 00
   0.828000 1  18F155F3x       Rx   d 8 36 35 36 36 35 36 36 00
   0.830000 1  18F156F3x       Rx   d 8 00 00 00 00 00 00 00 00
   0.832000 1  18F157F3x       Rx   d 8 00 00 00 00 00 00 00 00
   0.834000 1  CFF21CAx        Rx   d 8 09 00 80 0C 47 40 00 14
   0.836000 1  18F100D0x       Rx   d 8 0C FF FF FF FF FF FF FF
   0.838000 1  18F158F3x       Rx   d 8 00 00 00 00 00 00 00 00
   0.840000 1  18F159F3x       Rx   d 8 00 00 00 00 00 00 00 00
   0.842000 1  18F15AF3x       Rx   d 8 00 00 00 00 00 00 00 00
   0.844000 1  18F15BF3x       Rx   d 7 00 00 00 00 00 00 00
   0.846000 1  18F15CF3x       Rx   d 8 00 00 00 00 00 00 00 00
   0.848000 1  18F15DF3x       Rx   d 8 00 00 00 00 00 00 00 00
   0.850000 1  18F15EF3x       Rx   d 8 00 00 00 00 00 00 00 00
   0.852000 1  CFF21CAx        Rx   d 8 09 00 80 0C 47 40 00 14
   0.854000 1  CFF21CAx        Rx   d 8 0C 00 80 0C 47 40 00 14
   0.855000 1  18F100D0x       Rx   d 8 0C FF FF FF FF FF FF FF
   0.857000 1  CFF21CAx        Rx   d 8 0C 00 80 0C 47 40 00 14
   0.858000 1  CFF21CAx        Rx   d 8 0C 00 80 0C 47 40 00 14
   0.859000 1  18F100D0x       Rx   d 8 0C FF FF FF FF FF FF FF
   0.861000 1  CFF21CAx        Rx   d 8 0F 00 80 0C 47 40 00 14
   0.862000 1  18F100D0x       Rx   d 8 0C FF FF FF FF FF FF FF
   0.916000 1  CFF21CAx        Rx   d 8 0F 00 80 0C 47 40 00 14
   0.918000 1  CFF21CAx        Rx   d 8 13 00 80 0C 47 40 00 14
   0.919000 1  18FF2112x       Rx   d 8 01 00 00 00 00 00 00 00
   0.921000 1  18F100D0x       Rx   d 8 0C FF FF FF FF FF FF FF
   0.924000 1  18F100F3x       Rx   d 8 02 D9 7D AB 7E FA 14 00
   0.926000 1  18F102F3x       Rx   d 8 0E 41 0E 3C 10 0C 00 05
   0.928000 1  18F106F3x       Rx   d 8 45 E0 FC FF FF FF FF FF
   0.930000 1  18F107F3x       Rx   d 8 38 A4 30 70 01 48 00 AF
   0.932000 1  CFF21CAx        Rx   d 8 13 00 80 0C 47 40 00 14
   0.934000 1  18F108F3x       Rx   d 8 00 00 00 00 00 00 00 00
   0.936000 1  18F155F3x       Rx   d 8 36 35 36 36 35 36 36 00
   0.938000 1  18F156F3x       Rx   d 8 00 00 00 00 00 00 00 00
   0.940000 1  18F157F3x       Rx   d 8 00 00 00 00 00 00 00 00
   0.942000 1  18F158F3x       Rx   d 8 00 00 00 00 00 00 00 00
   0.944000 1  18F159F3x       Rx   d 8 00 00 00 00 00 00 00 00
   0.945000 1  18F15AF3x       Rx   d 8 00 00 00 00 00 00 00 00
   0.947000 1  18F15BF3x       Rx   d 7 00 00 00 00 00 00 00
   0.949000 1  18F15CF3x       Rx   d 8 00 00 00 00 00 00 00 00
   0.951000 1  18F15DF3x       Rx   d 8 00 00 00 00 00 00 00 00
   0.952000 1  18F15EF3x       Rx   d 8 00 00 00 00 00 00 00 00
   0.954000 1  CFF21CAx        Rx   d 8 13 00 80 0C 47 40 00 14
   0.956000 1  18F100D0x       Rx   d 8 0C FF FF FF FF FF FF FF
   0.958000 1  CFF21CAx        Rx   d 8 17 00 80 0C 47 40 00 14
   0.959000 1  CFF21CAx        Rx   d 8 17 00 80 0C 47 40 00 14
   0.960000 1  18F100D0x       Rx   d 8 0C FF FF FF FF FF FF FF
   0.962000 1  CFF21CAx        Rx   d 8 17 00 80 0C 47 40 00 14
   0.963000 1  CFF21CAx        Rx   d 8 1C 00 80 0C 47 40 00 14
   0.965000 1  18F100D0x       Rx   d 8 0C FF FF FF FF FF FF FF
   1.018000 1  CFF21CAx        Rx   d 8 1C 00 80 0C 47 40 00 14
   1.019000 1  CFF21CAx        Rx   d 8 1C 00 80 0C 47 40 00 14
   1.021000 1  18F100D0x       Rx   d 8 0C FF FF FF FF FF FF FF
   1.023000 1  18FF2112x       Rx   d 8 01 00 00 00 00 00 00 00
   1.025000 1  18F100F3x       Rx   d 8 02 D9 7D AE 7E FA 14 00
   1.027000 1  CFF21CAx        Rx   d 8 20 00 80 0C 47 40 00 14
   1.029000 1  18F102F3x       Rx   d 8 0E 41 0E 3C 10 0C 00 05
   1.030000 1  18F106F3x       Rx   d 8 45 E0 FC FF FF FF FF FF
   1.032000 1  18F107F3x       Rx   d 8 38 A4 30 70 01 48 00 AF
   1.034000 1  18F108F3x       Rx   d 8 00 00 00 00 00 00 00 00
   1.036000 1  18F155F3x       Rx   d 8 36 35 36 36 35 36 36 00
   1.038000 1  18F156F3x       Rx   d 8 00 00 00 00 00 00 00 00
   1.040000 1  18F157F3x       Rx   d 8 00 00 00 00 00 00 00 00
   1.042000 1  18F158F3x       Rx   d 8 00 00 00 00 00 00 00 00
   1.044000 1  18F159F3x       Rx   d 8 00 00 00 00 00 00 00 00
   1.046000 1  18F15AF3x       Rx   d 8 00 00 00 00 00 00 00 00
   1.048000 1  18F15BF3x       Rx   d 7 00 00 00 00 00 00 00
   1.050000 1  CFF21CAx        Rx   d 8 20 00 80 0C 47 40 00 14
   1.052000 1  18F15CF3x       Rx   d 8 00 00 00 00 00 00 00 00
   1.054000 1  18F15DF3x       Rx   d 8 00 00 00 00 00 00 00 00
   1.056000 1  18F15EF3x       Rx   d 8 00 00 00 00 00 00 00 00
   1.057000 1  18F100D0x       Rx   d 8 0C FF FF FF FF FF FF FF
   1.059000 1  CFF21CAx        Rx   d 8 26 00 80 0C 47 40 00 14
   1.061000 1  CFF21CAx        Rx   d 8 26 00 9A 0C 47 40 00 14
   1.062000 1  18F100D0x       Rx   d 8 0C FF FF FF FF FF FF FF
   1.063000 1  CFF21CAx        Rx   d 8 2A 00 B0 0C 47 40 00 14
   1.065000 1  CFF21CAx        Rx   d 8 2A 00 C6 0C 47 40 00 14
   1.066000 1  18F100D0x       Rx   d 8 0C FF FF FF FF FF FF FF
   1.068000 1  CFF21CAx        Rx   d 8 2A 00 CB 0C 47 40 00 14
   1.120000 1  CFF21CAx        Rx   d 8 2A 00 CE 0C 47 40 00 14
   1.121000 1  18F100D0x       Rx   d 8 0C FF FF FF FF FF FF FF
   1.123000 1  18FF2112x       Rx   d 8 01 00 00 00 00 00 00 00
   1.125000 1  CFF21CAx        Rx   d 8 2A 00 D9 0C 47 40 00 14
   1.127000 1  18F100F3x       Rx   d 8 02 D9 7D AE 7E FA 14 00
   1.129000 1  18F102F3x       Rx   d 8 0E 41 0E 3C 10 0C 00 05
   1.131000 1  18F106F3x       Rx   d 8 45 E0 FC FF FF FF FF FF
   1.133000 1  18F107F3x       Rx   d 8 38 A4 30 70 01 48 00 AF
   1.135000 1  18F108F3x       Rx   d 8 00 00 00 00 00 00 00 00
   1.137000 1  18F155F3x       Rx   d 8 36 35 36 36 35 36 36 00
   1.139000 1  18F156F3x       Rx   d 8 00 00 00 00 00 00 00 00
   1.141000 1  18F157F3x       Rx   d 8 00 00 00 00 00 00 00 00
   1.143000 1  18F158F3x       Rx   d 8 00 00 00 00 00 00 00 00
   1.145000 1  CFF21CAx        Rx   d 8 2A 00 D9 0C 47 40 00 14
   1.147000 1  18F159F3x       Rx   d 8 00 00 00 00 00 00 00 00
   1.149000 1  18F15AF3x       Rx   d 8 00 00 00 00 00 00 00 00
   1.151000 1  18F15BF3x       Rx   d 7 00 00 00 00 00 00 00
   1.152000 1  18F100D0x       Rx   d 8 0C FF FF FF FF FF FF FF
   1.154000 1  18F15CF3x       Rx   d 8 00 00 00 00 00 00 00 00
   1.156000 1  18F15DF3x       Rx   d 8 00 00 00 00 00 00 00 00
   1.158000 1  18F15EF3x       Rx   d 8 00 00 00 00 00 00 00 00
   1.160000 1  CFF21CAx        Rx   d 8 29 00 E2 0C 47 40 00 14
   1.162000 1  CFF21CAx        Rx   d 8 29 00 E5 0C 47 40 00 14
   1.163000 1  18F100D0x       Rx   d 8 0C FF FF FF FF FF FF FF
   1.165000 1  CFF21CAx        Rx   d 8 29 00 EB 0C 47 40 00 14
   1.166000 1  CFF21CAx        Rx   d 8 27 00 F2 0C 47 40 00 14
   1.167000 1  18F100D0x       Rx   d 8 0C FF FF FF FF FF FF FF
   1.169000 1  CFF21CAx        Rx   d 8 27 00 F9 0C 47 40 00 14
   1.170000 1  CFF21CAx        Rx   d 8 27 00 F9 0C 47 40 00 14
   1.247000 1  18F100D0x       Rx   d 8 0C FF FF FF FF FF FF FF
   1.253000 1  18FF2112x       Rx   d 8 01 00 00 00 00 00 00 00
   1.254000 1  CFF21CAx        Rx   d 8 26 00 0B 0D 47 40 00 14
   1.257000 1  18F100F3x       Rx   d 8 02 D9 7D AE 7E FA 14 00
   1.259000 1  18F102F3x       Rx   d 8 0E 41 0E 3C 10 0C 00 05
   1.260000 1  18F106F3x       Rx   d 8 45 E0 FC FF FF FF FF FF
   1.263000 1  18F107F3x       Rx   d 8 38 A4 30 70 01 48 00 AF
   1.264000 1  18F108F3x       Rx   d 8 00 00 00 00 00 00 00 00
   1.266000 1  CFF21CAx        Rx   d 8 26 00 11 0D 47 40 00 14
   1.267000 1  18F155F3x       Rx   d 8 36 35 36 36 35 36 36 00
   1.269000 1  18F156F3x       Rx   d 8 00 00 00 00 00 00 00 00
   1.270000 1  18F157F3x       Rx   d 8 00 00 00 00 00 00 00 00
   1.271000 1  18F158F3x       Rx   d 8 00 00 00 00 00 00 00 00
   1.273000 1  18F100D0x       Rx   d 8 0C FF FF FF FF FF FF FF
   1.325000 1  18F159F3x       Rx   d 8 00 00 00 00 00 00 00 00
   1.326000 1  18F15AF3x       Rx   d 8 00 00 00 00 00 00 00 00
   1.328000 1  18F15BF3x       Rx   d 7 00 00 00 00 00 00 00
   1.330000 1  18F15CF3x       Rx   d 8 00 00 00 00 00 00 00 00
   1.332000 1  18F15DF3x       Rx   d 8 00 00 00 00 00 00 00 00
   1.334000 1  18F15EF3x       Rx   d 8 00 00 00 00 00 00 00 00
   1.335000 1  CFF21CAx        Rx   d 8 24 00 17 0D 47 40 00 14
   1.336000 1  CFF21CAx        Rx   d 8 24 00 14 0D 47 40 00 14
   1.338000 1  18F100D0x       Rx   d 8 0C FF FF FF FF FF FF FF
   1.339000 1  CFF21CAx        Rx   d 8 24 00 19 0D 47 40 00 14
   1.340000 1  CFF21CAx        Rx   d 8 24 00 31 0D 47 40 00 14
   1.371000 1  18F100D0x       Rx   d 8 0C FF FF FF FF FF FF FF
   1.373000 1  CFF21CAx        Rx   d 8 24 00 2A 0D 47 40 00 14
   1.374000 1  CFF21CAx        Rx   d 8 22 00 38 0D 47 40 00 14
   1.375000 1  18F100D0x       Rx   d 8 0C FF FF FF FF FF FF FF
   1.377000 1  18FF2112x       Rx   d 8 01 00 00 00 00 00 00 00
   1.378000 1  CFF21CAx        Rx   d 8 22 00 36 0D 47 40 00 14
   1.380000 1  18F100F3x       Rx   d 8 02 D9 7D B4 7E FA 14 00
   1.381000 1  18F102F3x       Rx   d 8 0E 41 0E 3C 10 0C 00 05
   1.429000 1  CFF21CAx        Rx   d 8 22 00 38 0D 47 40 00 14
   1.430000 1  18F106F3x       Rx   d 8 45 E0 FC FF FF FF FF FF
   1.432000 1  18F107F3x       Rx   d 8 38 A4 30 70 01 48 00 AF
   1.434000 1  18F108F3x       Rx   d 8 00 00 00 00 00 00 00 00
   1.436000 1  18F155F3x       Rx   d 8 36 35 36 36 35 36 36 00
   1.438000 1  18F156F3x       Rx   d 8 00 00 00 00 00 00 00 00
   1.440000 1  18F157F3x       Rx   d 8 00 00 00 00 00 00 00 00
   1.442000 1  18F158F3x       Rx   d 8 00 00 00 00 00 00 00 00
   1.444000 1  18F100D0x       Rx   d 8 0C FF FF FF FF FF FF FF
   1.446000 1  18F159F3x       Rx   d 8 00 00 00 00 00 00 00 00
   1.448000 1  18F15AF3x       Rx   d 8 00 00 00 00 00 00 00 00
   1.450000 1  18F15BF3x       Rx   d 7 00 00 00 00 00 00 00
   1.452000 1  18F15CF3x       Rx   d 8 00 00 00 00 00 00 00 00
   1.454000 1  18F15DF3x       Rx   d 8 00 00 00 00 00 00 00 00
   1.456000 1  CFF21CAx        Rx   d 8 22 00 41 0D 47 40 00 14
   1.457000 1  18F15EF3x       Rx   d 8 00 00 00 00 00 00 00 00
   1.459000 1  CFF21CAx        Rx   d 8 22 00 43 0D 47 40 00 14
   1.461000 1  18F100D0x       Rx   d 8 0C FF FF FF FF FF FF FF
   1.463000 1  CFF21CAx        Rx   d 8 22 00 45 0D 47 40 00 14
   1.466000 1  CFF21CAx        Rx   d 8 22 00 4C 0D 47 40 00 14
   1.467000 1  18F100D0x       Rx   d 8 0C FF FF FF FF FF FF FF
   1.469000 1  CFF21CAx        Rx   d 8 22 00 54 0D 47 40 00 14
   1.471000 1  CFF21CAx        Rx   d 8 21 00 5D 0D 47 40 00 14
   1.472000 1  18FF2112x       Rx   d 8 01 00 00 00 00 00 00 00
   1.473000 1  18F100D0x       Rx   d 8 0C FF FF FF FF FF FF FF
   1.475000 1  CFF21CAx        Rx   d 8 21 00 62 0D 47 40 00 14
   1.476000 1  CFF21CAx        Rx   d 8 21 00 6F 0D 47 40 00 14
   1.478000 1  18F100F3x       Rx   d 8 02 D9 7D B4 7E FA 14 00
   1.529000 1  18F102F3x       Rx   d 8 0E 41 0E 3C 10 01 00 05
   1.531000 1  18F106F3x       Rx   d 8 45 E0 FC FF FF FF FF FF
   1.533000 1  18F107F3x       Rx   d 8 38 A4 30 70 01 48 00 AF
   1.535000 1  18F108F3x       Rx   d 8 00 00 00 00 00 00 00 00
   1.538000 1  18F155F3x       Rx   d 8 36 35 36 36 35 36 36 00
   1.539000 1  18F100D0x       Rx   d 8 0C FF FF FF FF FF FF FF
   1.541000 1  18F156F3x       Rx   d 8 00 00 00 00 00 00 00 00
   1.543000 1  18F157F3x       Rx   d 8 00 00 00 00 00 00 00 00
   1.545000 1  18F158F3x       Rx   d 8 00 00 00 00 00 00 00 00
   1.547000 1  18F159F3x       Rx   d 8 00 00 00 00 00 00 00 00
   1.549000 1  CFF21CAx        Rx   d 8 22 00 73 0D 47 40 00 14
   1.550000 1  18F15AF3x       Rx   d 8 00 00 00 00 00 00 00 00
   1.552000 1  18F15BF3x       Rx   d 7 00 00 00 00 00 00 00
   1.554000 1  18F15CF3x       Rx   d 8 00 00 00 00 00 00 00 00
   1.556000 1  18F15DF3x       Rx   d 8 00 00 00 00 00 00 00 00
   1.558000 1  18F15EF3x       Rx   d 8 00 00 00 00 00 00 00 00
   1.560000 1  CFF21CAx        Rx   d 8 22 00 7C 0D 47 40 00 14
   1.562000 1  18F100D0x       Rx   d 8 0C FF FF FF FF FF FF FF
   1.564000 1  CFF21CAx        Rx   d 8 22 00 82 0D 47 40 00 14
   1.566000 1  CFF21CAx        Rx   d 8 22 00 8C 0D 47 40 00 14
   1.568000 1  18F100D0x       Rx   d 8 0C FF FF FF FF FF FF FF
   1.569000 1  CFF21CAx        Rx   d 8 22 00 8D 0D 47 40 00 14
   1.571000 1  CFF21CAx        Rx   d 8 21 00 9A 0D 47 40 00 14
   1.573000 1  18F100D0x       Rx   d 8 0C FF FF FF FF FF FF FF
   1.574000 1  18FF2112x       Rx   d 8 01 00 00 00 00 00 00 00
   1.576000 1  CFF21CAx        Rx   d 8 21 00 99 0D 47 40 00 14
   1.577000 1  CFF21CAx        Rx   d 8 21 00 A6 0D 47 40 00 14
   1.578000 1  18F100F3x       Rx   d 8 02 D9 7D BA 7E FA 14 00
   1.580000 1  18F102F3x       Rx   d 8 0E 41 0E 3C 10 01 00 05
   1.634000 1  18F106F3x       Rx   d 8 45 E0 FC FF FF FF FF FF
   1.635000 1  18F100D0x       Rx   d 8 0C FF FF FF FF FF FF FF
   1.637000 1  18F107F3x       Rx   d 8 38 A4 30 70 01 48 00 AF
   1.639000 1  18F108F3x       Rx   d 8 00 00 00 00 00 00 00 00
   1.641000 1  18F155F3x       Rx   d 8 36 35 36 36 35 36 36 00
   1.643000 1  CFF21CAx        Rx   d 8 22 00 AB 0D 47 40 00 14
   1.645000 1  18F156F3x       Rx   d 8 00 00 00 00 00 00 00 00
   1.646000 1  18F157F3x       Rx   d 8 00 00 00 00 00 00 00 00
   1.648000 1  18F158F3x       Rx   d 8 00 00 00 00 00 00 00 00
   1.650000 1  18F159F3x       Rx   d 8 00 00 00 00 00 00 00 00
   1.653000 1  18F15AF3x       Rx   d 8 00 00 00 00 00 00 00 00
   1.654000 1  18F15BF3x       Rx   d 7 00 00 00 00 00 00 00
   1.656000 1  18F15CF3x       Rx   d 8 00 00 00 00 00 00 00 00
   1.658000 1  18F15DF3x       Rx   d 8 00 00 00 00 00 00 00 00
   1.660000 1  18F15EF3x       Rx   d 8 00 00 00 00 00 00 00 00
   1.662000 1  CFF21CAx        Rx   d 8 22 00 B8 0D 47 40 00 14
   1.663000 1  CFF21CAx        Rx   d 8 23 00 C4 0D 47 40 00 14
   1.665000 1  18F100D0x       Rx   d 8 0C FF FF FF FF FF FF FF
   1.668000 1  CFF21CAx        Rx   d 8 23 00 C4 0D 47 40 00 14
   1.669000 1  18F100D0x       Rx   d 8 0C FF FF FF FF FF FF FF
   1.672000 1  CFF21CAx        Rx   d 8 23 00 CF 0D 47 40 00 14
   1.673000 1  CFF21CAx        Rx   d 8 24 00 D5 0D 47 40 00 14
   1.675000 1  18FF2112x       Rx   d 8 01 00 00 00 00 00 00 00
   1.677000 1  CFF21CAx        Rx   d 8 24 00 E2 0D 47 40 00 14
   1.678000 1  18F100D0x       Rx   d 8 0C FF FF FF FF FF FF FF
   1.679000 1  CFF21CAx        Rx   d 8 24 00 E4 0D 47 40 00 14
   1.681000 1  18F100F3x       Rx   d 8 02 D9 7D BA 7E FA 14 00
   1.682000 1  18F102F3x       Rx   d 8 0E 41 0E 3C 10 01 00 05
   1.684000 1  18F106F3x       Rx   d 8 45 E0 FC FF FF FF FF FF
   1.735000 1  CFF21CAx        Rx   d 8 26 00 F2 0D 47 40 00 14
   1.736000 1  18F100D0x       Rx   d 8 0C FF FF FF FF FF FF FF
   1.738000 1  18F107F3x       Rx   d 8 38 A4 30 70 01 48 00 AF
   1.740000 1  18FECACAx       Rx   d 8 00 00 00 00 00 00 FF FF
   1.742000 1  18F108F3x       Rx   d 8 00 00 00 00 00 00 00 00
   1.744000 1  18F155F3x       Rx   d 8 36 35 36 36 35 36 36 00
   1.746000 1  18F156F3x       Rx   d 8 00 00 00 00 00 00 00 00
   1.748000 1  18F157F3x       Rx   d 8 00 00 00 00 00 00 00 00
   1.750000 1  18F158F3x       Rx   d 8 00 00 00 00 00 00 00 00
   1.752000 1  18F159F3x       Rx   d 8 00 00 00 00 00 00 00 00
   1.753000 1  18F15AF3x       Rx   d 8 00 00 00 00 00 00 00 00
   1.755000 1  18F15BF3x       Rx   d 7 00 00 00 00 00 00 00
   1.757000 1  18F15CF3x       Rx   d 8 00 00 00 00 00 00 00 00
   1.759000 1  18F15DF3x       Rx   d 8 00 00 00 00 00 00 00 00
   1.761000 1  18F15EF3x       Rx   d 8 00 00 00 00 00 00 00 00
   1.763000 1  CFF21CAx        Rx   d 8 26 00 F8 0D 47 40 00 14
   1.765000 1  CFF21CAx        Rx   d 8 27 00 0B 0E 47 40 00 14
   1.767000 1  18F100D0x       Rx   d 8 0C FF FF FF FF FF FF FF
   1.769000 1  CFF21CAx        Rx   d 8 27 00 14 0E 47 40 00 14
   1.771000 1  CFF21CAx        Rx   d 8 27 00 1E 0E 47 40 00 14
   1.773000 1  18F100D0x       Rx   d 8 0C FF FF FF FF FF FF FF
   1.775000 1  CFF21CAx        Rx   d 8 29 00 28 0E 47 40 00 14
   1.777000 1  18FF2112x       Rx   d 8 01 00 00 00 00 00 00 00
   1.778000 1  CFF21CAx        Rx   d 8 29 00 33 0E 47 40 00 14
   1.779000 1  18F100D0x       Rx   d 8 0C FF FF FF FF FF FF FF
   1.781000 1  CFF21CAx        Rx   d 8 2C 00 43 0E 47 40 00 14
   1.782000 1  CFF21CAx        Rx   d 8 2C 00 47 0E 47 40 00 14
   1.783000 1  18F100D0x       Rx   d 8 0C FF FF FF FF FF FF FF
   1.785000 1  18F100F3x       Rx   d 8 02 D9 7D BA 7E FA 14 00
   1.835000 1  18F102F3x       Rx   d 8 0E 41 0E 3C 10 01 00 05
   1.837000 1  18F106F3x       Rx   d 8 45 E0 FC FF FF FF FF FF
   1.839000 1  18F107F3x       Rx   d 8 38 A4 30 70 01 48 00 AF
   1.841000 1  18F108F3x       Rx   d 8 00 00 00 00 00 00 00 00
   1.843000 1  18F104F3x       Rx   d 8 36 35 01 02 01 FF FF FF
   1.845000 1  18F113F3x       Rx   d 8 0E 3C 0E 3D 0E 3E 0E 3F
   1.847000 1  18F114F3x       Rx   d 8 0E 3F 0E 3E 0E 3F 0E 3E
   1.848000 1  18F115F3x       Rx   d 8 0E 3E 0E 3E 0E 3E 0E 3C
   1.850000 1  18F116F3x       Rx   d 8 0E 40 0E 3F 0E 40 0E 41
   1.852000 1  18F117F3x       Rx   d 8 0E 3E 0E 40 0E 41 0E 40
   1.854000 1  CFF21CAx        Rx   d 8 2C 00 55 0E 47 40 00 14
   1.856000 1  18F118F3x       Rx   d 8 00 00 00 00 00 00 00 00
   1.858000 1  18F119F3x       Rx   d 8 00 00 00 00 00 00 00 00
   1.860000 1  18F11AF3x       Rx   d 8 00 00 00 00 00 00 00 00
   1.861000 1  18F11BF3x       Rx   d 8 00 00 00 00 00 00 00 00
   1.863000 1  18F11CF3x       Rx   d 8 00 00 00 00 00 00 00 00
   1.865000 1  18F11DF3x       Rx   d 8 00 00 00 00 00 00 00 00
   1.867000 1  18F11EF3x       Rx   d 8 00 00 00 00 00 00 00 00
   1.869000 1  18F11FF3x       Rx   d 8 00 00 00 00 00 00 00 00
   1.871000 1  18F120F3x       Rx   d 8 00 00 00 00 00 00 00 00
   1.873000 1  18F121F3x       Rx   d 8 00 00 00 00 00 00 00 00
   1.875000 1  18F122F3x       Rx   d 8 00 00 00 00 00 00 00 00
   1.876000 1  CFF21CAx        Rx   d 8 2E 00 63 0E 47 40 00 14
   1.878000 1  18F126F3x       Rx   d 8 00 00 00 00 00 00 00 00
   1.880000 1  18F100D0x       Rx   d 8 0C FF FF FF FF FF FF FF
   1.881000 1  18F12AF3x       Rx   d 8 00 00 00 00 00 00 00 00
   1.883000 1  18F12CF3x       Rx   d 8 00 00 00 00 00 00 00 00
   1.884000 1  18F12EF3x       Rx   d 8 00 00 00 00 00 00 00 00
   1.885000 1  CFF21CAx        Rx   d 8 2E 00 76 0E 47 40 00 14
   1.887000 1  18F132F3x       Rx   d 8 00 00 00 00 00 00 00 00
   1.940000 1  18F134F3x       Rx   d 8 00 00 00 00 00 00 00 00
   1.942000 1  18F136F3x       Rx   d 8 00 00 00 00 00 00 00 00
   1.943000 1  18F139F3x       Rx   d 8 00 00 00 00 00 00 00 00
   1.944000 1  18F13BF3x       Rx   d 8 00 00 00 00 00 00 00 00
   1.946000 1  CFF21CAx        Rx   d 8 2E 00 86 0E 47 40 00 14
   1.947000 1  18F156F3x       Rx   d 8 00 00 00 00 00 00 00 00
   1.948000 1  18F158F3x       Rx   d 8 00 00 00 00 00 00 00 00
   1.949000 1  18F100D0x       Rx   d 8 0C FF FF FF FF FF FF FF
   1.977000 1  18F15AF3x       Rx   d 8 00 00 00 00 00 00 00 00
   1.980000 1  18F15CF3x       Rx   d 8 00 00 00 00 00 00 00 00
   1.982000 1  18F15DF3x       Rx   d 8 00 00 00 00 00 00 00 00
   1.984000 1  18F157F3x       Rx   d 8 00 00 00 00 00 00 00 00
   1.985000 1  18F158F3x       Rx   d 8 00 00 00 00 00 00 00 00
   1.986000 1  18F15BF3x       Rx   d 7 00 00 00 00 00 00 00
   1.988000 1  18F15DF3x       Rx   d 8 00 00 00 00 00 00 00 00
   1.989000 1  CFF21CAx        Rx   d 8 33 00 E1 0E 47 40 00 14
   1.990000 1  18F100D0x       Rx   d 8 0C FF FF FF FF FF FF FF
   2.042000 1  CFF21CAx        Rx   d 8 34 00 E1 0E 47 40 00 14
   2.048000 1  CFF21CAx        Rx   d 8 34 00 00 0F 47 40 00 14
   2.049000 1  18F100D0x       Rx   d 8 0C FF FF FF FF FF FF FF
   2.051000 1  CFF21CAx        Rx   d 8 34 00 00 0F 47 40 00 14
   2.053000 1  18FF2112x       Rx   d 8 01 00 00 00 00 00 00 00
   2.054000 1  CFF21CAx        Rx   d 8 35 00 1B 0F 47 40 00 14
   2.056000 1  18F100D0x       Rx   d 8 0C FF FF FF FF FF FF FF
   2.057000 1  CFF21CAx        Rx   d 8 35 00 1B 0F 47 40 00 14
   2.059000 1  CFF21CAx        Rx   d 8 35 00 3A 0F 47 40 00 14
   2.061000 1  18F100F3x       Rx   d 8 02 D9 7D CE 7E FA 14 00
   2.063000 1  18F100D0x       Rx   d 8 0C FF FF FF FF FF FF FF
   2.065000 1  18F102F3x       Rx   d 8 0E 41 0E 3C 10 01 00 05
   2.066000 1  18F106F3x       Rx   d 8 45 E0 FC FF FF FF FF FF
   2.067000 1  18F107F3x       Rx   d 8 38 A4 30 70 01 48 00 AF
   2.069000 1  CFF21CAx        Rx   d 8 35 00 45 0F 47 40 00 14
   2.070000 1  18F108F3x       Rx   d 8 00 00 00 00 00 00 00 00
   2.099000 1  18F155F3x       Rx   d 8 36 35 36 36 35 36 36 00
   2.101000 1  18F156F3x       Rx   d 8 00 00 00 00 00 00 00 00
   2.144000 1  18F157F3x       Rx   d 8 00 00 00 00 00 00 00 00
   2.145000 1  18F158F3x       Rx   d 8 00 00 00 00 00 00 00 00
   2.147000 1  18F159F3x       Rx   d 8 00 00 00 00 00 00 00 00
   2.149000 1  18F15AF3x       Rx   d 8 00 00 00 00 00 00 00 00
   2.150000 1  18F15BF3x       Rx   d 7 00 00 00 00 00 00 00
   2.152000 1  18F15CF3x       Rx   d 8 00 00 00 00 00 00 00 00
   2.154000 1  18F15DF3x       Rx   d 8 00 00 00 00 00 00 00 00
   2.156000 1  CFF21CAx        Rx   d 8 35 00 4E 0F 47 40 00 14
   2.158000 1  18F100D0x       Rx   d 8 0C FF FF FF FF FF FF FF
   2.160000 1  CFF21CAx        Rx   d 8 36 00 6B 0F 47 40 00 14
   2.162000 1  CFF21CAx        Rx   d 8 36 00 76 0F 47 40 00 14
   2.163000 1  CFF21CAx        Rx   d 8 35 00 8B 0F 47 40 00 14
   2.166000 1  18F100D0x       Rx   d 8 0C FF FF FF FF FF FF FF
   2.167000 1  CFF21CAx        Rx   d 8 35 00 A3 0F 47 40 00 14
   2.170000 1  18FF2112x       Rx   d 8 01 00 00 00 00 00 00 00
   2.171000 1  CFF21CAx        Rx   d 8 35 00 AB 0F 47 40 00 14
   2.173000 1  18F100D0x       Rx   d 8 0C FF FF FF FF FF FF FF
   2.175000 1  CFF21CAx        Rx   d 8 35 00 B8 0F 47 40 00 14
   2.177000 1  18F100F3x       Rx   d 8 02 D9 7D FB 7E FA 14 00
   2.179000 1  CFF21CAx        Rx   d 8 35 00 C7 0F 47 40 00 14
   2.181000 1  18F102F3x       Rx   d 8 0E 41 0E 3C 10 01 00 05
   2.183000 1  18F106F3x       Rx   d 8 45 E0 FC FF FF FF FF FF
   2.185000 1  18F107F3x       Rx   d 8 38 A4 30 70 01 48 00 AF
   2.186000 1  18F100D0x       Rx   d 8 0C FF FF FF FF FF FF FF
   2.188000 1  18F108F3x       Rx   d 8 00 00 00 00 00 00 00 00
   2.189000 1  18F155F3x       Rx   d 8 36 35 36 36 35 36 36 00
   2.191000 1  18F156F3x       Rx   d 8 00 00 00 00 00 00 00 00
   2.192000 1  18F157F3x       Rx   d 8 00 00 00 00 00 00 00 00
   2.193000 1  18F158F3x       Rx   d 8 00 00 00 00 00 00 00 00
   2.195000 1  18F159F3x       Rx   d 8 00 00 00 00 00 00 00 00
   2.268000 1  18F15AF3x       Rx   d 8 00 00 00 00 00 00 00 00
   2.270000 1  18F15BF3x       Rx   d 7 00 00 00 00 00 00 00
   2.271000 1  CFF21CAx        Rx   d 8 35 00 C7 0F 47 40 00 14
   2.273000 1  18F15CF3x       Rx   d 8 00 00 00 00 00 00 00 00
   2.275000 1  18F15DF3x       Rx   d 8 00 00 00 00 00 00 00 00
   2.277000 1  18F15EF3x       Rx   d 8 00 00 00 00 00 00 00 00
   2.279000 1  CFF21CAx        Rx   d 8 35 00 DD 0F 47 40 00 14
   2.281000 1  18F100D0x       Rx   d 8 0C FF FF FF FF FF FF FF
   2.282000 1  CFF21CAx        Rx   d 8 35 00 EF 0F 47 40 00 14
   2.284000 1  CFF21CAx        Rx   d 8 35 00 03 10 47 40 00 14
   2.286000 1  CFF21CAx        Rx   d 8 35 00 14 10 47 40 00 14
   2.288000 1  18F100D0x       Rx   d 8 0C FF FF FF FF FF FF FF
   2.289000 1  18FF2112x       Rx   d 8 01 00 00 00 00 00 00 00
   2.291000 1  CFF21CAx        Rx   d 8 35 00 20 10 47 40 00 14
   2.292000 1  CFF21CAx        Rx   d 8 34 00 31 10 47 40 00 14
   2.294000 1  18F100D0x       Rx   d 8 0C FF FF FF FF FF FF FF
   2.295000 1  CFF21CAx        Rx   d 8 34 00 4A 10 47 40 00 14
   2.296000 1  18F100F3x       Rx   d 8 02 D9 7D FB 7E FA 14 00
   2.348000 1  18F102F3x       Rx   d 8 0E 41 0E 3C 10 01 00 05
   2.350000 1  18F106F3x       Rx   d 8 45 E0 FC FF FF FF FF FF
   2.352000 1  18F107F3x       Rx   d 8 38 A4 30 70 01 48 00 AF
   2.354000 1  18F108F3x       Rx   d 8 00 00 00 00 00 00 00 00
   2.357000 1  18F155F3x       Rx   d 8 36 35 36 36 35 36 36 00
   2.359000 1  18F156F3x       Rx   d 8 00 00 00 00 00 00 00 00
   2.360000 1  18F157F3x       Rx   d 8 00 00 00 00 00 00 00 00
   2.362000 1  18F158F3x       Rx   d 8 00 00 00 00 00 00 00 00
   2.364000 1  CFF21CAx        Rx   d 8 33 00 50 10 47 40 00 14
   2.366000 1  18F159F3x       Rx   d 8 00 00 00 00 00 00 00 00
   2.368000 1  18F15AF3x       Rx   d 8 00 00 00 00 00 00 00 00
   2.370000 1  18F15BF3x       Rx   d 7 00 00 00 00 00 00 00
   2.371000 1  18F15CF3x       Rx   d 8 00 00 00 00 00 00 00 00
   2.373000 1  18F100D0x       Rx   d 8 0C FF FF FF FF FF FF FF
   2.375000 1  18F15DF3x       Rx   d 8 00 00 00 00 00 00 00 00
   2.377000 1  18F15EF3x       Rx   d 8 00 00 00 00 00 00 00 00
   2.379000 1  CFF21CAx        Rx   d 8 33 00 50 10 47 40 00 14
   2.381000 1  CFF21CAx        Rx   d 8 33 00 64 10 47 40 00 14
   2.382000 1  18F100D0x       Rx   d 8 0C FF FF FF FF FF FF FF
   2.384000 1  CFF21CAx        Rx   d 8 33 00 76 10 47 40 00 14
   2.386000 1  CFF21CAx        Rx   d 8 33 00 82 10 47 40 00 14
   2.388000 1  18FF2112x       Rx   d 8 01 00 00 00 00 00 00 00
   2.390000 1  CFF21CAx        Rx   d 8 33 00 8C 10 47 40 00 14
   2.391000 1  18F100D0x       Rx   d 8 0C FF FF FF FF FF FF FF
   2.393000 1  CFF21CAx        Rx   d 8 33 00 99 10 47 40 00 14
   2.394000 1  CFF21CAx        Rx   d 8 33 00 B1 10 47 40 00 14
   2.396000 1  18F100D0x       Rx   d 8 0C FF FF FF FF FF FF FF
   2.397000 1  18F100F3x       Rx   d 8 02 D9 7D FB 7E FA 14 00
   2.398000 1  18F102F3x       Rx   d 8 0E 41 0E 3C 10 01 00 05
   2.451000 1  18F106F3x       Rx   d 8 45 E0 FC FF FF FF FF FF
   2.453000 1  18F107F3x       Rx   d 8 38 A4 30 70 01 48 00 AF
   2.455000 1  18F108F3x       Rx   d 8 00 00 00 00 00 00 00 00
   2.457000 1  CFF21CAx        Rx   d 8 32 00 BC 10 47 40 00 14
   2.459000 1  18F155F3x       Rx   d 8 36 35 36 36 35 36 36 00
   2.460000 1  18F156F3x       Rx   d 8 00 00 00 00 00 00 00 00
   2.462000 1  18F157F3x       Rx   d 8 00 00 00 00 00 00 00 00
   2.464000 1  18F158F3x       Rx   d 8 00 00 00 00 00 00 00 00
   2.466000 1  18F159F3x       Rx   d 8 00 00 00 00 00 00 00 00
   2.468000 1  18F15AF3x       Rx   d 8 00 00 00 00 00 00 00 00
   2.469000 1  18F15BF3x       Rx   d 7 00 00 00 00 00 00 00
   2.472000 1  18F15CF3x       Rx   d 8 00 00 00 00 00 00 00 00
   2.474000 1  18F15DF3x       Rx   d 8 00 00 00 00 00 00 00 00
   2.476000 1  18F15EF3x       Rx   d 8 00 00 00 00 00 00 00 00
   2.478000 1  CFF21CAx        Rx   d 8 32 00 BC 10 47 40 00 14
   2.480000 1  18F100D0x       Rx   d 8 0C FF FF FF FF FF FF FF
   2.482000 1  CFF21CAx        Rx   d 8 32 00 CB 10 47 40 00 14
   2.484000 1  CFF21CAx        Rx   d 8 31 00 DD 10 47 40 00 14
   2.486000 1  18F100D0x       Rx   d 8 0C FF FF FF FF FF FF FF
   2.488000 1  CFF21CAx        Rx   d 8 31 00 E9 10 47 40 00 14
   2.490000 1  18FF2112x       Rx   d 8 01 00 00 00 00 00 00 00
   2.492000 1  CFF21CAx        Rx   d 8 31 00 F8 10 47 40 00 14
   2.493000 1  CFF21CAx        Rx   d 8 30 00 05 11 47 40 00 14
   2.495000 1  18F100D0x       Rx   d 8 0C FF FF FF FF FF FF FF
   2.496000 1  CFF21CAx        Rx   d 8 30 00 0E 11 47 40 00 14
   2.497000 1  18F100F3x       Rx   d 8 02 D9 7E 16 7E FA 14 00
   2.499000 1  18F102F3x       Rx   d 8 0E 41 0E 3C 10 01 00 05
   2.500000 1  CFF21CAx        Rx   d 8 31 00 1C 11 47 40 00 14
   2.501000 1  18F100D0x       Rx   d 8 0C FF FF FF FF FF FF FF
   2.553000 1  18F106F3x       Rx   d 8 45 E0 FC FF FF FF FF FF
   2.555000 1  18F107F3x       Rx   d 8 38 A4 30 70 01 48 00 AF
   2.557000 1  18F108F3x       Rx   d 8 00 00 00 00 00 00 00 00
   2.558000 1  18F155F3x       Rx   d 8 36 35 36 36 35 36 36 00
   2.560000 1  CFF21CAx        Rx   d 8 31 00 32 11 47 40 00 14
   2.562000 1  18F100D0x       Rx   d 8 0C FF FF FF FF FF FF FF
   2.564000 1  CFF21CAx        Rx   d 8 31 00 32 11 47 40 00 14
   2.566000 1  CFF21CAx        Rx   d 8 30 00 45 11 47 40 00 14
   2.568000 1  18FF2112x       Rx   d 8 01 00 00 00 00 00 00 00
   2.569000 1  18F100D0x       Rx   d 8 0C FF FF FF FF FF FF FF
   2.571000 1  CFF21CAx        Rx   d 8 30 00 56 11 47 40 00 14
   2.573000 1  CFF21CAx        Rx   d 8 30 00 5E 11 47 40 00 14
   2.575000 1  18F100D0x       Rx   d 8 0C FF FF FF FF FF FF FF
   2.577000 1  CFF21CAx        Rx   d 8 30 00 6A 11 47 40 00 14
   2.579000 1  CFF21CAx        Rx   d 8 2F 00 7A 11 47 40 00 14
   2.581000 1  18F100F3x       Rx   d 8 02 D9 7E 16 7E FA 14 00
   2.583000 1  18F102F3x       Rx   d 8 0E 41 0E 3B 10 0C 00 06
   2.585000 1  18F106F3x       Rx   d 8 45 E0 FC FF FF FF FF FF
   2.587000 1  18F107F3x       Rx   d 8 38 A4 30 70 01 48 00 AF
   2.588000 1  18F108F3x       Rx   d 8 00 00 00 00 00 00 00 00
   2.591000 1  18F155F3x       Rx   d 8 36 35 36 36 35 36 36 00
   2.593000 1  18F156F3x       Rx   d 8 00 00 00 00 00 00 00 00
   2.595000 1  CFF21CAx        Rx   d 8 2F 00 94 11 47 40 00 14
   2.596000 1  CFF21CAx        Rx   d 8 2F 00 94 11 47 40 00 14
   2.598000 1  18F100D0x       Rx   d 8 0C FF FF FF FF FF FF FF
   2.599000 1  CFF21CAx        Rx   d 8 2E 00 A2 11 47 40 00 14
   2.600000 1  18FF2112x       Rx   d 8 01 00 00 00 00 00 00 00
   2.602000 1  CFF21CAx        Rx   d 8 2E 00 AB 11 47 40 00 14
   2.603000 1  18F100D0x       Rx   d 8 0C FF FF FF FF FF FF FF
   2.605000 1  CFF21CAx        Rx   d 8 2D 00 B6 11 47 40 00 14
   2.657000 1  CFF21CAx        Rx   d 8 2D 00 C8 11 47 40 00 14
   2.658000 1  CFF21CAx        Rx   d 8 2D 00 D2 11 47 40 00 14
   2.660000 1  18F100D0x       Rx   d 8 0C FF FF FF FF FF FF FF
   2.662000 1  18F100F3x       Rx   d 8 02 D9 7E 21 7E FA 14 00
   2.664000 1  18F102F3x       Rx   d 8 0E 41 0E 3B 10 0C 00 06
   2.666000 1  18F106F3x       Rx   d 8 45 E0 FC FF FF FF FF FF
   2.668000 1  18F107F3x       Rx   d 8 38 A4 30 70 01 48 00 AF
   2.670000 1  18F108F3x       Rx   d 8 00 00 00 00 00 00 00 00
   2.672000 1  18F155F3x       Rx   d 8 36 35 36 36 35 36 36 00
   2.673000 1  CFF21CAx        Rx   d 8 2D 00 DE 11 47 40 00 14
   2.675000 1  18F156F3x       Rx   d 8 00 00 00 00 00 00 00 00
   2.676000 1  18F157F3x       Rx   d 8 00 00 00 00 00 00 00 00
   2.677000 1  18F158F3x       Rx   d 8 00 00 00 00 00 00 00 00
   2.679000 1  18F159F3x       Rx   d 8 00 00 00 00 00 00 00 00
   2.707000 1  18F15AF3x       Rx   d 8 00 00 00 00 00 00 00 00
   2.708000 1  18F15BF3x       Rx   d 7 00 00 00 00 00 00 00
   2.776000 1  18F15CF3x       Rx   d 8 00 00 00 00 00 00 00 00
   2.777000 1  18F15DF3x       Rx   d 8 00 00 00 00 00 00 00 00
   2.779000 1  18F15EF3x       Rx   d 8 00 00 00 00 00 00 00 00
   2.781000 1  CFF21CAx        Rx   d 8 2D 00 E8 11 47 40 00 14
   2.783000 1  18F100D0x       Rx   d 8 0C FF FF FF FF FF FF FF
   2.785000 1  CFF21CAx        Rx   d 8 2D 00 F0 11 47 40 00 14
   2.787000 1  18F100D0x       Rx   d 8 0C FF FF FF FF FF FF FF
   2.789000 1  18FF2112x       Rx   d 8 01 00 00 00 00 00 00 00
   2.790000 1  CFF21CAx        Rx   d 8 2D 00 FA 11 47 40 00 14
   2.792000 1  CFF21CAx        Rx   d 8 2D 00 0A 12 47 40 00 14
   2.793000 1  18F100D0x       Rx   d 8 0C FF FF FF FF FF FF FF
   2.795000 1  CFF21CAx        Rx   d 8 2D 00 16 12 47 40 00 14
   2.796000 1  CFF21CAx        Rx   d 8 2D 00 1F 12 47 40 00 14
   2.797000 1  18F100D0x       Rx   d 8 0C FF FF FF FF FF FF FF
   2.822000 1  18F100F3x       Rx   d 8 02 D9 7E 21 7E FA 14 00
   2.824000 1  18F102F3x       Rx   d 8 0E 41 0E 3B 10 0C 00 06
   2.825000 1  18F106F3x       Rx   d 8 45 E0 FC FF FF FF FF FF
   2.826000 1  CFF21CAx        Rx   d 8 2C 00 2D 12 47 40 00 14
   2.860000 1  18F107F3x       Rx   d 8 38 A4 30 70 01 48 00 AF
   2.862000 1  18F108F3x       Rx   d 8 00 00 00 00 00 00 00 00
   2.864000 1  18F155F3x       Rx   d 8 36 35 36 36 35 36 36 00
   2.866000 1  18F156F3x       Rx   d 8 00 00 00 00 00 00 00 00
   2.867000 1  18F157F3x       Rx   d 8 00 00 00 00 00 00 00 00
   2.869000 1  18F158F3x       Rx   d 8 00 00 00 00 00 00 00 00
   2.871000 1  CFF21CAx        Rx   d 8 2C 00 43 12 47 40 00 14
   2.872000 1  18F100D0x       Rx   d 8 0C FF FF FF FF FF FF FF
   2.873000 1  CFF21CAx        Rx   d 8 2C 00 4D 12 47 40 00 14
   2.875000 1  18FF2112x       Rx   d 8 01 00 00 00 00 00 00 00
   2.876000 1  CFF21CAx        Rx   d 8 2C 00 4D 12 47 40 00 14
   2.879000 1  18F100D0x       Rx   d 8 0C FF FF FF FF FF FF FF
   2.880000 1  CFF21CAx        Rx   d 8 2C 00 5D 12 47 40 00 14
   2.882000 1  CFF21CAx        Rx   d 8 2C 00 64 12 47 40 00 14
   2.884000 1  18F100D0x       Rx   d 8 0C FF FF FF FF FF FF FF
   2.886000 1  CFF21CAx        Rx   d 8 2C 00 72 12 47 40 00 14
   2.887000 1  CFF21CAx        Rx   d 8 2C 00 7A 12 47 40 00 14
   2.888000 1  18F100F3x       Rx   d 8 02 D9 7E 21 7E FA 14 00
   2.890000 1  18F102F3x       Rx   d 8 0E 41 0E 3B 10 0C 00 06
   2.891000 1  18F106F3x       Rx   d 8 45 E0 FC FF FF FF FF FF
   2.892000 1  18F107F3x       Rx   d 8 38 A4 30 70 01 48 00 AF
   2.908000 1  18F108F3x       Rx   d 8 00 00 00 00 00 00 00 00
   2.909000 1  18F104F3x       Rx   d 8 36 35 01 02 01 FF FF FF
   2.963000 1  18F113F3x       Rx   d 8 0E 3C 0E 3C 0E 3E 0E 3F
   2.964000 1  18F114F3x       Rx   d 8 0E 3E 0E 3E 0E 3F 0E 3E
   2.966000 1  18F115F3x       Rx   d 8 0E 3E 0E 3E 0E 3E 0E 3B
   2.968000 1  18F116F3x       Rx   d 8 0E 3F 0E 3E 0E 3F 0E 41
   2.969000 1  18F117F3x       Rx   d 8 0E 3E 0E 3F 0E 41 0E 3F
   2.971000 1  CFF21CAx        Rx   d 8 2C 00 86 12 47 40 00 14
   2.974000 1  18F100D0x       Rx   d 8 0C FF FF FF FF FF FF FF
   2.975000 1  18F118F3x       Rx   d 8 00 00 00 00 00 00 00 00
   2.977000 1  18F119F3x       Rx   d 8 00 00 00 00 00 00 00 00
   2.979000 1  18F11AF3x       Rx   d 8 00 00 00 00 00 00 00 00
   2.981000 1  18F11BF3x       Rx   d 8 00 00 00 00 00 00 00 00
   2.983000 1  18F11CF3x       Rx   d 8 00 00 00 00 00 00 00 00
   2.985000 1  18F129F3x       Rx   d 8 00 00 00 00 00 00 00 00
   2.987000 1  18F12BF3x       Rx   d 8 00 00 00 00 00 00 00 00
   2.989000 1  18F12DF3x       Rx   d 8 00 00 00 00 00 00 00 00
   2.990000 1  18F12FF3x       Rx   d 8 00 00 00 00 00 00 00 00
   2.992000 1  18F130F3x       Rx   d 8 00 00 00 00 00 00 00 00
   2.994000 1  18F132F3x       Rx   d 8 00 00 00 00 00 00 00 00
   2.996000 1  18F134F3x       Rx   d 8 00 00 00 00 00 00 00 00
   2.998000 1  18F136F3x       Rx   d 8 00 00 00 00 00 00 00 00
   3.000000 1  18F138F3x       Rx   d 8 00 00 00 00 00 00 00 00
   3.002000 1  18F13AF3x       Rx   d 8 00 00 00 00 00 00 00 00
   3.004000 1  18F13CF3x       Rx   d 8 00 00 00 00 00 00 00 00
   3.005000 1  18F156F3x       Rx   d 8 00 00 00 00 00 00 00 00
   3.007000 1  18F159F3x       Rx   d 8 00 00 00 00 00 00 00 00
   3.008000 1  18F15BF3x       Rx   d 7 00 00 00 00 00 00 00
   3.009000 1  18F15DF3x       Rx   d 8 00 00 00 00 00 00 00 00
   3.011000 1  CFF21CAx        Rx   d 8 2D 00 A9 12 47 40 00 14
   3.012000 1  18F100D0x       Rx   d 8 0C FF FF FF FF FF FF FF
   3.014000 1  CFF21CAx        Rx   d 8 2D 00 B6 12 47 40 00 14
   3.063000 1  CFF21CAx        Rx   d 8 2C 00 BF 12 47 40 00 14
   3.065000 1  18F100D0x       Rx   d 8 0C FF FF FF FF FF FF FF
   3.067000 1  CFF21CAx        Rx   d 8 2C 00 CD 12 47 40 00 14
   3.069000 1  18F100F3x       Rx   d 8 02 D9 7E 2A 7E FA 14 00
   3.071000 1  18F102F3x       Rx   d 8 0E 41 0E 3B 10 0C 00 06
   3.073000 1  18F106F3x       Rx   d 8 45 E0 FC FF FF FF FF FF
   3.075000 1  18F107F3x       Rx   d 8 38 A4 30 70 01 48 00 AF
   3.077000 1  18F108F3x       Rx   d 8 00 00 00 00 00 00 00 00
   3.079000 1  18F155F3x       Rx   d 8 36 35 36 36 35 36 36 00
   3.081000 1  18F156F3x       Rx   d 8 00 00 00 00 00 00 00 00
   3.083000 1  18F157F3x       Rx   d 8 00 00 00 00 00 00 00 00
   3.084000 1  CFF21CAx        Rx   d 8 2C 00 E7 12 47 40 00 14
   3.087000 1  18F100D0x       Rx   d 8 0C FF FF FF FF FF FF FF
   3.088000 1  18FF2112x       Rx   d 8 01 00 00 00 00 00 00 00
   3.090000 1  CFF21CAx        Rx   d 8 2C 00 F3 12 47 40 00 14
   3.092000 1  CFF21CAx        Rx   d 8 2B 00 F7 12 47 40 00 14
   3.094000 1  18F100D0x       Rx   d 8 0C FF FF FF FF FF FF FF
   3.095000 1  CFF21CAx        Rx   d 8 2B 00 02 13 47 40 00 14
   3.098000 1  CFF21CAx        Rx   d 8 2B 00 08 13 47 40 00 14
   3.099000 1  18F100D0x       Rx   d 8 0C FF FF FF FF FF FF FF
   3.101000 1  CFF21CAx        Rx   d 8 2B 00 08 13 47 40 00 14
   3.103000 1  18F100F3x       Rx   d 8 02 D9 7E 2A 7E FA 14 00
   3.105000 1  18F102F3x       Rx   d 8 0E 41 0E 3B 10 0C 00 06
   3.107000 1  18F106F3x       Rx   d 8 45 E0 FC FF FF FF FF FF
   3.109000 1  18F107F3x       Rx   d 8 38 A4 30 70 01 48 00 AF
   3.111000 1  CFF21CAx        Rx   d 8 2B 00 1D 13 47 40 00 14
   3.112000 1  18F108F3x       Rx   d 8 00 00 00 00 00 00 00 00
   3.113000 1  18F155F3x       Rx   d 8 36 35 36 36 35 36 36 00
   3.115000 1  18F156F3x       Rx   d 8 00 00 00 00 00 00 00 00
   3.116000 1  18F157F3x       Rx   d 8 00 00 00 00 00 00 00 00
   3.117000 1  18F158F3x       Rx   d 8 00 00 00 00 00 00 00 00
   3.167000 1  18F159F3x       Rx   d 8 00 00 00 00 00 00 00 00
   3.168000 1  18F15AF3x       Rx   d 8 00 00 00 00 00 00 00 00
   3.170000 1  18F15BF3x       Rx   d 7 00 00 00 00 00 00 00
   3.172000 1  18F100D0x       Rx   d 8 0C FF FF FF FF FF FF FF
   3.174000 1  18F15CF3x       Rx   d 8 00 00 00 00 00 00 00 00
   3.176000 1  18F15DF3x       Rx   d 8 00 00 00 00 00 00 00 00
   3.178000 1  18F15EF3x       Rx   d 8 00 00 00 00 00 00 00 00
   3.180000 1  CFF21CAx        Rx   d 8 2B 00 1D 13 47 40 00 14
   3.182000 1  CFF21CAx        Rx   d 8 2B 00 29 13 47 40 00 14
   3.184000 1  18F100D0x       Rx   d 8 0C FF FF FF FF FF FF FF
   3.186000 1  18FF2112x       Rx   d 8 01 00 00 00 00 00 00 00
   3.187000 1  CFF21CAx        Rx   d 8 2B 00 2C 13 47 40 00 14
   3.189000 1  CFF21CAx        Rx   d 8 2B 00 38 13 47 40 00 14
   3.191000 1  18F100D0x       Rx   d 8 0C FF FF FF FF FF FF FF
   3.194000 1  CFF21CAx        Rx   d 8 2B 00 41 13 47 40 00 14
   3.195000 1  CFF21CAx        Rx   d 8 2B 00 46 13 47 40 00 14
   3.197000 1  18F100D0x       Rx   d 8 0C FF FF FF FF FF FF FF
   3.199000 1  CFF21CAx        Rx   d 8 2B 00 54 13 47 40 00 14
   3.201000 1  18F100F3x       Rx   d 8 02 D9 7E 2F 7E FA 14 00
   3.203000 1  CFF21CAx        Rx   d 8 2B 00 5E 13 47 40 00 14
   3.205000 1  18F102F3x       Rx   d 8 0E 41 0E 3B 10 0C 00 06
   3.207000 1  18F106F3x       Rx   d 8 45 E0 FC FF FF FF FF FF
   3.209000 1  18F107F3x       Rx   d 8 38 A4 30 70 01 48 00 AF
   3.210000 1  18F108F3x       Rx   d 8 00 00 00 00 00 00 00 00
   3.211000 1  18F155F3x       Rx   d 8 36 35 36 36 35 36 36 00
   3.213000 1  18F156F3x       Rx   d 8 00 00 00 00 00 00 00 00
   3.214000 1  CFF21CAx        Rx   d 8 2B 00 88 13 47 40 00 14
   3.216000 1  18F100D0x       Rx   d 8 0C FF FF FF FF FF FF FF
   3.217000 1  CFF21CAx        Rx   d 8 2B 00 8D 13 47 40 00 14
   3.267000 1  CFF21CAx        Rx   d 8 2B 00 99 13 47 40 00 14
   3.269000 1  18F100D0x       Rx   d 8 0C FF FF FF FF FF FF FF
   3.271000 1  CFF21CAx        Rx   d 8 2B 00 A2 13 47 40 00 14
   3.274000 1  18F100F3x       Rx   d 8 02 D9 7E 2F 7E FA 14 00
   3.275000 1  18F102F3x       Rx   d 8 0E 41 0E 3B 10 0C 00 06
   3.277000 1  18F106F3x       Rx   d 8 45 E0 FC FF FF FF FF FF
   3.279000 1  18F107F3x       Rx   d 8 38 A4 30 70 01 48 00 AF
   3.281000 1  18F108F3x       Rx   d 8 00 00 00 00 00 00 00 00
   3.283000 1  18F155F3x       Rx   d 8 36 35 36 36 35 36 36 00
   3.285000 1  18F156F3x       Rx   d 8 00 00 00 00 00 00 00 00
   3.286000 1  18F157F3x       Rx   d 8 00 00 00 00 00 00 00 00
   3.288000 1  CFF21CAx        Rx   d 8 2B 00 AC 13 47 40 00 14
   3.289000 1  18F100D0x       Rx   d 8 0C FF FF FF FF FF FF FF
   3.291000 1  18F158F3x       Rx   d 8 00 00 00 00 00 00 00 00
   3.293000 1  18F159F3x       Rx   d 8 00 00 00 00 00 00 00 00
   3.295000 1  CFF21CAx        Rx   d 8 2B 00 C6 13 47 40 00 14
   3.297000 1  CFF21CAx        Rx   d 8 2B 00 CD 13 47 40 00 14
   3.299000 1  18F100D0x       Rx   d 8 0C FF FF FF FF FF FF FF
   3.301000 1  CFF21CAx        Rx   d 8 2A 00 D5 13 47 40 00 14
   3.303000 1  CFF21CAx        Rx   d 8 2A 00 D5 13 47 40 00 14
   3.305000 1  18F100D0x       Rx   d 8 0C FF FF FF FF FF FF FF
   3.307000 1  CFF21CAx        Rx   d 8 2A 00 E5 13 47 40 00 14
   3.309000 1  18F100F3x       Rx   d 8 02 D9 7E 2F 7E FA 14 00
   3.311000 1  18F102F3x       Rx   d 8 0E 41 0E 3B 10 0C 00 06
   3.312000 1  18F106F3x       Rx   d 8 45 E0 FC FF FF FF FF FF
   3.314000 1  18F107F3x       Rx   d 8 38 A4 30 70 01 48 00 AF
   3.315000 1  18F108F3x       Rx   d 8 00 00 00 00 00 00 00 00
   3.317000 1  CFF21CAx        Rx   d 8 2A 00 E5 13 47 40 00 14
   3.318000 1  18F155F3x       Rx   d 8 36 35 36 36 35 36 36 00
   3.319000 1  18F156F3x       Rx   d 8 00 00 00 00 00 00 00 00
   3.321000 1  18F157F3x       Rx   d 8 00 00 00 00 00 00 00 00
   3.372000 1  18F158F3x       Rx   d 8 00 00 00 00 00 00 00 00
   3.374000 1  18F100D0x       Rx   d 8 0C FF FF FF FF FF FF FF
   3.376000 1  18F159F3x       Rx   d 8 00 00 00 00 00 00 00 00
   3.378000 1  18F15AF3x       Rx   d 8 00 00 00 00 00 00 00 00
   3.380000 1  18F15BF3x       Rx   d 7 00 00 00 00 00 00 00
   3.381000 1  18F15CF3x       Rx   d 8 00 00 00 00 00 00 00 00
   3.383000 1  18F15DF3x       Rx   d 8 00 00 00 00 00 00 00 00
   3.385000 1  CFF21CAx        Rx   d 8 2B 00 FC 13 47 40 00 14
   3.388000 1  CFF21CAx        Rx   d 8 2B 00 07 14 47 40 00 14
   3.389000 1  18F100D0x       Rx   d 8 0C FF FF FF FF FF FF FF
   3.392000 1  CFF21CAx        Rx   d 8 2B 00 0E 14 47 40 00 14
   3.393000 1  CFF21CAx        Rx   d 8 2B 00 17 14 47 40 00 14
   3.395000 1  18F100D0x       Rx   d 8 0C FF FF FF FF FF FF FF
   3.397000 1  CFF21CAx        Rx   d 8 2B 00 22 14 47 40 00 14
   3.399000 1  18F100F3x       Rx   d 8 02 D9 7E 35 7E FA 14 00
   3.401000 1  18F102F3x       Rx   d 8 0E 41 0E 3B 10 0C 00 06
   3.402000 1  CFF21CAx        Rx   d 8 2B 00 28 14 47 40 00 14
   3.403000 1  18F106F3x       Rx   d 8 45 E0 FC FF FF FF FF FF
   3.405000 1  18F107F3x       Rx   d 8 38 A4 30 70 01 48 00 AF
   3.406000 1  18F108F3x       Rx   d 8 00 00 00 00 00 00 00 00
   3.407000 1  18F155F3x       Rx   d 8 36 35 36 36 35 36 36 00
   3.409000 1  18F156F3x       Rx   d 8 00 00 00 00 00 00 00 00
   3.437000 1  18F157F3x       Rx   d 8 00 00 00 00 00 00 00 00
   3.499000 1  18F158F3x       Rx   d 8 00 00 00 00 00 00 00 00
   3.501000 1  18F100D0x       Rx   d 8 0C FF FF FF FF FF FF FF
   3.503000 1  18F159F3x       Rx   d 8 00 00 00 00 00 00 00 00
   3.505000 1  18F15AF3x       Rx   d 8 00 00 00 00 00 00 00 00
   3.507000 1  18F15BF3x       Rx   d 7 00 00 00 00 00 00 00
   3.509000 1  18F15CF3x       Rx   d 8 00 00 00 00 00 00 00 00
   3.511000 1  18F15DF3x       Rx   d 8 00 00 00 00 00 00 00 00
   3.512000 1  CFF21CAx        Rx   d 8 2B 00 2E 14 47 40 00 14
   3.514000 1  18F15EF3x       Rx   d 8 00 00 00 00 00 00 00 00
   3.516000 1  CFF21CAx        Rx   d 8 2B 00 34 14 47 40 00 14
   3.518000 1  18FF2112x       Rx   d 8 01 00 00 00 00 00 00 00
   3.520000 1  18F100D0x       Rx   d 8 0C FF FF FF FF FF FF FF
   3.521000 1  CFF21CAx        Rx   d 8 2A 00 40 14 47 40 00 14
   3.522000 1  CFF21CAx        Rx   d 8 2A 00 48 14 47 40 00 14
   3.524000 1  CFF21CAx        Rx   d 8 2A 00 4E 14 47 40 00 14
   3.525000 1  18F100D0x       Rx   d 8 0C FF FF FF FF FF FF FF
   3.526000 1  CFF21CAx        Rx   d 8 2A 00 55 14 47 40 00 14
   3.586000 1  CFF21CAx        Rx   d 8 2A 00 58 14 47 40 00 14
   3.588000 1  18F100D0x       Rx   d 8 0C FF FF FF FF FF FF FF
   3.590000 1  CFF21CAx        Rx   d 8 2A 00 65 14 47 40 00 14
   3.592000 1  18F100F3x       Rx   d 8 02 D9 7E 35 7E FA 14 00
   3.593000 1  18F102F3x       Rx   d 8 0E 41 0E 3B 10 0C 00 06
   3.595000 1  18F106F3x       Rx   d 8 45 E0 FC FF FF FF FF FF
   3.597000 1  18F107F3x       Rx   d 8 38 A4 30 70 01 48 00 AF
   3.599000 1  18F108F3x       Rx   d 8 00 00 00 00 00 00 00 00
   3.601000 1  18F155F3x       Rx   d 8 36 35 36 36 35 36 36 00
   3.603000 1  18F156F3x       Rx   d 8 00 00 00 00 00 00 00 00
   3.605000 1  18F157F3x       Rx   d 8 00 00 00 00 00 00 00 00
   3.607000 1  18F158F3x       Rx   d 8 00 00 00 00 00 00 00 00
   3.609000 1  18F159F3x       Rx   d 8 00 00 00 00 00 00 00 00
   3.610000 1  CFF21CAx        Rx   d 8 2A 00 6C 14 47 40 00 14
   3.612000 1  18F100D0x       Rx   d 8 0C FF FF FF FF FF FF FF
   3.614000 1  18F15AF3x       Rx   d 8 00 00 00 00 00 00 00 00
   3.616000 1  18F15BF3x       Rx   d 7 00 00 00 00 00 00 00
   3.618000 1  18F15CF3x       Rx   d 8 00 00 00 00 00 00 00 00
   3.619000 1  18F15DF3x       Rx   d 8 00 00 00 00 00 00 00 00
   3.621000 1  18F15EF3x       Rx   d 8 00 00 00 00 00 00 00 00
   3.622000 1  CFF21CAx        Rx   d 8 2A 00 73 14 47 40 00 14
   3.624000 1  18FF2112x       Rx   d 8 01 00 00 00 00 00 00 00
   3.625000 1  CFF21CAx        Rx   d 8 2A 00 7F 14 47 40 00 14
   3.626000 1  18F100D0x       Rx   d 8 0C FF FF FF FF FF FF FF
   3.628000 1  CFF21CAx        Rx   d 8 2A 00 85 14 47 40 00 14
   3.681000 1  CFF21CAx        Rx   d 8 29 00 8D 14 47 40 00 14
   3.682000 1  18F100D0x       Rx   d 8 0C FF FF FF FF FF FF FF
   3.684000 1  CFF21CAx        Rx   d 8 29 00 94 14 47 40 00 14
   3.686000 1  CFF21CAx        Rx   d 8 29 00 9C 14 47 40 00 14
   3.688000 1  18F100D0x       Rx   d 8 0C FF FF FF FF FF FF FF
   3.690000 1  CFF21CAx        Rx   d 8 29 00 A2 14 47 40 00 14
   3.692000 1  18F100F3x       Rx   d 8 02 D9 7E 3B 7E FA 14 00
   3.694000 1  18F102F3x       Rx   d 8 0E 41 0E 3B 10 0C 00 06
   3.696000 1  18F106F3x       Rx   d 8 45 E0 FC FF FF FF FF FF
   3.697000 1  18F107F3x       Rx   d 8 38 A4 30 70 01 48 00 AF
   3.699000 1  18F108F3x       Rx   d 8 00 00 00 00 00 00 00 00
   3.701000 1  18F155F3x       Rx   d 8 36 35 36 36 35 36 36 00
   3.703000 1  CFF21CAx        Rx   d 8 29 00 A9 14 47 40 00 14
   3.705000 1  18F156F3x       Rx   d 8 00 00 00 00 00 00 00 00
   3.707000 1  18F157F3x       Rx   d 8 00 00 00 00 00 00 00 00
   3.709000 1  18F158F3x       Rx   d 8 00 00 00 00 00 00 00 00
   3.711000 1  18F159F3x       Rx   d 8 00 00 00 00 00 00 00 00
   3.713000 1  18F100D0x       Rx   d 8 0C FF FF FF FF FF FF FF
   3.715000 1  18F15AF3x       Rx   d 8 00 00 00 00 00 00 00 00
   3.717000 1  18F15BF3x       Rx   d 7 00 00 00 00 00 00 00
   3.719000 1  18F15CF3x       Rx   d 8 00 00 00 00 00 00 00 00
   3.721000 1  18F15DF3x       Rx   d 8 00 00 00 00 00 00 00 00
   3.723000 1  18F15EF3x       Rx   d 8 00 00 00 00 00 00 00 00
   3.724000 1  CFF21CAx        Rx   d 8 29 00 A9 14 47 40 00 14
   3.726000 1  18FF2112x       Rx   d 8 01 00 00 00 00 00 00 00
   3.727000 1  CFF21CAx        Rx   d 8 28 00 B5 14 47 40 00 14
   3.728000 1  18F100D0x       Rx   d 8 0C FF FF FF FF FF FF FF
   3.730000 1  CFF21CAx        Rx   d 8 28 00 B5 14 47 40 00 14
   3.731000 1  CFF21CAx        Rx   d 8 28 00 C6 14 47 40 00 14
   3.780000 1  18F100D0x       Rx   d 8 0C FF FF FF FF FF FF FF
   3.782000 1  CFF21CAx        Rx   d 8 28 00 C3 14 47 40 00 14
   3.783000 1  CFF21CAx        Rx   d 8 28 00 D4 14 47 40 00 14
   3.785000 1  18F100D0x       Rx   d 8 0C FF FF FF FF FF FF FF
   3.787000 1  CFF21CAx        Rx   d 8 28 00 D4 14 47 40 00 14
   3.790000 1  18F100F3x       Rx   d 8 02 D9 7E 3B 7E FA 14 00
   3.791000 1  18F102F3x       Rx   d 8 0E 41 0E 3B 10 0C 00 06
   3.793000 1  18F106F3x       Rx   d 8 45 E0 FC FF FF FF FF FF
   3.795000 1  CFF21CAx        Rx   d 8 28 00 E8 14 47 40 00 14
   3.797000 1  18F107F3x       Rx   d 8 38 A4 30 70 01 48 00 AF
   3.799000 1  18F108F3x       Rx   d 8 00 00 00 00 00 00 00 00
   3.801000 1  18F155F3x       Rx   d 8 36 35 36 36 35 36 36 00
   3.803000 1  18F100D0x       Rx   d 8 0C FF FF FF FF FF FF FF
   3.804000 1  18F156F3x       Rx   d 8 00 00 00 00 00 00 00 00
   3.806000 1  18F157F3x       Rx   d 8 00 00 00 00 00 00 00 00
   3.808000 1  18F158F3x       Rx   d 8 00 00 00 00 00 00 00 00
   3.810000 1  18F159F3x       Rx   d 8 00 00 00 00 00 00 00 00
   3.812000 1  18F15AF3x       Rx   d 8 00 00 00 00 00 00 00 00
   3.813000 1  18F15BF3x       Rx   d 7 00 00 00 00 00 00 00
   3.815000 1  18F15CF3x       Rx   d 8 00 00 00 00 00 00 00 00
   3.817000 1  18F15DF3x       Rx   d 8 00 00 00 00 00 00 00 00
   3.820000 1  CFF21CAx        Rx   d 8 28 00 E8 14 47 40 00 14
   3.821000 1  18F15EF3x       Rx   d 8 00 00 00 00 00 00 00 00
   3.823000 1  18FF2112x       Rx   d 8 01 00 00 00 00 00 00 00
   3.825000 1  CFF21CAx        Rx   d 8 29 00 ED 14 47 40 00 14
   3.826000 1  18F100D0x       Rx   d 8 0C FF FF FF FF FF FF FF
   3.827000 1  18FECACAx       Rx   d 8 00 00 00 00 00 00 FF FF
   3.829000 1  CFF21CAx        Rx   d 8 29 00 F3 14 47 40 00 14
   3.830000 1  CFF21CAx        Rx   d 8 29 00 FA 14 47 40 00 14
   3.832000 1  18F100D0x       Rx   d 8 0C FF FF FF FF FF FF FF
   3.887000 1  CFF21CAx        Rx   d 8 29 00 01 15 47 40 00 14
   3.888000 1  CFF21CAx        Rx   d 8 29 00 09 15 47 40 00 14
   3.890000 1  18F100D0x       Rx   d 8 0C FF FF FF FF FF FF FF
   3.891000 1  CFF21CAx        Rx   d 8 29 00 13 15 47 40 00 14
   3.893000 1  CFF21CAx        Rx   d 8 29 00 17 15 47 40 00 14
   3.895000 1  18F100F3x       Rx   d 8 02 D9 7E 3B 7E FA 14 00
   3.897000 1  18F102F3x       Rx   d 8 0E 41 0E 3B 10 0C 00 06
   3.899000 1  18F106F3x       Rx   d 8 45 E0 FC FF FF FF FF FF
   3.902000 1  18F107F3x       Rx   d 8 38 A4 30 70 01 48 00 AF
   3.903000 1  18F108F3x       Rx   d 8 00 00 00 00 00 00 00 00
   3.905000 1  18F104F3x       Rx   d 8 36 35 01 02 01 FF FF FF
   3.907000 1  18F113F3x       Rx   d 8 0E 3C 0E 3C 0E 3E 0E 3E
   3.908000 1  18F100D0x       Rx   d 8 0C FF FF FF FF FF FF FF
   3.910000 1  18F114F3x       Rx   d 8 0E 3E 0E 3E 0E 3F 0E 3E
   3.912000 1  18F115F3x       Rx   d 8 0E 3E 0E 3E 0E 3E 0E 3B
   3.914000 1  18F116F3x       Rx   d 8 0E 3F 0E 3E 0E 3F 0E 41
   3.916000 1  18F117F3x       Rx   d 8 0E 3E 0E 3F 0E 41 0E 3F
   3.918000 1  CFF21CAx        Rx   d 8 29 00 1F 15 47 40 00 14
   3.920000 1  18F118F3x       Rx   d 8 00 00 00 00 00 00 00 00
   3.921000 1  18F119F3x       Rx   d 8 00 00 00 00 00 00 00 00
   3.923000 1  18F11AF3x       Rx   d 8 00 00 00 00 00 00 00 00
   3.925000 1  18F11BF3x       Rx   d 8 00 00 00 00 00 00 00 00
   3.927000 1  18F11CF3x       Rx   d 8 00 00 00 00 00 00 00 00
   3.929000 1  18FF2112x       Rx   d 8 01 00 00 00 00 00 00 00
   3.930000 1  18F11DF3x       Rx   d 8 00 00 00 00 00 00 00 00
   3.932000 1  18F11EF3x       Rx   d 8 00 00 00 00 00 00 00 00
   3.933000 1  18F11FF3x       Rx   d 8 00 00 00 00 00 00 00 00
   3.934000 1  CFF21CAx        Rx   d 8 29 00 4C 15 47 40 00 14
   3.936000 1  18F100D0x       Rx   d 8 0C FF FF FF FF FF FF FF
   3.988000 1  CFF21CAx        Rx   d 8 29 00 56 15 47 40 00 14
   3.989000 1  18F100F3x       Rx   d 8 02 D9 7E 43 7E FA 14 00
   3.991000 1  18F102F3x       Rx   d 8 0E 41 0E 3B 10 0C 00 06
   3.993000 1  18F106F3x       Rx   d 8 45 E0 FC FF FF FF FF FF
   3.995000 1  18F107F3x       Rx   d 8 38 A4 30 70 01 48 00 AF
   3.997000 1  18F100D0x       Rx   d 8 0C FF FF FF FF FF FF FF
   3.998000 1  18F108F3x       Rx   d 8 00 00 00 00 00 00 00 00
   4.000000 1  18F155F3x       Rx   d 8 36 35 36 36 35 36 36 00
   4.002000 1  18F156F3x       Rx   d 8 00 00 00 00 00 00 00 00
   4.004000 1  CFF21CAx        Rx   d 8 29 00 58 15 47 40 00 14
   4.006000 1  18F157F3x       Rx   d 8 00 00 00 00 00 00 00 00
   4.008000 1  18F158F3x       Rx   d 8 00 00 00 00 00 00 00 00
   4.010000 1  18F159F3x       Rx   d 8 00 00 00 00 00 00 00 00
   4.012000 1  18F15AF3x       Rx   d 8 00 00 00 00 00 00 00 00
   4.014000 1  18F15BF3x       Rx   d 7 00 00 00 00 00 00 00
   4.015000 1  CFF21CAx        Rx   d 8 29 00 7E 15 47 40 00 14
   4.017000 1  CFF21CAx        Rx   d 8 29 00 86 15 47 40 00 14
   4.019000 1  18F100D0x       Rx   d 8 0C FF FF FF FF FF FF FF
   4.022000 1  CFF21CAx        Rx   d 8 29 00 8D 15 47 40 00 14
   4.024000 1  18F100F3x       Rx   d 8 02 D9 7E 43 7E FA 14 00
   4.025000 1  18F102F3x       Rx   d 8 0E 41 0E 3B 10 0C 00 06
   4.028000 1  18F106F3x       Rx   d 8 45 E0 FC FF FF FF FF FF
   4.029000 1  18F107F3x       Rx   d 8 38 A4 30 70 01 48 00 AF
   4.031000 1  CFF21CAx        Rx   d 8 29 00 94 15 47 40 00 14
   4.032000 1  18F100D0x       Rx   d 8 0C FF FF FF FF FF FF FF
   4.034000 1  18F108F3x       Rx   d 8 00 00 00 00 00 00 00 00
   4.035000 1  18F155F3x       Rx   d 8 36 35 36 36 35 36 36 00
   4.036000 1  18F156F3x       Rx   d 8 00 00 00 00 00 00 00 00
   4.038000 1  18F157F3x       Rx   d 8 00 00 00 00 00 00 00 00
   4.089000 1  18F158F3x       Rx   d 8 00 00 00 00 00 00 00 00
   4.091000 1  18F159F3x       Rx   d 8 00 00 00 00 00 00 00 00
   4.093000 1  18F15AF3x       Rx   d 8 00 00 00 00 00 00 00 00
   4.095000 1  18FF2112x       Rx   d 8 01 00 00 00 00 00 00 00
   4.097000 1  18F15BF3x       Rx   d 7 00 00 00 00 00 00 00
   4.099000 1  18F15CF3x       Rx   d 8 00 00 00 00 00 00 00 00
   4.101000 1  18F15DF3x       Rx   d 8 00 00 00 00 00 00 00 00
   4.102000 1  18F15EF3x       Rx   d 8 00 00 00 00 00 00 00 00
   4.105000 1  CFF21CAx        Rx   d 8 29 00 9A 15 47 40 00 14
   4.106000 1  CFF21CAx        Rx   d 8 29 00 A6 15 47 40 00 14
   4.108000 1  18F100D0x       Rx   d 8 0C FF FF FF FF FF FF FF
   4.110000 1  CFF21CAx        Rx   d 8 29 00 B9 15 47 40 00 14
   4.112000 1  CFF21CAx        Rx   d 8 29 00 C3 15 47 40 00 14
   4.113000 1  18F100D0x       Rx   d 8 0C FF FF FF FF FF FF FF
   4.116000 1  CFF21CAx        Rx   d 8 29 00 C8 15 47 40 00 14
   4.118000 1  18F100F3x       Rx   d 8 02 D9 7E 4E 7E FA 14 00
   4.120000 1  CFF21CAx        Rx   d 8 29 00 D0 15 47 40 00 14
   4.122000 1  18F102F3x       Rx   d 8 0E 40 0E 3B 10 02 00 05
   4.124000 1  18F106F3x       Rx   d 8 45 E0 FC FF FF FF FF FF
   4.125000 1  18F107F3x       Rx   d 8 38 A4 30 70 01 48 00 AF
   4.127000 1  18F100D0x       Rx   d 8 0C FF FF FF FF FF FF FF
   4.129000 1  18F108F3x       Rx   d 8 00 00 00 00 00 00 00 00
   4.131000 1  18F155F3x       Rx   d 8 36 35 36 36 35 36 36 00
   4.132000 1  18F156F3x       Rx   d 8 00 00 00 00 00 00 00 00
   4.133000 1  18FF2112x       Rx   d 8 01 00 00 00 00 00 00 00
   4.135000 1  18F157F3x       Rx   d 8 00 00 00 00 00 00 00 00
   4.136000 1  18F158F3x       Rx   d 8 00 00 00 00 00 00 00 00
   4.138000 1  18F159F3x       Rx   d 8 00 00 00 00 00 00 00 00
   4.187000 1  18F15AF3x       Rx   d 8 00 00 00 00 00 00 00 00
   4.193000 1  CFF21CAx        Rx   d 8 29 00 D6 15 47 40 00 14
   4.195000 1  18F15BF3x       Rx   d 7 00 00 00 00 00 00 00
   4.197000 1  18F15CF3x       Rx   d 8 00 00 00 00 00 00 00 00
   4.198000 1  18F15DF3x       Rx   d 8 00 00 00 00 00 00 00 00
   4.200000 1  18F15EF3x       Rx   d 8 00 00 00 00 00 00 00 00
   4.202000 1  CFF21CAx        Rx   d 8 29 00 E2 15 47 40 00 14
   4.204000 1  18F100D0x       Rx   d 8 0C FF FF FF FF FF FF FF
   4.206000 1  CFF21CAx        Rx   d 8 29 00 E4 15 47 40 00 14
   4.208000 1  CFF21CAx        Rx   d 8 29 00 F0 15 47 40 00 14
   4.209000 1  18F100D0x       Rx   d 8 0C FF FF FF FF FF FF FF
   4.211000 1  CFF21CAx        Rx   d 8 29 00 F1 15 47 40 00 14
   4.212000 1  CFF21CAx        Rx   d 8 2A 00 FB 15 47 40 00 14
   4.214000 1  18F100D0x       Rx   d 8 0C FF FF FF FF FF FF FF
   4.215000 1  CFF21CAx        Rx   d 8 2A 00 FE 15 47 40 00 14
   4.216000 1  CFF21CAx        Rx   d 8 2A 00 09 16 47 40 00 14
   4.217000 1  18F100F3x       Rx   d 8 02 D9 7E 4E 7E FA 14 00
   4.248000 1  18F102F3x       Rx   d 8 0E 40 0E 3B 10 02 00 05
   4.249000 1  18F100D0x       Rx   d 8 0C FF FF FF FF FF FF FF
   4.308000 1  18F106F3x       Rx   d 8 45 E0 FC FF FF FF FF FF
   4.314000 1  18F107F3x       Rx   d 8 38 A4 30 70 01 48 00 AF
   4.316000 1  18F108F3x       Rx   d 8 00 00 00 00 00 00 00 00
   4.318000 1  18FF2112x       Rx   d 8 01 00 00 00 00 00 00 00
   4.320000 1  18F155F3x       Rx   d 8 36 35 36 36 35 36 36 00
   4.322000 1  18F156F3x       Rx   d 8 00 00 00 00 00 00 00 00
   4.323000 1  18F157F3x       Rx   d 8 00 00 00 00 00 00 00 00
   4.325000 1  CFF21CAx        Rx   d 8 2A 00 10 16 47 40 00 14
   4.328000 1  18F158F3x       Rx   d 8 00 00 00 00 00 00 00 00
   4.329000 1  18F159F3x       Rx   d 8 00 00 00 00 00 00 00 00
   4.332000 1  18F15AF3x       Rx   d 8 00 00 00 00 00 00 00 00
   4.333000 1  18F15BF3x       Rx   d 7 00 00 00 00 00 00 00
   4.335000 1  18F15CF3x       Rx   d 8 00 00 00 00 00 00 00 00
   4.337000 1  18F15DF3x       Rx   d 8 00 00 00 00 00 00 00 00
   4.338000 1  18F15EF3x       Rx   d 8 00 00 00 00 00 00 00 00
   4.339000 1  CFF21CAx        Rx   d 8 2A 00 17 16 47 40 00 14
   4.341000 1  18F100D0x       Rx   d 8 0C FF FF FF FF FF FF FF
   4.342000 1  CFF21CAx        Rx   d 8 2A 00 1B 16 47 40 00 14
   4.344000 1  CFF21CAx        Rx   d 8 2A 00 26 16 47 40 00 14
   4.400000 1  18F100D0x       Rx   d 8 0C FF FF FF FF FF FF FF
   4.401000 1  CFF21CAx        Rx   d 8 2A 00 2A 16 47 40 00 14
   4.404000 1  CFF21CAx        Rx   d 8 2A 00 36 16 47 40 00 14
   4.406000 1  18F100D0x       Rx   d 8 0C FF FF FF FF FF FF FF
   4.407000 1  CFF21CAx        Rx   d 8 2A 00 39 16 47 40 00 14
   4.409000 1  CFF21CAx        Rx   d 8 2A 00 39 16 47 40 00 14
   4.411000 1  18F100D0x       Rx   d 8 0C FF FF FF FF FF FF FF
   4.413000 1  18F100F3x       Rx   d 8 02 D9 7E 4E 7E FA 14 00
   4.415000 1  18F102F3x       Rx   d 8 0E 40 0E 3B 10 02 00 05
   4.417000 1  18F106F3x       Rx   d 8 45 E0 FC FF FF FF FF FF
   4.419000 1  18FF2112x       Rx   d 8 01 00 00 00 00 00 00 00
   4.421000 1  18F107F3x       Rx   d 8 38 A4 30 70 01 48 00 AF
   4.423000 1  18F108F3x       Rx   d 8 00 00 00 00 00 00 00 00
   4.425000 1  CFF21CAx        Rx   d 8 2A 00 46 16 47 40 00 14
   4.427000 1  18F155F3x       Rx   d 8 36 35 36 36 35 36 36 00
   4.429000 1  18F156F3x       Rx   d 8 00 00 00 00 00 00 00 00
   4.431000 1  18F157F3x       Rx   d 8 00 00 00 00 00 00 00 00
   4.433000 1  18F158F3x       Rx   d 8 00 00 00 00 00 00 00 00
   4.435000 1  18F159F3x       Rx   d 8 00 00 00 00 00 00 00 00
   4.437000 1  18F15AF3x       Rx   d 8 00 00 00 00 00 00 00 00
   4.439000 1  18F15BF3x       Rx   d 7 00 00 00 00 00 00 00
   4.440000 1  18F15CF3x       Rx   d 8 00 00 00 00 00 00 00 00
   4.442000 1  18F15DF3x       Rx   d 8 00 00 00 00 00 00 00 00
   4.443000 1  18F15EF3x       Rx   d 8 00 00 00 00 00 00 00 00
   4.444000 1  CFF21CAx        Rx   d 8 2A 00 4D 16 47 40 00 14
   4.446000 1  18F100D0x       Rx   d 8 0C FF FF FF FF FF FF FF
   4.447000 1  CFF21CAx        Rx   d 8 2A 00 53 16 47 40 00 14
   4.505000 1  CFF21CAx        Rx   d 8 28 00 57 16 47 40 00 14
   4.507000 1  18F100D0x       Rx   d 8 0C FF FF FF FF FF FF FF
   4.509000 1  CFF21CAx        Rx   d 8 28 00 5C 16 47 40 00 14
   4.511000 1  CFF21CAx        Rx   d 8 26 00 5F 16 47 40 00 14
   4.513000 1  18F100D0x       Rx   d 8 0C FF FF FF FF FF FF FF
   4.515000 1  CFF21CAx        Rx   d 8 26 00 62 16 47 40 00 14
   4.516000 1  CFF21CAx        Rx   d 8 26 00 64 16 47 40 00 14
   4.518000 1  18F100D0x       Rx   d 8 0C FF FF FF FF FF FF FF
   4.520000 1  18F100F3x       Rx   d 8 02 D9 7E 5C 7E FA 14 00
   4.522000 1  18FF2112x       Rx   d 8 01 00 00 00 00 00 00 00
   4.524000 1  18F102F3x       Rx   d 8 0E 40 0E 3B 10 02 00 05
   4.526000 1  CFF21CAx        Rx   d 8 23 00 66 16 47 40 00 14
   4.528000 1  18F106F3x       Rx   d 8 45 E0 FC FF FF FF FF FF
   4.530000 1  18F107F3x       Rx   d 8 38 A4 30 70 01 48 00 AF
   4.532000 1  18F108F3x       Rx   d 8 00 00 00 00 00 00 00 00
   4.534000 1  18F155F3x       Rx   d 8 36 35 36 36 35 36 36 00
   4.536000 1  18F156F3x       Rx   d 8 00 00 00 00 00 00 00 00
   4.538000 1  18F157F3x       Rx   d 8 00 00 00 00 00 00 00 00
   4.539000 1  18F158F3x       Rx   d 8 00 00 00 00 00 00 00 00
   4.541000 1  18F159F3x       Rx   d 8 00 00 00 00 00 00 00 00
   4.543000 1  18F15AF3x       Rx   d 8 00 00 00 00 00 00 00 00
   4.544000 1  18F15BF3x       Rx   d 7 00 00 00 00 00 00 00
   4.546000 1  18F15CF3x       Rx   d 8 00 00 00 00 00 00 00 00
   4.547000 1  18F15DF3x       Rx   d 8 00 00 00 00 00 00 00 00
   4.548000 1  CFF21CAx        Rx   d 8 23 00 67 16 47 40 00 14
   4.550000 1  18F15EF3x       Rx   d 8 00 00 00 00 00 00 00 00
   4.599000 1  18F100D0x       Rx   d 8 0C FF FF FF FF FF FF FF
   4.601000 1  CFF21CAx        Rx   d 8 23 00 69 16 47 40 00 14
   4.603000 1  CFF21CAx        Rx   d 8 20 00 69 16 47 40 00 14
   4.605000 1  18F100D0x       Rx   d 8 0C FF FF FF FF FF FF FF
   4.607000 1  CFF21CAx        Rx   d 8 20 00 67 16 47 40 00 14
   4.609000 1  CFF21CAx        Rx   d 8 1C 00 69 16 47 40 00 14
   4.611000 1  18F100D0x       Rx   d 8 0C FF FF FF FF FF FF FF
   4.613000 1  CFF21CAx        Rx   d 8 1C 00 68 16 47 40 00 14
   4.615000 1  CFF21CAx        Rx   d 8 1C 00 68 16 47 40 00 14
   4.616000 1  18F100D0x       Rx   d 8 0C FF FF FF FF FF FF FF
   4.618000 1  18FF2112x       Rx   d 8 01 00 00 00 00 00 00 00
   4.620000 1  CFF21CAx        Rx   d 8 1A 00 63 16 47 40 00 14
   4.622000 1  18F100F3x       Rx   d 8 02 D9 7E 5C 7E FA 14 00
   4.624000 1  18F102F3x       Rx   d 8 0E 3F 0E 3A 13 02 00 05
   4.626000 1  18F106F3x       Rx   d 8 45 E0 FC FF FF FF FF FF
   4.628000 1  18F107F3x       Rx   d 8 38 A4 30 70 01 48 00 AF
   4.630000 1  18F108F3x       Rx   d 8 00 00 00 00 00 00 00 00
   4.632000 1  18F155F3x       Rx   d 8 36 35 36 36 35 36 36 00
   4.634000 1  18F156F3x       Rx   d 8 00 00 00 00 00 00 00 00
   4.636000 1  18F157F3x       Rx   d 8 00 00 00 00 00 00 00 00
   4.638000 1  18F158F3x       Rx   d 8 00 00 00 00 00 00 00 00
   4.640000 1  18F159F3x       Rx   d 8 00 00 00 00 00 00 00 00
   4.642000 1  CFF21CAx        Rx   d 8 1A 00 67 16 47 40 00 14
   4.644000 1  18F15AF3x       Rx   d 8 00 00 00 00 00 00 00 00
   4.645000 1  18F15BF3x       Rx   d 7 00 00 00 00 00 00 00
   4.646000 1  18F15CF3x       Rx   d 8 00 00 00 00 00 00 00 00
   4.648000 1  18F15DF3x       Rx   d 8 00 00 00 00 00 00 00 00
   4.649000 1  18F15EF3x       Rx   d 8 00 00 00 00 00 00 00 00
   4.651000 1  CFF21CAx        Rx   d 8 18 00 65 16 47 40 00 14
   4.652000 1  18F100D0x       Rx   d 8 0C FF FF FF FF FF FF FF
   4.702000 1  CFF21CAx        Rx   d 8 18 00 63 16 47 40 00 14
   4.704000 1  CFF21CAx        Rx   d 8 18 00 64 16 47 40 00 14
   4.705000 1  18F100D0x       Rx   d 8 0C FF FF FF FF FF FF FF
   4.707000 1  CFF21CAx        Rx   d 8 17 00 64 16 47 40 00 14
   4.709000 1  CFF21CAx        Rx   d 8 17 00 5E 16 47 40 00 14
   4.711000 1  18F100D0x       Rx   d 8 0C FF FF FF FF FF FF FF
   4.713000 1  CFF21CAx        Rx   d 8 17 00 60 16 47 40 00 14
   4.715000 1  CFF21CAx        Rx   d 8 16 00 5F 16 47 40 00 14
   4.717000 1  18F100D0x       Rx   d 8 0C FF FF FF FF FF FF FF
   4.719000 1  18FF2112x       Rx   d 8 01 00 00 00 00 00 00 00
   4.721000 1  18F100F3x       Rx   d 8 02 D9 7E 02 7E FA 14 00
   4.722000 1  18F102F3x       Rx   d 8 0E 3F 0E 3A 13 02 00 05
   4.724000 1  18F106F3x       Rx   d 8 45 E0 FC FF FF FF FF FF
   4.726000 1  18F107F3x       Rx   d 8 38 A4 30 70 01 48 00 AF
   4.728000 1  18F108F3x       Rx   d 8 00 00 00 00 00 00 00 00
   4.730000 1  18F155F3x       Rx   d 8 36 35 36 36 35 36 36 00
   4.732000 1  CFF21CAx        Rx   d 8 16 00 5F 16 47 40 00 14
   4.734000 1  18F156F3x       Rx   d 8 00 00 00 00 00 00 00 00
   4.736000 1  18F157F3x       Rx   d 8 00 00 00 00 00 00 00 00
   4.738000 1  18F158F3x       Rx   d 8 00 00 00 00 00 00 00 00
   4.740000 1  18F159F3x       Rx   d 8 00 00 00 00 00 00 00 00
   4.742000 1  18F15AF3x       Rx   d 8 00 00 00 00 00 00 00 00
   4.744000 1  18F15BF3x       Rx   d 7 00 00 00 00 00 00 00
   4.745000 1  18F15CF3x       Rx   d 8 00 00 00 00 00 00 00 00
   4.747000 1  CFF21CAx        Rx   d 8 16 00 5D 16 47 40 00 14
   4.748000 1  CFF21CAx        Rx   d 8 16 00 5C 16 47 40 00 14
   4.750000 1  CFF21CAx        Rx   d 8 15 00 59 16 47 40 00 14
   4.751000 1  18FF2112x       Rx   d 8 01 00 00 00 00 00 00 00
   4.753000 1  18F100F3x       Rx   d 8 02 D9 7E 02 7E FA 14 00
   4.754000 1  18F102F3x       Rx   d 8 0E 3F 0E 3A 13 02 00 05
   4.755000 1  18F106F3x       Rx   d 8 45 E0 FC FF FF FF FF FF
   4.828000 1  CFF21CAx        Rx   d 8 15 00 57 16 47 40 00 14
   4.830000 1  18F107F3x       Rx   d 8 38 A4 30 70 01 48 00 AF
   4.832000 1  18F108F3x       Rx   d 8 00 00 00 00 00 00 00 00
   4.834000 1  18F155F3x       Rx   d 8 36 35 36 36 35 36 36 00
   4.836000 1  18F156F3x       Rx   d 8 00 00 00 00 00 00 00 00
   4.838000 1  18F159F3x       Rx   d 8 00 00 00 00 00 00 00 00
   4.840000 1  18F15BF3x       Rx   d 7 00 00 00 00 00 00 00
   4.841000 1  18F15CF3x       Rx   d 8 00 00 00 00 00 00 00 00
   4.844000 1  18F15EF3x       Rx   d 8 00 00 00 00 00 00 00 00
   4.845000 1  18F100D0x       Rx   d 8 0C FF FF FF FF FF FF FF
   4.847000 1  CFF21CAx        Rx   d 8 15 00 55 16 47 40 00 14
   4.849000 1  CFF21CAx        Rx   d 8 15 00 54 16 47 40 00 14
   4.851000 1  18F100D0x       Rx   d 8 0C FF FF FF FF FF FF FF
   4.853000 1  18FECACAx       Rx   d 8 00 00 00 00 00 00 FF FF
   4.854000 1  CFF21CAx        Rx   d 8 16 00 4D 16 47 40 00 14
   4.855000 1  18FF2112x       Rx   d 8 01 00 00 00 00 00 00 00
   4.857000 1  18F100D0x       Rx   d 8 0C FF FF FF FF FF FF FF
   4.858000 1  CFF21CAx        Rx   d 8 16 00 52 16 47 40 00 14
   4.916000 1  18F100F3x       Rx   d 8 02 D9 7E 02 7E FA 14 00
   4.926000 1  18F102F3x       Rx   d 8 0E 3F 0E 3A 13 02 00 05
   4.928000 1  18F106F3x       Rx   d 8 45 E0 FC FF FF FF FF FF
   4.930000 1  18F107F3x       Rx   d 8 38 A4 30 70 01 48 00 AF
   4.932000 1  18F108F3x       Rx   d 8 00 00 00 00 00 00 00 00
   4.933000 1  18F104F3x       Rx   d 8 36 35 01 02 01 FF FF FF
   4.936000 1  18F113F3x       Rx   d 8 0E 3B 0E 3A 0E 3C 0E 3D
   4.937000 1  18F114F3x       Rx   d 8 0E 3D 0E 3C 0E 3D 0E 3C
   4.940000 1  18F115F3x       Rx   d 8 0E 3C 0E 3C 0E 3D 0E 3A
   4.941000 1  18F116F3x       Rx   d 8 0E 3D 0E 3C 0E 3E 0E 3E
   4.942000 1  18F117F3x       Rx   d 8 0E 3D 0E 3E 0E 3F 0E 3D
   4.944000 1  CFF21CAx        Rx   d 8 16 00 4C 16 47 40 00 14
   4.945000 1  18F118F3x       Rx   d 8 00 00 00 00 00 00 00 00
   4.946000 1  18F119F3x       Rx   d 8 00 00 00 00 00 00 00 00
   4.947000 1  18F11AF3x       Rx   d 8 00 00 00 00 00 00 00 00
   4.976000 1  18F11BF3x       Rx   d 8 00 00 00 00 00 00 00 00
   4.978000 1  18F11DF3x       Rx   d 8 00 00 00 00 00 00 00 00
   5.039000 1  18F11FF3x       Rx   d 8 00 00 00 00 00 00 00 00
   5.040000 1  18F100D0x       Rx   d 8 0C FF FF FF FF FF FF FF
   5.042000 1  18F121F3x       Rx   d 8 00 00 00 00 00 00 00 00
   5.043000 1  18F123F3x       Rx   d 8 00 00 00 00 00 00 00 00
   5.045000 1  CFF21CAx        Rx   d 8 17 00 50 16 47 40 00 14
   5.047000 1  18F125F3x       Rx   d 8 00 00 00 00 00 00 00 00
   5.049000 1  CFF21CAx        Rx   d 8 19 00 49 16 47 40 00 14
   5.051000 1  18FF2112x       Rx   d 8 01 00 00 00 00 00 00 00
   5.053000 1  18F100D0x       Rx   d 8 0C FF FF FF FF FF FF FF
   5.054000 1  CFF21CAx        Rx   d 8 19 00 4F 16 47 40 00 14
   5.056000 1  18F100F3x       Rx   d 8 02 D9 7D F2 7E FA 14 00
   5.057000 1  18F102F3x       Rx   d 8 0E 3F 0E 3A 13 02 00 05
   5.059000 1  18F106F3x       Rx   d 8 45 E0 FC FF FF FF FF FF
   5.060000 1  18F107F3x       Rx   d 8 38 A4 30 70 01 48 00 AF
   5.062000 1  18F108F3x       Rx   d 8 00 00 00 00 00 00 00 00
   5.113000 1  18F155F3x       Rx   d 8 36 35 36 36 35 36 36 00
   5.115000 1  18F156F3x       Rx   d 8 00 00 00 00 00 00 00 00
   5.117000 1  18F157F3x       Rx   d 8 00 00 00 00 00 00 00 00
   5.119000 1  CFF21CAx        Rx   d 8 19 00 48 16 47 40 00 14
   5.121000 1  18F158F3x       Rx   d 8 00 00 00 00 00 00 00 00
   5.122000 1  18F159F3x       Rx   d 8 00 00 00 00 00 00 00 00
   5.124000 1  18F15BF3x       Rx   d 7 00 00 00 00 00 00 00
   5.126000 1  18F15DF3x       Rx   d 8 00 00 00 00 00 00 00 00
   5.128000 1  18F100D0x       Rx   d 8 0C FF FF FF FF FF FF FF
   5.130000 1  CFF21CAx        Rx   d 8 19 00 4E 16 47 40 00 14
   5.132000 1  CFF21CAx        Rx   d 8 19 00 48 16 47 40 00 14
   5.134000 1  CFF21CAx        Rx   d 8 1A 00 4D 16 47 40 00 14
   5.136000 1  18F100D0x       Rx   d 8 0C FF FF FF FF FF FF FF
   5.138000 1  CFF21CAx        Rx   d 8 1A 00 48 16 47 40 00 14
   5.140000 1  CFF21CAx        Rx   d 8 1A 00 4C 16 47 40 00 14
   5.141000 1  18F100D0x       Rx   d 8 0C FF FF FF FF FF FF FF
   5.143000 1  CFF21CAx        Rx   d 8 1A 00 48 16 47 40 00 14
   5.145000 1  18FF2112x       Rx   d 8 01 00 00 00 00 00 00 00
   5.147000 1  CFF21CAx        Rx   d 8 1A 00 4C 16 47 40 00 14
   5.149000 1  18F100D0x       Rx   d 8 0C FF FF FF FF FF FF FF
   5.151000 1  18F100F3x       Rx   d 8 02 D9 7D F2 7E FA 14 00
   5.153000 1  18F102F3x       Rx   d 8 0E 3F 0E 3A 13 02 00 05
   5.154000 1  18F106F3x       Rx   d 8 45 E0 FC FF FF FF FF FF
   5.156000 1  18F107F3x       Rx   d 8 38 A4 30 70 01 48 00 AF
   5.157000 1  CFF21CAx        Rx   d 8 1A 00 47 16 47 40 00 14
   5.158000 1  18F108F3x       Rx   d 8 00 00 00 00 00 00 00 00
   5.160000 1  18F155F3x       Rx   d 8 36 35 36 36 35 36 36 00
   5.161000 1  18F156F3x       Rx   d 8 00 00 00 00 00 00 00 00
   5.163000 1  18F157F3x       Rx   d 8 00 00 00 00 00 00 00 00
   5.164000 1  18F158F3x       Rx   d 8 00 00 00 00 00 00 00 00
   5.217000 1  18F159F3x       Rx   d 8 00 00 00 00 00 00 00 00
   5.219000 1  18F15AF3x       Rx   d 8 00 00 00 00 00 00 00 00
   5.221000 1  18F15BF3x       Rx   d 7 00 00 00 00 00 00 00
   5.223000 1  18F15CF3x       Rx   d 8 00 00 00 00 00 00 00 00
   5.225000 1  18F15DF3x       Rx   d 8 00 00 00 00 00 00 00 00
   5.226000 1  18F15EF3x       Rx   d 8 00 00 00 00 00 00 00 00
   5.228000 1  CFF21CAx        Rx   d 8 1A 00 4B 16 47 40 00 14
   5.230000 1  18F100D0x       Rx   d 8 0C FF FF FF FF FF FF FF
   5.232000 1  CFF21CAx        Rx   d 8 1A 00 48 16 47 40 00 14
   5.234000 1  CFF21CAx        Rx   d 8 1A 00 4B 16 47 40 00 14
   5.236000 1  18F100D0x       Rx   d 8 0C FF FF FF FF FF FF FF
   5.238000 1  CFF21CAx        Rx   d 8 1A 00 48 16 47 40 00 14
   5.240000 1  CFF21CAx        Rx   d 8 1A 00 4B 16 47 40 00 14
   5.242000 1  18F100D0x       Rx   d 8 0C FF FF FF FF FF FF FF
   5.244000 1  CFF21CAx        Rx   d 8 1A 00 48 16 47 40 00 14
   5.246000 1  18FF2112x       Rx   d 8 01 00 00 00 00 00 00 00
   5.248000 1  CFF21CAx        Rx   d 8 1A 00 48 16 47 40 00 14
   5.250000 1  18F100D0x       Rx   d 8 0C FF FF FF FF FF FF FF
   5.252000 1  18F100F3x       Rx   d 8 02 D9 7D F8 7E FA 14 00
   5.254000 1  CFF21CAx        Rx   d 8 1A 00 49 16 47 40 00 14
   5.256000 1  18F102F3x       Rx   d 8 0E 3E 0E 39 10 0C 00 05
   5.258000 1  18F106F3x       Rx   d 8 45 E0 FC FF FF FF FF FF
   5.259000 1  18F107F3x       Rx   d 8 38 A4 30 70 01 48 00 AF
   5.261000 1  18F108F3x       Rx   d 8 00 00 00 00 00 00 00 00
   5.262000 1  18F155F3x       Rx   d 8 36 35 36 36 35 36 36 00
   5.263000 1  18F156F3x       Rx   d 8 00 00 00 00 00 00 00 00
   5.265000 1  18F157F3x       Rx   d 8 00 00 00 00 00 00 00 00
   5.266000 1  18F158F3x       Rx   d 8 00 00 00 00 00 00 00 00
   5.318000 1  18F159F3x       Rx   d 8 00 00 00 00 00 00 00 00
   5.320000 1  18F15AF3x       Rx   d 8 00 00 00 00 00 00 00 00
   5.322000 1  18F15BF3x       Rx   d 7 00 00 00 00 00 00 00
   5.324000 1  CFF21CAx        Rx   d 8 1A 00 48 16 47 40 00 14
   5.326000 1  18F15CF3x       Rx   d 8 00 00 00 00 00 00 00 00
   5.328000 1  18F15DF3x       Rx   d 8 00 00 00 00 00 00 00 00
   5.330000 1  18F15EF3x       Rx   d 8 00 00 00 00 00 00 00 00
   5.332000 1  18F100D0x       Rx   d 8 0C FF FF FF FF FF FF FF
   5.334000 1  CFF21CAx        Rx   d 8 1A 00 49 16 47 40 00 14
   5.336000 1  CFF21CAx        Rx   d 8 1B 00 48 16 47 40 00 14
   5.338000 1  18F100D0x       Rx   d 8 0C FF FF FF FF FF FF FF
   5.339000 1  CFF21CAx        Rx   d 8 1B 00 49 16 47 40 00 14
   5.341000 1  CFF21CAx        Rx   d 8 1B 00 49 16 47 40 00 14
   5.344000 1  18F100D0x       Rx   d 8 0C FF FF FF FF FF FF FF
   5.345000 1  CFF21CAx        Rx   d 8 1B 00 49 16 47 40 00 14
   5.348000 1  18FF2112x       Rx   d 8 01 00 00 00 00 00 00 00
   5.350000 1  CFF21CAx        Rx   d 8 1B 00 49 16 47 40 00 14
   5.351000 1  18F100D0x       Rx   d 8 0C FF FF FF FF FF FF FF
   5.354000 1  CFF21CAx        Rx   d 8 1C 00 48 16 47 40 00 14
   5.356000 1  18F100F3x       Rx   d 8 02 D9 7D F8 7E FA 14 00
   5.358000 1  18F155F3x       Rx   d 8 36 35 36 36 35 36 36 00
   5.359000 1  18F157F3x       Rx   d 8 00 00 00 00 00 00 00 00
   5.361000 1  18F159F3x       Rx   d 8 00 00 00 00 00 00 00 00
   5.362000 1  18F15BF3x       Rx   d 7 00 00 00 00 00 00 00
   5.364000 1  18F100D0x       Rx   d 8 0C FF FF FF FF FF FF FF
   5.365000 1  CFF21CAx        Rx   d 8 1C 00 48 16 47 40 00 14
   5.366000 1  CFF21CAx        Rx   d 8 1C 00 48 16 47 40 00 14
   5.368000 1  18F100D0x       Rx   d 8 0C FF FF FF FF FF FF FF
   5.419000 1  CFF21CAx        Rx   d 8 1C 00 48 16 47 40 00 14
   5.421000 1  CFF21CAx        Rx   d 8 1C 00 46 16 47 40 00 14
   5.423000 1  18F100D0x       Rx   d 8 0C FF FF FF FF FF FF FF
   5.425000 1  CFF21CAx        Rx   d 8 1C 00 49 16 47 40 00 14
   5.427000 1  18FF2112x       Rx   d 8 01 00 00 00 00 00 00 00
   5.429000 1  CFF21CAx        Rx   d 8 1C 00 47 16 47 40 00 14
   5.431000 1  18F100D0x       Rx   d 8 0C FF FF FF FF FF FF FF
   5.433000 1  CFF21CAx        Rx   d 8 1C 00 48 16 47 40 00 14
   5.435000 1  18F100F3x       Rx   d 8 02 D9 7D F8 7E FA 14 00
   5.436000 1  18F102F3x       Rx   d 8 0E 3E 0E 39 10 0C 00 05
   5.439000 1  18F106F3x       Rx   d 8 45 E0 FC FF FF FF FF FF
   5.440000 1  18F108F3x       Rx   d 8 00 00 00 00 00 00 00 00
   5.442000 1  CFF21CAx        Rx   d 8 1B 00 46 16 47 40 00 14
   5.444000 1  18F157F3x       Rx   d 8 00 00 00 00 00 00 00 00
   5.446000 1  18F159F3x       Rx   d 8 00 00 00 00 00 00 00 00
   5.447000 1  18F15BF3x       Rx   d 7 00 00 00 00 00 00 00
   5.449000 1  18F15DF3x       Rx   d 8 00 00 00 00 00 00 00 00
   5.450000 1  CFF21CAx        Rx   d 8 1B 00 48 16 47 40 00 14
   5.451000 1  CFF21CAx        Rx   d 8 1A 00 4D 16 47 40 00 14
   5.453000 1  18F100D0x       Rx   d 8 0C FF FF FF FF FF FF FF
   5.454000 1  CFF21CAx        Rx   d 8 1A 00 48 16 47 40 00 14
   5.525000 1  CFF21CAx        Rx   d 8 1A 00 4C 16 47 40 00 14
   5.526000 1  18F100D0x       Rx   d 8 0C FF FF FF FF FF FF FF
   5.528000 1  CFF21CAx        Rx   d 8 1A 00 47 16 47 40 00 14
   5.530000 1  18FF2112x       Rx   d 8 01 00 00 00 00 00 00 00
   5.532000 1  CFF21CAx        Rx   d 8 1A 00 4C 16 47 40 00 14
   5.534000 1  CFF21CAx        Rx   d 8 1A 00 47 16 47 40 00 14
   5.536000 1  CFF21CAx        Rx   d 8 1A 00 4C 16 47 40 00 14
   5.538000 1  CFF21CAx        Rx   d 8 1A 00 47 16 47 40 00 14
   5.540000 1  18F100D0x       Rx   d 8 0C FF FF FF FF FF FF FF
   5.542000 1  CFF21CAx        Rx   d 8 1A 00 4C 16 47 40 00 14
   5.544000 1  CFF21CAx        Rx   d 8 1A 00 48 16 47 40 00 14
   5.546000 1  18F100D0x       Rx   d 8 0C FF FF FF FF FF FF FF
   5.548000 1  18FF2112x       Rx   d 8 01 00 00 00 00 00 00 00
   5.549000 1  CFF21CAx        Rx   d 8 1A 00 4D 16 47 40 00 14
   5.551000 1  CFF21CAx        Rx   d 8 1A 00 48 16 47 40 00 14
   5.553000 1  18F100D0x       Rx   d 8 0C FF FF FF FF FF FF FF
   5.556000 1  CFF21CAx        Rx   d 8 1A 00 47 16 47 40 00 14
   5.557000 1  18F100F3x       Rx   d 8 02 D9 7D F9 7E FA 14 00
   5.559000 1  18F102F3x       Rx   d 8 0E 3E 0E 39 13 0C 00 05
   5.561000 1  18F106F3x       Rx   d 8 45 E0 FC FF FF FF FF FF
   5.563000 1  18F107F3x       Rx   d 8 38 A4 30 70 01 48 00 AF
   5.565000 1  18F108F3x       Rx   d 8 00 00 00 00 00 00 00 00
   5.566000 1  18F155F3x       Rx   d 8 36 35 36 36 35 36 36 00
   5.568000 1  18F156F3x       Rx   d 8 00 00 00 00 00 00 00 00
   5.569000 1  18F157F3x       Rx   d 8 00 00 00 00 00 00 00 00
   5.570000 1  18F158F3x       Rx   d 8 00 00 00 00 00 00 00 00
   5.572000 1  18F159F3x       Rx   d 8 00 00 00 00 00 00 00 00
   5.573000 1  CFF21CAx        Rx   d 8 1A 00 48 16 47 40 00 14
   5.649000 1  18F100D0x       Rx   d 8 0C FF FF FF FF FF FF FF
   5.654000 1  18F15AF3x       Rx   d 8 00 00 00 00 00 00 00 00
   5.656000 1  18F15BF3x       Rx   d 7 00 00 00 00 00 00 00
   5.657000 1  18F15CF3x       Rx   d 8 00 00 00 00 00 00 00 00
   5.660000 1  18F15DF3x       Rx   d 8 00 00 00 00 00 00 00 00
   5.662000 1  18F15EF3x       Rx   d 8 00 00 00 00 00 00 00 00
   5.664000 1  CFF21CAx        Rx   d 8 1A 00 46 16 47 40 00 14
   5.665000 1  CFF21CAx        Rx   d 8 1A 00 48 16 47 40 00 14
   5.667000 1  18F100D0x       Rx   d 8 0C FF FF FF FF FF FF FF
   5.668000 1  CFF21CAx        Rx   d 8 1A 00 47 16 47 40 00 14
   5.670000 1  CFF21CAx        Rx   d 8 1B 00 47 16 47 40 00 14
   5.672000 1  18F100D0x       Rx   d 8 0C FF FF FF FF FF FF FF
   5.673000 1  18FF2112x       Rx   d 8 01 00 00 00 00 00 00 00
   5.674000 1  CFF21CAx        Rx   d 8 1B 00 47 16 47 40 00 14
   5.675000 1  CFF21CAx        Rx   d 8 1A 00 46 16 47 40 00 14
   5.728000 1  18F100D0x       Rx   d 8 0C FF FF FF FF FF FF FF
   5.729000 1  CFF21CAx        Rx   d 8 1A 00 46 16 47 40 00 14
   5.732000 1  18F100F3x       Rx   d 8 02 D9 7D F8 7E FA 14 00
   5.733000 1  18F102F3x       Rx   d 8 0E 3E 0E 39 13 0C 00 05
   5.735000 1  18F106F3x       Rx   d 8 45 E0 FC FF FF FF FF FF
   5.736000 1  18F107F3x       Rx   d 8 38 A4 30 70 01 48 00 AF
   5.737000 1  18F108F3x       Rx   d 8 00 00 00 00 00 00 00 00
   5.738000 1  18F155F3x       Rx   d 8 36 35 36 36 35 36 36 00
   5.740000 1  CFF21CAx        Rx   d 8 1A 00 46 16 47 40 00 14
   5.769000 1  18F156F3x       Rx   d 8 00 00 00 00 00 00 00 00
   5.771000 1  18F157F3x       Rx   d 8 00 00 00 00 00 00 00 00
   5.830000 1  18F158F3x       Rx   d 8 00 00 00 00 00 00 00 00
   5.832000 1  18F159F3x       Rx   d 8 00 00 00 00 00 00 00 00
   5.833000 1  18F100D0x       Rx   d 8 0C FF FF FF FF FF FF FF
   5.836000 1  18F15AF3x       Rx   d 8 00 00 00 00 00 00 00 00
   5.837000 1  18F15BF3x       Rx   d 7 00 00 00 00 00 00 00
   5.839000 1  18F15CF3x       Rx   d 8 00 00 00 00 00 00 00 00
   5.841000 1  18F15DF3x       Rx   d 8 00 00 00 00 00 00 00 00
   5.843000 1  18F15EF3x       Rx   d 8 00 00 00 00 00 00 00 00
   5.845000 1  CFF21CAx        Rx   d 8 19 00 46 16 47 40 00 14
   5.847000 1  CFF21CAx        Rx   d 8 19 00 45 16 47 40 00 14
   5.848000 1  18F100D0x       Rx   d 8 0C FF FF FF FF FF FF FF
   5.851000 1  CFF21CAx        Rx   d 8 19 00 45 16 47 40 00 14
   5.852000 1  CFF21CAx        Rx   d 8 1A 00 45 16 47 40 00 14
   5.853000 1  18F100D0x       Rx   d 8 0C FF FF FF FF FF FF FF
   5.855000 1  18FF2112x       Rx   d 8 01 00 00 00 00 00 00 00
   5.856000 1  CFF21CAx        Rx   d 8 1A 00 46 16 47 40 00 14
   5.858000 1  CFF21CAx        Rx   d 8 1A 00 45 16 47 40 00 14
   5.860000 1  18F100D0x       Rx   d 8 0C FF FF FF FF FF FF FF
   5.862000 1  CFF21CAx        Rx   d 8 1A 00 45 16 47 40 00 14
   5.864000 1  18F100F3x       Rx   d 8 02 D9 7D F8 7E FA 14 00
   5.866000 1  18F102F3x       Rx   d 8 0E 3E 0E 39 13 0C 00 05
   5.868000 1  18F106F3x       Rx   d 8 45 E0 FC FF FF FF FF FF
   5.870000 1  CFF21CAx        Rx   d 8 1A 00 44 16 47 40 00 14
   5.872000 1  18F107F3x       Rx   d 8 38 A4 30 70 01 48 00 AF
   5.873000 1  18F108F3x       Rx   d 8 00 00 00 00 00 00 00 00
   5.875000 1  18F155F3x       Rx   d 8 36 35 36 36 35 36 36 00
   5.876000 1  18F100D0x       Rx   d 8 0C FF FF FF FF FF FF FF
   5.878000 1  18F156F3x       Rx   d 8 00 00 00 00 00 00 00 00
   5.879000 1  18F157F3x       Rx   d 8 00 00 00 00 00 00 00 00
   5.881000 1  18F158F3x       Rx   d 8 00 00 00 00 00 00 00 00
   5.932000 1  18F159F3x       Rx   d 8 00 00 00 00 00 00 00 00
   5.934000 1  18F15AF3x       Rx   d 8 00 00 00 00 00 00 00 00
   5.936000 1  18F15BF3x       Rx   d 7 00 00 00 00 00 00 00
   5.937000 1  18F15CF3x       Rx   d 8 00 00 00 00 00 00 00 00
   5.939000 1  18F15DF3x       Rx   d 8 00 00 00 00 00 00 00 00
   5.941000 1  CFF21CAx        Rx   d 8 1B 00 41 16 47 40 00 14
   5.944000 1  18F100D0x       Rx   d 8 0C FF FF FF FF FF FF FF
   5.945000 1  CFF21CAx        Rx   d 8 1B 00 43 16 47 40 00 14
   5.947000 1  CFF21CAx        Rx   d 8 1A 00 42 16 47 40 00 14
   5.949000 1  18F100D0x       Rx   d 8 0C FF FF FF FF FF FF FF
   5.951000 1  18FECACAx       Rx   d 8 00 00 00 00 00 00 FF FF
   5.953000 1  18FF2112x       Rx   d 8 01 00 00 00 00 00 00 00
   5.955000 1  CFF21CAx        Rx   d 8 1A 00 44 16 47 40 00 14
   5.957000 1  CFF21CAx        Rx   d 8 1A 00 42 16 47 40 00 14
   5.959000 1  18F100D0x       Rx   d 8 0C FF FF FF FF FF FF FF
   5.961000 1  CFF21CAx        Rx   d 8 1A 00 47 16 47 40 00 14
   5.963000 1  CFF21CAx        Rx   d 8 1A 00 42 16 47 40 00 14
   5.965000 1  18F100F3x       Rx   d 8 02 D9 7D F8 7E FA 14 00
   5.968000 1  18F102F3x       Rx   d 8 0E 3E 0E 39 13 0C 00 05
   5.969000 1  18F106F3x       Rx   d 8 45 E0 FC FF FF FF FF FF
   5.971000 1  18F107F3x       Rx   d 8 38 A4 30 70 01 48 00 AF
   5.973000 1  18F108F3x       Rx   d 8 00 00 00 00 00 00 00 00
   5.975000 1  18F104F3x       Rx   d 8 36 35 01 02 01 FF FF FF
   5.976000 1  18F113F3x       Rx   d 8 0E 3B 0E 3A 0E 3B 0E 3D
   5.978000 1  18F100D0x       Rx   d 8 0C FF FF FF FF FF FF FF
   5.979000 1  18F114F3x       Rx   d 8 0E 3C 0E 3B 0E 3C 0E 3B
   5.980000 1  18F115F3x       Rx   d 8 0E 3B 0E 3B 0E 3C 0E 39
   5.982000 1  18F116F3x       Rx   d 8 0E 3D 0E 3B 0E 3D 0E 3D
   5.983000 1  18F117F3x       Rx   d 8 0E 3C 0E 3D 0E 3E 0E 3D
   6.035000 1  CFF21CAx        Rx   d 8 1A 00 45 16 47 40 00 14
   6.036000 1  18F118F3x       Rx   d 8 00 00 00 00 00 00 00 00
   6.038000 1  18F119F3x       Rx   d 8 00 00 00 00 00 00 00 00
   6.040000 1  18F11BF3x       Rx   d 8 00 00 00 00 00 00 00 00
   6.042000 1  18F11DF3x       Rx   d 8 00 00 00 00 00 00 00 00
   6.044000 1  18F11FF3x       Rx   d 8 00 00 00 00 00 00 00 00
   6.046000 1  18F121F3x       Rx   d 8 00 00 00 00 00 00 00 00
   6.048000 1  18F123F3x       Rx   d 8 00 00 00 00 00 00 00 00
   6.050000 1  18F124F3x       Rx   d 8 00 00 00 00 00 00 00 00
   6.051000 1  18F125F3x       Rx   d 8 00 00 00 00 00 00 00 00
   6.053000 1  18F127F3x       Rx   d 8 00 00 00 00 00 00 00 00
   6.055000 1  18F128F3x       Rx   d 8 00 00 00 00 00 00 00 00
   6.057000 1  18F12AF3x       Rx   d 8 00 00 00 00 00 00 00 00
   6.059000 1  18F12BF3x       Rx   d 8 00 00 00 00 00 00 00 00
   6.061000 1  18F12CF3x       Rx   d 8 00 00 00 00 00 00 00 00
   6.063000 1  18F107F3x       Rx   d 8 38 A4 30 70 01 48 00 AF
   6.065000 1  18F108F3x       Rx   d 8 00 00 00 00 00 00 00 00
   6.066000 1  18F155F3x       Rx   d 8 36 35 36 36 35 36 36 00
   6.068000 1  18F157F3x       Rx   d 8 00 00 00 00 00 00 00 00
   6.070000 1  18F159F3x       Rx   d 8 00 00 00 00 00 00 00 00
   6.072000 1  18F15BF3x       Rx   d 7 00 00 00 00 00 00 00
   6.073000 1  18F15DF3x       Rx   d 8 00 00 00 00 00 00 00 00
   6.076000 1  CFF21CAx        Rx   d 8 1A 00 43 16 47 40 00 14
   6.077000 1  CFF21CAx        Rx   d 8 1A 00 44 16 47 40 00 14
   6.079000 1  18F100D0x       Rx   d 8 0C FF FF FF FF FF FF FF
   6.080000 1  CFF21CAx        Rx   d 8 1A 00 43 16 47 40 00 14
   6.081000 1  CFF21CAx        Rx   d 8 1A 00 43 16 47 40 00 14
   6.083000 1  18F100D0x       Rx   d 8 0C FF FF FF FF FF FF FF
   6.084000 1  18FF2112x       Rx   d 8 01 00 00 00 00 00 00 00
   6.086000 1  CFF21CAx        Rx   d 8 1A 00 43 16 47 40 00 14
   6.136000 1  CFF21CAx        Rx   d 8 1A 00 43 16 47 40 00 14
   6.138000 1  18F100D0x       Rx   d 8 0C FF FF FF FF FF FF FF
   6.140000 1  CFF21CAx        Rx   d 8 1A 00 42 16 47 40 00 14
   6.142000 1  18F100F3x       Rx   d 8 02 D9 7D F9 7E FA 14 00
   6.144000 1  18F102F3x       Rx   d 8 0E 3E 0E 39 13 0C 00 05
   6.146000 1  18F106F3x       Rx   d 8 45 E0 FC FF FF FF FF FF
   6.148000 1  18F107F3x       Rx   d 8 38 A4 30 70 01 48 00 AF
   6.150000 1  CFF21CAx        Rx   d 8 1A 00 42 16 47 40 00 14
   6.151000 1  18F100D0x       Rx   d 8 0C FF FF FF FF FF FF FF
   6.153000 1  18F108F3x       Rx   d 8 00 00 00 00 00 00 00 00
   6.155000 1  18F155F3x       Rx   d 8 36 35 36 36 35 36 36 00
   6.158000 1  18F156F3x       Rx   d 8 00 00 00 00 00 00 00 00
   6.159000 1  18F157F3x       Rx   d 8 00 00 00 00 00 00 00 00
   6.161000 1  CFF21CAx        Rx   d 8 1A 00 43 16 47 40 00 14
   6.163000 1  CFF21CAx        Rx   d 8 1A 00 43 16 47 40 00 14
   6.165000 1  CFF21CAx        Rx   d 8 1A 00 43 16 47 40 00 14
   6.167000 1  18F100D0x       Rx   d 8 0C FF FF FF FF FF FF FF
   6.169000 1  18FF2112x       Rx   d 8 01 00 00 00 00 00 00 00
   6.171000 1  CFF21CAx        Rx   d 8 1A 00 43 16 47 40 00 14
   6.173000 1  CFF21CAx        Rx   d 8 1A 00 44 16 47 40 00 14
   6.175000 1  18F100D0x       Rx   d 8 0C FF FF FF FF FF FF FF
   6.177000 1  CFF21CAx        Rx   d 8 1A 00 43 16 47 40 00 14
   6.179000 1  18F100F3x       Rx   d 8 02 D9 7D F8 7E FA 14 00
   6.180000 1  CFF21CAx        Rx   d 8 1B 00 44 16 47 40 00 14
   6.182000 1  18F102F3x       Rx   d 8 0E 3E 0E 39 13 02 00 05
   6.183000 1  18F106F3x       Rx   d 8 45 E0 FC FF FF FF FF FF
   6.185000 1  18F107F3x       Rx   d 8 38 A4 30 70 01 48 00 AF
   6.186000 1  18F100D0x       Rx   d 8 0C FF FF FF FF FF FF FF
   6.187000 1  18F108F3x       Rx   d 8 00 00 00 00 00 00 00 00
   6.239000 1  18F156F3x       Rx   d 8 00 00 00 00 00 00 00 00
   6.240000 1  18F159F3x       Rx   d 8 00 00 00 00 00 00 00 00
   6.242000 1  18F15AF3x       Rx   d 8 00 00 00 00 00 00 00 00
   6.244000 1  CFF21CAx        Rx   d 8 1B 00 42 16 47 40 00 14
   6.246000 1  18F15DF3x       Rx   d 8 00 00 00 00 00 00 00 00
   6.248000 1  CFF21CAx        Rx   d 8 1B 00 44 16 47 40 00 14
   6.250000 1  18F100D0x       Rx   d 8 0C FF FF FF FF FF FF FF
   6.252000 1  CFF21CAx        Rx   d 8 1B 00 43 16 47 40 00 14
   6.254000 1  CFF21CAx        Rx   d 8 1B 00 43 16 47 40 00 14
   6.256000 1  18FF2112x       Rx   d 8 01 00 00 00 00 00 00 00
   6.258000 1  18F157F3x       Rx   d 8 00 00 00 00 00 00 00 00
   6.259000 1  18F158F3x       Rx   d 8 00 00 00 00 00 00 00 00
   6.261000 1  18F15AF3x       Rx   d 8 00 00 00 00 00 00 00 00
   6.263000 1  18F15DF3x       Rx   d 8 00 00 00 00 00 00 00 00
   6.265000 1  CFF21CAx        Rx   d 8 1A 00 42 16 47 40 00 14
   6.267000 1  18F100D0x       Rx   d 8 0C FF FF FF FF FF FF FF
   6.269000 1  CFF21CAx        Rx   d 8 1A 00 43 16 47 40 00 14
   6.271000 1  CFF21CAx        Rx   d 8 1A 00 42 16 47 40 00 14
   6.273000 1  18FF2112x       Rx   d 8 01 00 00 00 00 00 00 00
   6.274000 1  18F100D0x       Rx   d 8 0C FF FF FF FF FF FF FF
   6.276000 1  CFF21CAx        Rx   d 8 1B 00 43 16 47 40 00 14
   6.279000 1  CFF21CAx        Rx   d 8 1B 00 42 16 47 40 00 14
   6.281000 1  18F100D0x       Rx   d 8 0C FF FF FF FF FF FF FF
   6.282000 1  CFF21CAx        Rx   d 8 1B 00 43 16 47 40 00 14
   6.283000 1  CFF21CAx        Rx   d 8 1A 00 42 16 47 40 00 14
   6.285000 1  18F100D0x       Rx   d 8 0C FF FF FF FF FF FF FF
   6.286000 1  18F100F3x       Rx   d 8 02 D9 7D F8 7E FA 14 00
   6.288000 1  18F102F3x       Rx   d 8 0E 3E 0E 39 13 02 00 05
   6.289000 1  18F106F3x       Rx   d 8 45 E0 FC FF FF FF FF FF
   6.290000 1  18F107F3x       Rx   d 8 38 A4 30 70 01 48 00 AF
   6.340000 1  18F108F3x       Rx   d 8 00 00 00 00 00 00 00 00
   6.342000 1  CFF21CAx        Rx   d 8 1A 00 43 16 47 40 00 14
   6.344000 1  18F155F3x       Rx   d 8 36 35 36 36 35 36 36 00
   6.346000 1  18F156F3x       Rx   d 8 00 00 00 00 00 00 00 00
   6.348000 1  18F157F3x       Rx   d 8 00 00 00 00 00 00 00 00
   6.350000 1  18F158F3x       Rx   d 8 00 00 00 00 00 00 00 00
   6.352000 1  18F159F3x       Rx   d 8 00 00 00 00 00 00 00 00
   6.353000 1  18F15AF3x       Rx   d 8 00 00 00 00 00 00 00 00
   6.354000 1  18F15BF3x       Rx   d 7 00 00 00 00 00 00 00
   6.356000 1  18F15CF3x       Rx   d 8 00 00 00 00 00 00 00 00
