date Sat Jun 06 05:38:10.392 PM 2026
base hex  timestamps absolute
internal events logged
// version 8.0.0
Begin Triggerblock Sat Jun 06 05:38:10.392 PM 2026
   0.000000 Start of measurement
   0.000000 1  CFF21CAx        Rx   d 8 03 00 80 0C 49 41 00 10
   0.001000 1  18F100F3x       Rx   d 8 02 C3 7D 93 34 FA 14 00
   0.003000 1  18F102F3x       Rx   d 8 0D D2 0D CD 07 02 00 05
   0.005000 1  18F106F3x       Rx   d 8 45 E0 FC FF FF FF FF FF
   0.006000 1  18F107F3x       Rx   d 8 38 A4 30 70 01 3E 00 AA
   0.008000 1  18F108F3x       Rx   d 8 00 00 00 00 00 00 00 00
   0.010000 1  18F155F3x       Rx   d 8 37 37 37 36 36 38 38 00
   0.012000 1  18F156F3x       Rx   d 8 00 00 00 00 00 00 00 00
   0.014000 1  18F157F3x       Rx   d 8 00 00 00 00 00 00 00 00
   0.016000 1  18F158F3x       Rx   d 8 00 00 00 00 00 00 00 00
   0.017000 1  18F159F3x       Rx   d 8 00 00 00 00 00 00 00 00
   0.018000 1  CFF21CAx        Rx   d 8 03 00 80 0C 49 41 00 10
   0.019000 1  18F100D0x       Rx   d 8 0C FF FF FF FF FF FF FF
   0.020000 1  18F15AF3x       Rx   d 8 00 00 00 00 00 00 00 00
   0.022000 1  18F15BF3x       Rx   d 7 00 00 00 00 00 00 00
   0.023000 1  18F15CF3x       Rx   d 8 00 00 00 00 00 00 00 00
   0.043000 1  18F15DF3x       Rx   d 8 00 00 00 00 00 00 00 00
   0.044000 1  18F15EF3x       Rx   d 8 00 00 00 00 00 00 00 00
   0.046000 1  CFF21CAx        Rx   d 8 03 00 80 0C 49 41 00 10
   0.048000 1  18FF2112x       Rx   d 8 01 00 00 00 00 00 00 00
   0.049000 1  CFF21CAx        Rx   d 8 03 00 80 0C 49 41 00 10
   0.051000 1  18F100D0x       Rx   d 8 0C FF FF FF FF FF FF FF
   0.053000 1  CFF21CAx        Rx   d 8 03 00 80 0C 49 41 00 10
   0.060000 1  CFF21CAx        Rx   d 8 03 00 80 0C 49 41 00 10
   0.061000 1  18F100D0x       Rx   d 8 0C FF FF FF FF FF FF FF
   0.072000 1  CFF21CAx        Rx   d 8 03 00 80 0C 49 41 00 10
   0.084000 1  CFF21CAx        Rx   d 8 03 00 80 0C 49 41 00 10
   0.085000 1  18F100D0x       Rx   d 8 0C FF FF FF FF FF FF FF
   0.096000 1  CFF21CAx        Rx   d 8 03 00 80 0C 49 41 00 10
   0.102000 1  18F100F3x       Rx   d 8 02 C3 7D 93 34 FA 14 00
   0.103000 1  18F102F3x       Rx   d 8 0D D2 0D CD 07 02 00 05
   0.105000 1  18F106F3x       Rx   d 8 45 E0 FC FF FF FF FF FF
   0.107000 1  18F107F3x       Rx   d 8 38 A4 30 70 01 3E 00 AA
   0.109000 1  18F108F3x       Rx   d 8 00 00 00 00 00 00 00 00
   0.110000 1  18F155F3x       Rx   d 8 37 37 37 36 36 38 38 00
   0.112000 1  CFF21CAx        Rx   d 8 03 00 80 0C 49 41 00 10
   0.114000 1  18F100D0x       Rx   d 8 0C FF FF FF FF FF FF FF
   0.116000 1  18F156F3x       Rx   d 8 00 00 00 00 00 00 00 00
   0.117000 1  18F157F3x       Rx   d 8 00 00 00 00 00 00 00 00
   0.119000 1  18F158F3x       Rx   d 8 00 00 00 00 00 00 00 00
   0.121000 1  18F159F3x       Rx   d 8 00 00 00 00 00 00 00 00
   0.122000 1  18F15AF3x       Rx   d 8 00 00 00 00 00 00 00 00
   0.124000 1  18F15BF3x       Rx   d 7 00 00 00 00 00 00 00
   0.126000 1  18F15CF3x       Rx   d 8 00 00 00 00 00 00 00 00
   0.128000 1  18F15DF3x       Rx   d 8 00 00 00 00 00 00 00 00
   0.129000 1  18F15EF3x       Rx   d 8 00 00 00 00 00 00 00 00
   0.131000 1  CFF21CAx        Rx   d 8 03 00 80 0C 49 41 00 10
   0.133000 1  18FF2112x       Rx   d 8 01 00 00 00 00 00 00 00
   0.135000 1  CFF21CAx        Rx   d 8 03 00 80 0C 49 41 00 10
   0.136000 1  18F100D0x       Rx   d 8 0C FF FF FF FF FF FF FF
   0.144000 1  CFF21CAx        Rx   d 8 03 00 80 0C 49 41 00 10
   0.157000 1  CFF21CAx        Rx   d 8 03 00 80 0C 49 41 00 10
   0.160000 1  18F100D0x       Rx   d 8 0C FF FF FF FF FF FF FF
   0.168000 1  CFF21CAx        Rx   d 8 03 00 80 0C 49 41 00 10
   0.180000 1  CFF21CAx        Rx   d 8 03 00 80 0C 49 41 00 10
   0.189000 1  18F100D0x       Rx   d 8 0C FF FF FF FF FF FF FF
   0.192000 1  CFF21CAx        Rx   d 8 03 00 80 0C 49 41 00 10
   0.202000 1  18F100F3x       Rx   d 8 02 C3 7D 93 34 FA 14 00
   0.203000 1  18F102F3x       Rx   d 8 0D D2 0D CD 07 02 00 05
   0.205000 1  18F106F3x       Rx   d 8 45 E0 FC FF FF FF FF FF
   0.207000 1  CFF21CAx        Rx   d 8 03 00 80 0C 49 41 00 10
   0.209000 1  18F107F3x       Rx   d 8 38 A4 30 70 01 3E 00 AA
   0.211000 1  18F108F3x       Rx   d 8 00 00 00 00 00 00 00 00
   0.212000 1  18F155F3x       Rx   d 8 37 37 37 36 36 38 38 00
   0.214000 1  18F156F3x       Rx   d 8 00 00 00 00 00 00 00 00
   0.216000 1  18F157F3x       Rx   d 8 00 00 00 00 00 00 00 00
   0.218000 1  18F158F3x       Rx   d 8 00 00 00 00 00 00 00 00
   0.219000 1  18F159F3x       Rx   d 8 00 00 00 00 00 00 00 00
   0.221000 1  18F15AF3x       Rx   d 8 00 00 00 00 00 00 00 00
   0.223000 1  18F100D0x       Rx   d 8 0C FF FF FF FF FF FF FF
   0.224000 1  18F15BF3x       Rx   d 7 00 00 00 00 00 00 00
   0.226000 1  18F15CF3x       Rx   d 8 00 00 00 00 00 00 00 00
   0.228000 1  18F15DF3x       Rx   d 8 00 00 00 00 00 00 00 00
   0.230000 1  CFF21CAx        Rx   d 8 03 00 80 0C 49 41 00 10
   0.231000 1  18F15EF3x       Rx   d 8 00 00 00 00 00 00 00 00
   0.233000 1  18FF2112x       Rx   d 8 01 00 00 00 00 00 00 00
   0.235000 1  CFF21CAx        Rx   d 8 03 00 80 0C 49 41 00 10
   0.237000 1  18F100D0x       Rx   d 8 0C FF FF FF FF FF FF FF
   0.241000 1  CFF21CAx        Rx   d 8 03 00 80 0C 49 41 00 10
   0.253000 1  CFF21CAx        Rx   d 8 03 00 80 0C 49 41 00 10
   0.261000 1  18F100D0x       Rx   d 8 0C FF FF FF FF FF FF FF
   0.265000 1  CFF21CAx        Rx   d 8 03 00 80 0C 49 41 00 10
   0.277000 1  CFF21CAx        Rx   d 8 03 00 80 0C 49 41 00 10
   0.285000 1  18F100D0x       Rx   d 8 0C FF FF FF FF FF FF FF
   0.289000 1  CFF21CAx        Rx   d 8 03 00 80 0C 49 41 00 10
   0.301000 1  CFF21CAx        Rx   d 8 03 00 80 0C 49 41 00 10
   0.302000 1  18F100F3x       Rx   d 8 02 C3 7D 92 34 FA 14 00
   0.304000 1  18F102F3x       Rx   d 8 0D D2 0D CD 07 02 00 05
   0.306000 1  18F106F3x       Rx   d 8 45 E0 FC FF FF FF FF FF
   0.308000 1  18F107F3x       Rx   d 8 38 A4 30 70 01 3E 00 AA
   0.310000 1  18F108F3x       Rx   d 8 00 00 00 00 00 00 00 00
   0.312000 1  18F155F3x       Rx   d 8 37 37 37 36 36 38 38 00
   0.314000 1  18F156F3x       Rx   d 8 00 00 00 00 00 00 00 00
   0.316000 1  18F100D0x       Rx   d 8 0C FF FF FF FF FF FF FF
   0.317000 1  18F157F3x       Rx   d 8 00 00 00 00 00 00 00 00
   0.319000 1  18F158F3x       Rx   d 8 00 00 00 00 00 00 00 00
   0.321000 1  18F159F3x       Rx   d 8 00 00 00 00 00 00 00 00
   0.322000 1  18F15AF3x       Rx   d 8 00 00 00 00 00 00 00 00
   0.324000 1  CFF21CAx        Rx   d 8 03 00 80 0C 49 41 00 10
   0.326000 1  18F15BF3x       Rx   d 7 00 00 00 00 00 00 00
   0.328000 1  18F15CF3x       Rx   d 8 00 00 00 00 00 00 00 00
   0.329000 1  18F15DF3x       Rx   d 8 00 00 00 00 00 00 00 00
   0.331000 1  18F15EF3x       Rx   d 8 00 00 00 00 00 00 00 00
   0.333000 1  18FF2112x       Rx   d 8 01 00 00 00 00 00 00 00
   0.334000 1  CFF21CAx        Rx   d 8 03 00 80 0C 49 41 00 10
   0.336000 1  18F100D0x       Rx   d 8 0C FF FF FF FF FF FF FF
   0.338000 1  CFF21CAx        Rx   d 8 03 00 80 0C 49 41 00 10
   0.350000 1  CFF21CAx        Rx   d 8 03 00 80 0C 49 41 00 10
   0.358000 1  18F100D0x       Rx   d 8 0C FF FF FF FF FF FF FF
   0.361000 1  CFF21CAx        Rx   d 8 03 00 80 0C 49 41 00 10
   0.373000 1  CFF21CAx        Rx   d 8 03 00 80 0C 49 41 00 10
   0.381000 1  18F100D0x       Rx   d 8 0C FF FF FF FF FF FF FF
   0.385000 1  CFF21CAx        Rx   d 8 03 00 80 0C 49 41 00 10
   0.397000 1  CFF21CAx        Rx   d 8 03 00 80 0C 49 41 00 10
   0.402000 1  18F100F3x       Rx   d 8 02 C3 7D 92 34 FA 14 00
   0.404000 1  18F102F3x       Rx   d 8 0D D3 0D CE 13 02 00 05
   0.405000 1  18F106F3x       Rx   d 8 45 E0 FC FF FF FF FF FF
   0.407000 1  18F107F3x       Rx   d 8 38 A4 30 70 01 3E 00 AA
   0.409000 1  18F100D0x       Rx   d 8 0C FF FF FF FF FF FF FF
   0.410000 1  18F108F3x       Rx   d 8 00 00 00 00 00 00 00 00
   0.412000 1  18F155F3x       Rx   d 8 37 37 37 36 36 38 38 00
   0.414000 1  18F156F3x       Rx   d 8 00 00 00 00 00 00 00 00
   0.416000 1  CFF21CAx        Rx   d 8 03 00 80 0C 49 41 00 10
   0.417000 1  18F157F3x       Rx   d 8 00 00 00 00 00 00 00 00
   0.419000 1  18F158F3x       Rx   d 8 00 00 00 00 00 00 00 00
   0.421000 1  18F159F3x       Rx   d 8 00 00 00 00 00 00 00 00
   0.423000 1  18F15AF3x       Rx   d 8 00 00 00 00 00 00 00 00
   0.425000 1  18F15BF3x       Rx   d 7 00 00 00 00 00 00 00
   0.426000 1  18F15CF3x       Rx   d 8 00 00 00 00 00 00 00 00
   0.428000 1  18F15DF3x       Rx   d 8 00 00 00 00 00 00 00 00
   0.430000 1  18F15EF3x       Rx   d 8 00 00 00 00 00 00 00 00
   0.431000 1  18FF2112x       Rx   d 8 01 00 00 00 00 00 00 00
   0.433000 1  CFF21CAx        Rx   d 8 03 00 80 0C 49 41 00 10
   0.435000 1  18F100D0x       Rx   d 8 0C FF FF FF FF FF FF FF
   0.437000 1  CFF21CAx        Rx   d 8 03 00 80 0C 49 41 00 10
   0.446000 1  CFF21CAx        Rx   d 8 03 00 80 0C 49 41 00 10
   0.458000 1  CFF21CAx        Rx   d 8 03 00 80 0C 49 41 00 10
   0.459000 1  18F100D0x       Rx   d 8 0C FF FF FF FF FF FF FF
   0.470000 1  CFF21CAx        Rx   d 8 03 00 80 0C 49 41 00 10
   0.478000 1  18F100D0x       Rx   d 8 0C FF FF FF FF FF FF FF
   0.482000 1  CFF21CAx        Rx   d 8 03 00 80 0C 49 41 00 10
   0.494000 1  CFF21CAx        Rx   d 8 03 00 80 0C 49 41 00 10
   0.502000 1  18F100F3x       Rx   d 8 02 C3 7D 92 34 FA 14 00
   0.503000 1  18F102F3x       Rx   d 8 0D D3 0D CE 13 02 00 05
   0.504000 1  18F106F3x       Rx   d 8 45 E0 FC FF FF FF FF FF
   0.506000 1  18F107F3x       Rx   d 8 38 A4 30 70 01 3E 00 AA
   0.507000 1  CFF21CAx        Rx   d 8 03 00 80 0C 49 41 00 10
   0.508000 1  18F100D0x       Rx   d 8 0C FF FF FF FF FF FF FF
   0.509000 1  18F108F3x       Rx   d 8 00 00 00 00 00 00 00 00
   0.532000 1  18F155F3x       Rx   d 8 37 37 37 36 36 38 38 00
   0.533000 1  18F156F3x       Rx   d 8 00 00 00 00 00 00 00 00
   0.535000 1  18F157F3x       Rx   d 8 00 00 00 00 00 00 00 00
   0.537000 1  18F158F3x       Rx   d 8 00 00 00 00 00 00 00 00
   0.538000 1  18F159F3x       Rx   d 8 00 00 00 00 00 00 00 00
   0.540000 1  18F15AF3x       Rx   d 8 00 00 00 00 00 00 00 00
   0.542000 1  18F15BF3x       Rx   d 7 00 00 00 00 00 00 00
   0.544000 1  18F15CF3x       Rx   d 8 00 00 00 00 00 00 00 00
   0.545000 1  18F15DF3x       Rx   d 8 00 00 00 00 00 00 00 00
   0.547000 1  18F15EF3x       Rx   d 8 00 00 00 00 00 00 00 00
   0.549000 1  18FF2112x       Rx   d 8 01 00 00 00 00 00 00 00
   0.550000 1  CFF21CAx        Rx   d 8 03 00 80 0C 49 41 00 10
   0.552000 1  CFF21CAx        Rx   d 8 03 00 80 0C 49 41 00 10
   0.553000 1  18F100D0x       Rx   d 8 0C FF FF FF FF FF FF FF
   0.554000 1  CFF21CAx        Rx   d 8 03 00 80 0C 49 41 00 10
   0.556000 1  CFF21CAx        Rx   d 8 03 00 80 0C 49 41 00 10
   0.557000 1  18F100D0x       Rx   d 8 0C FF FF FF FF FF FF FF
   0.566000 1  CFF21CAx        Rx   d 8 03 00 80 0C 49 41 00 10
   0.588000 1  CFF21CAx        Rx   d 8 03 00 80 0C 49 41 00 10
   0.590000 1  18F100D0x       Rx   d 8 0C FF FF FF FF FF FF FF
   0.593000 1  CFF21CAx        Rx   d 8 03 00 80 0C 49 41 00 10
   0.602000 1  18F100F3x       Rx   d 8 02 C3 7D 92 34 FA 14 00
   0.603000 1  CFF21CAx        Rx   d 8 03 00 80 0C 49 41 00 10
   0.605000 1  18F100D0x       Rx   d 8 0C FF FF FF FF FF FF FF
   0.607000 1  18F102F3x       Rx   d 8 0D D3 0D CE 13 02 00 05
   0.609000 1  18F106F3x       Rx   d 8 45 E0 FC FF FF FF FF FF
   0.611000 1  18F107F3x       Rx   d 8 38 A4 30 70 01 3E 00 AA
   0.612000 1  18F108F3x       Rx   d 8 00 00 00 00 00 00 00 00
   0.614000 1  18F155F3x       Rx   d 8 37 37 37 36 36 38 38 00
   0.616000 1  18F156F3x       Rx   d 8 00 00 00 00 00 00 00 00
   0.617000 1  18F157F3x       Rx   d 8 00 00 00 00 00 00 00 00
   0.618000 1  18F158F3x       Rx   d 8 00 00 00 00 00 00 00 00
   0.620000 1  18F159F3x       Rx   d 8 00 00 00 00 00 00 00 00
   0.651000 1  18F15AF3x       Rx   d 8 00 00 00 00 00 00 00 00
   0.653000 1  18FF2112x       Rx   d 8 01 00 00 00 00 00 00 00
   0.655000 1  CFF21CAx        Rx   d 8 03 00 80 0C 49 41 00 10
   0.656000 1  18F15BF3x       Rx   d 7 00 00 00 00 00 00 00
   0.657000 1  18F15CF3x       Rx   d 8 00 00 00 00 00 00 00 00
   0.659000 1  18F15DF3x       Rx   d 8 00 00 00 00 00 00 00 00
   0.660000 1  18F15EF3x       Rx   d 8 00 00 00 00 00 00 00 00
   0.661000 1  CFF21CAx        Rx   d 8 03 00 80 0C 49 41 00 10
   0.662000 1  18F100D0x       Rx   d 8 0C FF FF FF FF FF FF FF
   0.681000 1  CFF21CAx        Rx   d 8 03 00 80 0C 49 41 00 10
   0.682000 1  CFF21CAx        Rx   d 8 03 00 80 0C 49 41 00 10
   0.684000 1  18F100D0x       Rx   d 8 0C FF FF FF FF FF FF FF
   0.685000 1  CFF21CAx        Rx   d 8 03 00 80 0C 49 41 00 10
   0.687000 1  CFF21CAx        Rx   d 8 03 00 80 0C 49 41 00 10
   0.689000 1  18F100D0x       Rx   d 8 0C FF FF FF FF FF FF FF
   0.691000 1  CFF21CAx        Rx   d 8 03 00 80 0C 49 41 00 10
   0.699000 1  CFF21CAx        Rx   d 8 03 00 80 0C 49 41 00 10
   0.702000 1  18F100F3x       Rx   d 8 02 C3 7D 92 34 FA 14 00
   0.703000 1  18F100D0x       Rx   d 8 0C FF FF FF FF FF FF FF
   0.705000 1  18F102F3x       Rx   d 8 0D D3 0D CE 13 02 00 05
   0.707000 1  18F106F3x       Rx   d 8 45 E0 FC FF FF FF FF FF
   0.708000 1  18F107F3x       Rx   d 8 38 A4 30 70 01 3E 00 AA
   0.710000 1  18F108F3x       Rx   d 8 00 00 00 00 00 00 00 00
   0.712000 1  18F155F3x       Rx   d 8 37 37 37 36 36 38 38 00
   0.714000 1  18F156F3x       Rx   d 8 00 00 00 00 00 00 00 00
   0.716000 1  18F157F3x       Rx   d 8 00 00 00 00 00 00 00 00
   0.717000 1  CFF21CAx        Rx   d 8 03 00 80 0C 49 41 00 10
   0.719000 1  18F158F3x       Rx   d 8 00 00 00 00 00 00 00 00
   0.721000 1  18FF2112x       Rx   d 8 01 00 00 00 00 00 00 00
   0.723000 1  18F104F3x       Rx   d 8 38 36 06 04 02 FF FF FF
   0.725000 1  18F113F3x       Rx   d 8 0D D0 0D CE 0D D1 0D D0
   0.726000 1  18F114F3x       Rx   d 8 0D D0 0D CE 0D D2 0D D0
   0.728000 1  18F115F3x       Rx   d 8 0D CF 0D CE 0D CF 0D CF
   0.730000 1  18F116F3x       Rx   d 8 0D D1 0D CE 0D D1 0D D1
   0.732000 1  18F117F3x       Rx   d 8 0D CF 0D D1 0D D3 0D D2
   0.733000 1  18F118F3x       Rx   d 8 00 00 00 00 00 00 00 00
   0.735000 1  18F119F3x       Rx   d 8 00 00 00 00 00 00 00 00
   0.737000 1  18F11AF3x       Rx   d 8 00 00 00 00 00 00 00 00
   0.739000 1  18F11BF3x       Rx   d 8 00 00 00 00 00 00 00 00
   0.740000 1  18F11CF3x       Rx   d 8 00 00 00 00 00 00 00 00
   0.742000 1  CFF21CAx        Rx   d 8 03 00 80 0C 49 41 00 10
   0.744000 1  18F11DF3x       Rx   d 8 00 00 00 00 00 00 00 00
   0.746000 1  18F11EF3x       Rx   d 8 00 00 00 00 00 00 00 00
   0.747000 1  18F11FF3x       Rx   d 8 00 00 00 00 00 00 00 00
   0.749000 1  18F100D0x       Rx   d 8 0C FF FF FF FF FF FF FF
   0.751000 1  18F120F3x       Rx   d 8 00 00 00 00 00 00 00 00
   0.753000 1  18F121F3x       Rx   d 8 00 00 00 00 00 00 00 00
   0.754000 1  18F122F3x       Rx   d 8 00 00 00 00 00 00 00 00
   0.756000 1  18F123F3x       Rx   d 8 00 00 00 00 00 00 00 00
   0.758000 1  18F124F3x       Rx   d 8 00 00 00 00 00 00 00 00
   0.759000 1  18F125F3x       Rx   d 8 00 00 00 00 00 00 00 00
   0.761000 1  18F126F3x       Rx   d 8 00 00 00 00 00 00 00 00
   0.763000 1  18F127F3x       Rx   d 8 00 00 00 00 00 00 00 00
   0.765000 1  CFF21CAx        Rx   d 8 03 00 80 0C 49 41 00 10
   0.766000 1  18F128F3x       Rx   d 8 00 00 00 00 00 00 00 00
   0.768000 1  18F129F3x       Rx   d 8 00 00 00 00 00 00 00 00
   0.770000 1  18F12AF3x       Rx   d 8 00 00 00 00 00 00 00 00
   0.772000 1  18F12BF3x       Rx   d 8 00 00 00 00 00 00 00 00
   0.773000 1  18F12CF3x       Rx   d 8 00 00 00 00 00 00 00 00
   0.775000 1  18F12DF3x       Rx   d 8 00 00 00 00 00 00 00 00
   0.777000 1  18F12EF3x       Rx   d 8 00 00 00 00 00 00 00 00
   0.779000 1  18F12FF3x       Rx   d 8 00 00 00 00 00 00 00 00
   0.780000 1  18F130F3x       Rx   d 8 00 00 00 00 00 00 00 00
   0.782000 1  18F131F3x       Rx   d 8 00 00 00 00 00 00 00 00
   0.784000 1  18F132F3x       Rx   d 8 00 00 00 00 00 00 00 00
   0.785000 1  18F133F3x       Rx   d 8 00 00 00 00 00 00 00 00
   0.787000 1  18F134F3x       Rx   d 8 00 00 00 00 00 00 00 00
   0.789000 1  CFF21CAx        Rx   d 8 03 00 80 0C 49 41 00 10
   0.791000 1  18F135F3x       Rx   d 8 00 00 00 00 00 00 00 00
   0.792000 1  18F136F3x       Rx   d 8 00 00 00 00 00 00 00 00
   0.794000 1  18F137F3x       Rx   d 8 00 00 00 00 00 00 00 00
   0.796000 1  18F138F3x       Rx   d 8 00 00 00 00 00 00 00 00
   0.798000 1  18F100D0x       Rx   d 8 0C FF FF FF FF FF FF FF
   0.799000 1  18F139F3x       Rx   d 8 00 00 00 00 00 00 00 00
   0.801000 1  18F13AF3x       Rx   d 8 00 00 00 00 00 00 00 00
   0.803000 1  18F13BF3x       Rx   d 8 00 00 00 00 00 00 00 00
   0.805000 1  18F13CF3x       Rx   d 8 00 00 00 00 00 00 00 00
   0.806000 1  18F159F3x       Rx   d 8 00 00 00 00 00 00 00 00
   0.808000 1  18F15AF3x       Rx   d 8 00 00 00 00 00 00 00 00
   0.810000 1  18F15BF3x       Rx   d 7 00 00 00 00 00 00 00
   0.811000 1  18F15CF3x       Rx   d 8 00 00 00 00 00 00 00 00
   0.814000 1  18F15DF3x       Rx   d 8 00 00 00 00 00 00 00 00
   0.815000 1  CFF21CAx        Rx   d 8 03 00 80 0C 49 41 00 10
   0.817000 1  18F15EF3x       Rx   d 8 00 00 00 00 00 00 00 00
   0.819000 1  CFF21CAx        Rx   d 8 03 00 80 0C 49 41 00 10
   0.820000 1  18F100D0x       Rx   d 8 0C FF FF FF FF FF FF FF
   0.823000 1  CFF21CAx        Rx   d 8 03 00 80 0C 49 41 00 10
   0.824000 1  CFF21CAx        Rx   d 8 03 00 80 0C 49 41 00 10
   0.826000 1  18F100D0x       Rx   d 8 0C FF FF FF FF FF FF FF
   0.828000 1  18F100F3x       Rx   d 8 02 C3 7D 92 34 FA 14 00
   0.830000 1  18F102F3x       Rx   d 8 0D D3 0D CE 13 02 00 05
   0.831000 1  18F106F3x       Rx   d 8 45 E0 FC FF FF FF FF FF
   0.833000 1  18F107F3x       Rx   d 8 38 A4 30 70 01 3E 00 AA
   0.835000 1  CFF21CAx        Rx   d 8 03 00 80 0C 49 41 00 10
   0.836000 1  18F108F3x       Rx   d 8 00 00 00 00 00 00 00 00
   0.838000 1  18F155F3x       Rx   d 8 37 37 37 36 36 38 38 00
   0.839000 1  18FF2112x       Rx   d 8 01 00 00 00 00 00 00 00
   0.841000 1  18F156F3x       Rx   d 8 00 00 00 00 00 00 00 00
   0.843000 1  18F157F3x       Rx   d 8 00 00 00 00 00 00 00 00
   0.844000 1  18F158F3x       Rx   d 8 00 00 00 00 00 00 00 00
   0.846000 1  18F159F3x       Rx   d 8 00 00 00 00 00 00 00 00
   0.848000 1  18F15AF3x       Rx   d 8 00 00 00 00 00 00 00 00
   0.850000 1  18F15BF3x       Rx   d 7 00 00 00 00 00 00 00
   0.851000 1  18F15CF3x       Rx   d 8 00 00 00 00 00 00 00 00
   0.853000 1  18F15DF3x       Rx   d 8 00 00 00 00 00 00 00 00
   0.855000 1  18F15EF3x       Rx   d 8 00 00 00 00 00 00 00 00
   0.856000 1  CFF21CAx        Rx   d 8 03 00 80 0C 49 41 00 10
   0.858000 1  18F100D0x       Rx   d 8 0C FF FF FF FF FF FF FF
   0.860000 1  CFF21CAx        Rx   d 8 02 00 80 0C 49 41 00 10
   0.862000 1  CFF21CAx        Rx   d 8 02 00 80 0C 49 41 00 10
   0.863000 1  18F100D0x       Rx   d 8 0C FF FF FF FF FF FF FF
   0.865000 1  CFF21CAx        Rx   d 8 02 00 80 0C 49 41 00 10
   0.867000 1  CFF21CAx        Rx   d 8 03 00 80 0C 49 41 00 10
   0.871000 1  18F100D0x       Rx   d 8 0C FF FF FF FF FF FF FF
   0.879000 1  CFF21CAx        Rx   d 8 03 00 80 0C 49 41 00 10
   0.891000 1  CFF21CAx        Rx   d 8 03 00 80 0C 49 41 00 10
   0.895000 1  18F100D0x       Rx   d 8 0C FF FF FF FF FF FF FF
   0.902000 1  18F100F3x       Rx   d 8 02 C3 7D 92 34 FA 14 00
   0.903000 1  18F102F3x       Rx   d 8 0D D3 0D CE 13 02 00 05
   0.905000 1  CFF21CAx        Rx   d 8 03 00 80 0C 49 41 00 10
   0.907000 1  18F106F3x       Rx   d 8 45 E0 FC FF FF FF FF FF
   0.909000 1  18F107F3x       Rx   d 8 38 A4 30 70 01 3E 00 AA
   0.910000 1  18FF2112x       Rx   d 8 01 00 00 00 00 00 00 00
   0.912000 1  18F108F3x       Rx   d 8 00 00 00 00 00 00 00 00
   0.914000 1  18F155F3x       Rx   d 8 37 37 37 36 36 38 38 00
   0.916000 1  18F156F3x       Rx   d 8 00 00 00 00 00 00 00 00
   0.917000 1  18F157F3x       Rx   d 8 00 00 00 00 00 00 00 00
   0.919000 1  18F158F3x       Rx   d 8 00 00 00 00 00 00 00 00
   0.921000 1  18FECACAx       Rx   d 8 00 00 00 00 00 00 FF FF
   0.922000 1  18F159F3x       Rx   d 8 00 00 00 00 00 00 00 00
   0.924000 1  18F15AF3x       Rx   d 8 00 00 00 00 00 00 00 00
   0.925000 1  18F15BF3x       Rx   d 7 00 00 00 00 00 00 00
   0.927000 1  18F15CF3x       Rx   d 8 00 00 00 00 00 00 00 00
   0.929000 1  CFF21CAx        Rx   d 8 03 00 80 0C 49 41 00 10
   0.931000 1  18F15DF3x       Rx   d 8 00 00 00 00 00 00 00 00
   0.933000 1  18F15EF3x       Rx   d 8 00 00 00 00 00 00 00 00
   0.934000 1  18F100D0x       Rx   d 8 0C FF FF FF FF FF FF FF
   0.936000 1  CFF21CAx        Rx   d 8 03 00 80 0C 49 41 00 10
   0.939000 1  CFF21CAx        Rx   d 8 03 00 80 0C 49 41 00 10
   0.940000 1  18F100D0x       Rx   d 8 0C FF FF FF FF FF FF FF
   0.952000 1  CFF21CAx        Rx   d 8 03 00 80 0C 49 41 00 10
   0.964000 1  CFF21CAx        Rx   d 8 03 00 80 0C 49 41 00 10
   0.965000 1  18F100D0x       Rx   d 8 0C FF FF FF FF FF FF FF
   0.976000 1  CFF21CAx        Rx   d 8 03 00 80 0C 49 41 00 10
   0.988000 1  CFF21CAx        Rx   d 8 02 00 80 0C 49 41 00 10
   0.992000 1  18F100D0x       Rx   d 8 0C FF FF FF FF FF FF FF
   1.000000 1  CFF21CAx        Rx   d 8 02 00 80 0C 49 41 00 10
   1.001000 1  18F100F3x       Rx   d 8 02 C3 7D 92 34 FA 14 00
   1.003000 1  18F102F3x       Rx   d 8 0D D3 0D CE 13 02 00 05
   1.005000 1  18FF2112x       Rx   d 8 01 00 00 00 00 00 00 00
   1.007000 1  18F106F3x       Rx   d 8 45 E0 FC FF FF FF FF FF
   1.009000 1  18F107F3x       Rx   d 8 38 A4 30 70 01 3E 00 AA
   1.010000 1  18F108F3x       Rx   d 8 00 00 00 00 00 00 00 00
   1.012000 1  18F155F3x       Rx   d 8 37 37 37 36 36 38 38 00
   1.014000 1  18F156F3x       Rx   d 8 00 00 00 00 00 00 00 00
   1.015000 1  18F157F3x       Rx   d 8 00 00 00 00 00 00 00 00
   1.017000 1  18F158F3x       Rx   d 8 00 00 00 00 00 00 00 00
   1.019000 1  18F159F3x       Rx   d 8 00 00 00 00 00 00 00 00
   1.021000 1  CFF21CAx        Rx   d 8 02 00 80 0C 49 41 00 10
   1.022000 1  18F15AF3x       Rx   d 8 00 00 00 00 00 00 00 00
   1.024000 1  18F15BF3x       Rx   d 7 00 00 00 00 00 00 00
   1.026000 1  18F15CF3x       Rx   d 8 00 00 00 00 00 00 00 00
   1.028000 1  18F15DF3x       Rx   d 8 00 00 00 00 00 00 00 00
   1.029000 1  18F100D0x       Rx   d 8 0C FF FF FF FF FF FF FF
   1.031000 1  18F15EF3x       Rx   d 8 00 00 00 00 00 00 00 00
   1.033000 1  CFF21CAx        Rx   d 8 03 00 80 0C 49 41 00 10
   1.036000 1  CFF21CAx        Rx   d 8 03 00 80 0C 49 41 00 10
   1.040000 1  18F100D0x       Rx   d 8 0C FF FF FF FF FF FF FF
   1.048000 1  CFF21CAx        Rx   d 8 03 00 80 0C 49 41 00 10
   1.060000 1  CFF21CAx        Rx   d 8 02 00 80 0C 49 41 00 10
   1.064000 1  18F100D0x       Rx   d 8 0C FF FF FF FF FF FF FF
   1.072000 1  CFF21CAx        Rx   d 8 02 00 80 0C 49 41 00 10
   1.084000 1  CFF21CAx        Rx   d 8 03 00 80 0C 49 41 00 10
   1.088000 1  18F100D0x       Rx   d 8 0C FF FF FF FF FF FF FF
   1.096000 1  CFF21CAx        Rx   d 8 03 00 80 0C 49 41 00 10
   1.101000 1  18FF2112x       Rx   d 8 01 00 00 00 00 00 00 00
   1.102000 1  18F100F3x       Rx   d 8 02 C3 7D 92 34 FA 14 00
   1.104000 1  18F102F3x       Rx   d 8 0D D3 0D CE 13 02 00 05
   1.106000 1  18F106F3x       Rx   d 8 45 E0 FC FF FF FF FF FF
   1.108000 1  18F107F3x       Rx   d 8 38 A4 30 70 01 3E 00 AA
   1.109000 1  18F108F3x       Rx   d 8 00 00 00 00 00 00 00 00
   1.111000 1  18F155F3x       Rx   d 8 37 37 37 36 36 38 38 00
   1.113000 1  CFF21CAx        Rx   d 8 03 00 80 0C 49 41 00 10
   1.114000 1  18F156F3x       Rx   d 8 00 00 00 00 00 00 00 00
   1.116000 1  18F157F3x       Rx   d 8 00 00 00 00 00 00 00 00
   1.118000 1  18F158F3x       Rx   d 8 00 00 00 00 00 00 00 00
   1.120000 1  18F159F3x       Rx   d 8 00 00 00 00 00 00 00 00
   1.122000 1  18F100D0x       Rx   d 8 0C FF FF FF FF FF FF FF
   1.123000 1  18F15AF3x       Rx   d 8 00 00 00 00 00 00 00 00
   1.125000 1  18F15BF3x       Rx   d 7 00 00 00 00 00 00 00
   1.127000 1  18F15CF3x       Rx   d 8 00 00 00 00 00 00 00 00
   1.129000 1  18F15DF3x       Rx   d 8 00 00 00 00 00 00 00 00
   1.130000 1  18F15EF3x       Rx   d 8 00 00 00 00 00 00 00 00
   1.132000 1  CFF21CAx        Rx   d 8 02 00 80 0C 49 41 00 10
   1.134000 1  CFF21CAx        Rx   d 8 02 00 80 0C 49 41 00 10
   1.137000 1  18F100D0x       Rx   d 8 0C FF FF FF FF FF FF FF
   1.144000 1  CFF21CAx        Rx   d 8 02 00 80 0C 49 41 00 10
   1.156000 1  CFF21CAx        Rx   d 8 03 00 80 0C 49 41 00 10
   1.160000 1  18F100D0x       Rx   d 8 0C FF FF FF FF FF FF FF
   1.168000 1  CFF21CAx        Rx   d 8 03 00 80 0C 49 41 00 10
   1.181000 1  CFF21CAx        Rx   d 8 03 00 80 0C 49 41 00 10
   1.184000 1  18F100D0x       Rx   d 8 0C FF FF FF FF FF FF FF
   1.192000 1  CFF21CAx        Rx   d 8 03 00 80 0C 49 41 00 10
   1.198000 1  18FF2112x       Rx   d 8 01 00 00 00 00 00 00 00
   1.202000 1  18F100F3x       Rx   d 8 02 C3 7D 92 34 FA 14 00
   1.204000 1  18F102F3x       Rx   d 8 0D D3 0D CE 13 02 00 05
