date Wed Jun 03 06:54:09.278 PM 2026
base hex  timestamps absolute
internal events logged
// version 8.0.0
Begin Triggerblock Wed Jun 03 06:54:09.278 PM 2026
   0.000000 Start of measurement
   0.000000 1  18FF2112x       Rx   d 8 01 00 00 00 00 00 00 00
   0.001000 1  CFF21CAx        Rx   d 8 30 00 83 0D 4A 46 00 24
   0.012000 1  CFF21CAx        Rx   d 8 30 00 95 0D 4A 46 00 24
   0.013000 1  18FECACAx       Rx   d 8 00 00 00 00 00 00 FF FF
   0.021000 1  18F100F3x       Rx   d 8 02 D3 7E 39 66 FA 14 00
   0.022000 1  18F102F3x       Rx   d 8 0E 21 0E 1D 10 0C 00 04
   0.024000 1  18F106F3x       Rx   d 8 45 E0 FC FF FF FF FF FF
   0.026000 1  CFF21CAx        Rx   d 8 34 00 A6 0D 4A 46 00 24
   0.028000 1  18F100D0x       Rx   d 8 0C FF FF FF FF FF FF FF
   0.030000 1  18F107F3x       Rx   d 8 38 A4 30 70 01 45 00 AE
   0.031000 1  18F108F3x       Rx   d 8 00 00 00 00 00 00 00 00
   0.033000 1  18F155F3x       Rx   d 8 3A 39 3A 39 39 3B 3A 00
   0.035000 1  18F156F3x       Rx   d 8 00 00 00 00 00 00 00 00
   0.037000 1  18F157F3x       Rx   d 8 00 00 00 00 00 00 00 00
   0.038000 1  18F158F3x       Rx   d 8 00 00 00 00 00 00 00 00
   0.040000 1  18F159F3x       Rx   d 8 00 00 00 00 00 00 00 00
   0.041000 1  18F15AF3x       Rx   d 8 00 00 00 00 00 00 00 00
   0.043000 1  18F15BF3x       Rx   d 7 00 00 00 00 00 00 00
   0.045000 1  18F15CF3x       Rx   d 8 00 00 00 00 00 00 00 00
   0.047000 1  18F15DF3x       Rx   d 8 00 00 00 00 00 00 00 00
   0.048000 1  18F15EF3x       Rx   d 8 00 00 00 00 00 00 00 00
   0.050000 1  CFF21CAx        Rx   d 8 34 00 B6 0D 4A 46 00 24
   0.052000 1  CFF21CAx        Rx   d 8 34 00 C9 0D 4A 46 00 24
   0.053000 1  18F100D0x       Rx   d 8 0C FF FF FF FF FF FF FF
   0.060000 1  CFF21CAx        Rx   d 8 37 00 DB 0D 4A 46 00 24
   0.072000 1  CFF21CAx        Rx   d 8 37 00 E8 0D 4A 46 00 24
   0.073000 1  18F100D0x       Rx   d 8 0C FF FF FF FF FF FF FF
   0.084000 1  CFF21CAx        Rx   d 8 39 00 FE 0D 4A 46 00 24
   0.095000 1  18FF2112x       Rx   d 8 01 00 00 00 00 00 00 00
   0.096000 1  CFF21CAx        Rx   d 8 39 00 0F 0E 4A 46 00 24
   0.098000 1  18F100D0x       Rx   d 8 0C FF FF FF FF FF FF FF
   0.108000 1  CFF21CAx        Rx   d 8 39 00 21 0E 4A 46 00 24
   0.120000 1  CFF21CAx        Rx   d 8 3A 00 30 0E 4A 46 00 24
   0.121000 1  18F100D0x       Rx   d 8 0C FF FF FF FF FF FF FF
   0.123000 1  18F100F3x       Rx   d 8 02 D3 7E 39 66 FA 14 00
   0.125000 1  18F102F3x       Rx   d 8 0E 21 0E 1D 10 0C 00 04
   0.127000 1  18F106F3x       Rx   d 8 45 E0 FC FF FF FF FF FF
   0.128000 1  18F107F3x       Rx   d 8 38 A4 30 70 01 45 00 AE
   0.130000 1  18F108F3x       Rx   d 8 00 00 00 00 00 00 00 00
   0.132000 1  18F155F3x       Rx   d 8 3A 39 3A 39 39 3B 3A 00
   0.134000 1  18F156F3x       Rx   d 8 00 00 00 00 00 00 00 00
   0.135000 1  18F157F3x       Rx   d 8 00 00 00 00 00 00 00 00
   0.137000 1  18F158F3x       Rx   d 8 00 00 00 00 00 00 00 00
   0.139000 1  18F159F3x       Rx   d 8 00 00 00 00 00 00 00 00
   0.140000 1  CFF21CAx        Rx   d 8 3A 00 4D 0E 4A 46 00 24
   0.142000 1  18F15AF3x       Rx   d 8 00 00 00 00 00 00 00 00
   0.144000 1  18F15BF3x       Rx   d 7 00 00 00 00 00 00 00
   0.146000 1  18F15CF3x       Rx   d 8 00 00 00 00 00 00 00 00
   0.147000 1  18F15DF3x       Rx   d 8 00 00 00 00 00 00 00 00
   0.149000 1  18F15EF3x       Rx   d 8 00 00 00 00 00 00 00 00
   0.151000 1  CFF21CAx        Rx   d 8 3A 00 53 0E 4A 46 00 24
   0.152000 1  18F100D0x       Rx   d 8 0C FF FF FF FF FF FF FF
   0.156000 1  CFF21CAx        Rx   d 8 3B 00 6F 0E 4A 46 00 24
   0.168000 1  CFF21CAx        Rx   d 8 3B 00 7C 0E 4A 46 00 24
   0.172000 1  18F100D0x       Rx   d 8 0C FF FF FF FF FF FF FF
   0.180000 1  CFF21CAx        Rx   d 8 3A 00 90 0E 4A 46 00 24
   0.193000 1  CFF21CAx        Rx   d 8 3A 00 A4 0E 4A 46 00 24
   0.194000 1  18FF2112x       Rx   d 8 01 00 00 00 00 00 00 00
   0.197000 1  18F100D0x       Rx   d 8 0C FF FF FF FF FF FF FF
   0.205000 1  CFF21CAx        Rx   d 8 3A 00 B1 0E 4A 46 00 24
   0.217000 1  CFF21CAx        Rx   d 8 39 00 BA 0E 4A 46 00 24
   0.221000 1  18F100D0x       Rx   d 8 0C FF FF FF FF FF FF FF
   0.223000 1  18F100F3x       Rx   d 8 02 D3 7E 39 66 FA 14 00
   0.224000 1  18F102F3x       Rx   d 8 0E 21 0E 1D 10 0C 00 04
   0.226000 1  18F106F3x       Rx   d 8 45 E0 FC FF FF FF FF FF
   0.228000 1  18F107F3x       Rx   d 8 38 A4 30 70 01 45 00 AE
   0.229000 1  18F108F3x       Rx   d 8 00 00 00 00 00 00 00 00
   0.231000 1  18F155F3x       Rx   d 8 3A 39 3A 39 39 3B 3A 00
   0.233000 1  18F156F3x       Rx   d 8 00 00 00 00 00 00 00 00
   0.235000 1  CFF21CAx        Rx   d 8 39 00 BA 0E 4A 46 00 24
   0.236000 1  18F157F3x       Rx   d 8 00 00 00 00 00 00 00 00
   0.238000 1  18F158F3x       Rx   d 8 00 00 00 00 00 00 00 00
   0.239000 1  18F159F3x       Rx   d 8 00 00 00 00 00 00 00 00
   0.241000 1  18F15AF3x       Rx   d 8 00 00 00 00 00 00 00 00
   0.243000 1  18F15BF3x       Rx   d 7 00 00 00 00 00 00 00
   0.245000 1  18F15CF3x       Rx   d 8 00 00 00 00 00 00 00 00
   0.246000 1  18F15DF3x       Rx   d 8 00 00 00 00 00 00 00 00
   0.248000 1  18F15EF3x       Rx   d 8 00 00 00 00 00 00 00 00
   0.250000 1  CFF21CAx        Rx   d 8 39 00 D0 0E 4A 46 00 24
   0.252000 1  18F100D0x       Rx   d 8 0C FF FF FF FF FF FF FF
   0.253000 1  CFF21CAx        Rx   d 8 3A 00 E3 0E 4A 46 00 24
   0.265000 1  CFF21CAx        Rx   d 8 3A 00 EE 0E 4A 46 00 24
   0.273000 1  18F100D0x       Rx   d 8 0C FF FF FF FF FF FF FF
   0.277000 1  CFF21CAx        Rx   d 8 3A 00 FB 0E 4A 46 00 24
   0.289000 1  CFF21CAx        Rx   d 8 3A 00 05 0F 4A 46 00 24
   0.290000 1  18FF2112x       Rx   d 8 01 00 00 00 00 00 00 00
   0.301000 1  CFF21CAx        Rx   d 8 3A 00 12 0F 4A 46 00 24
   0.302000 1  18F100D0x       Rx   d 8 0C FF FF FF FF FF FF FF
   0.313000 1  CFF21CAx        Rx   d 8 3B 00 18 0F 4A 46 00 24
   0.321000 1  18F100F3x       Rx   d 8 02 D3 7E 99 66 FA 14 00
   0.322000 1  18F102F3x       Rx   d 8 0E 21 0E 1D 10 0C 00 04
   0.324000 1  18F106F3x       Rx   d 8 45 E0 FC FF FF FF FF FF
   0.326000 1  18F107F3x       Rx   d 8 38 A4 30 70 01 45 00 AE
   0.328000 1  CFF21CAx        Rx   d 8 3B 00 26 0F 4A 46 00 24
   0.330000 1  18F100D0x       Rx   d 8 0C FF FF FF FF FF FF FF
   0.331000 1  18F108F3x       Rx   d 8 00 00 00 00 00 00 00 00
   0.333000 1  18F155F3x       Rx   d 8 3A 39 3A 39 39 3B 3A 00
   0.335000 1  18F156F3x       Rx   d 8 00 00 00 00 00 00 00 00
   0.336000 1  18F157F3x       Rx   d 8 00 00 00 00 00 00 00 00
   0.338000 1  18F158F3x       Rx   d 8 00 00 00 00 00 00 00 00
   0.340000 1  18F159F3x       Rx   d 8 00 00 00 00 00 00 00 00
   0.341000 1  18F15AF3x       Rx   d 8 00 00 00 00 00 00 00 00
   0.343000 1  18F15BF3x       Rx   d 7 00 00 00 00 00 00 00
   0.345000 1  18F15CF3x       Rx   d 8 00 00 00 00 00 00 00 00
   0.347000 1  18F15DF3x       Rx   d 8 00 00 00 00 00 00 00 00
   0.348000 1  18F15EF3x       Rx   d 8 00 00 00 00 00 00 00 00
   0.350000 1  CFF21CAx        Rx   d 8 3B 00 35 0F 4A 46 00 24
   0.351000 1  CFF21CAx        Rx   d 8 3D 00 49 0F 4A 46 00 24
   0.353000 1  18F100D0x       Rx   d 8 0C FF FF FF FF FF FF FF
   0.362000 1  CFF21CAx        Rx   d 8 3D 00 57 0F 4A 46 00 24
   0.374000 1  CFF21CAx        Rx   d 8 40 00 69 0F 4A 46 00 24
   0.378000 1  18F100D0x       Rx   d 8 0C FF FF FF FF FF FF FF
   0.386000 1  CFF21CAx        Rx   d 8 40 00 69 0F 4A 46 00 24
   0.387000 1  18FF2112x       Rx   d 8 01 00 00 00 00 00 00 00
   0.398000 1  CFF21CAx        Rx   d 8 40 00 80 0F 4A 46 00 24
   0.406000 1  18F100D0x       Rx   d 8 0C FF FF FF FF FF FF FF
   0.410000 1  CFF21CAx        Rx   d 8 41 00 94 0F 4A 46 00 24
   0.421000 1  18F100F3x       Rx   d 8 02 D3 7E 99 66 FA 14 00
   0.422000 1  CFF21CAx        Rx   d 8 41 00 A8 0F 4A 46 00 24
   0.424000 1  18F102F3x       Rx   d 8 0E 21 0E 1D 10 0C 00 04
   0.426000 1  18F106F3x       Rx   d 8 45 E0 FC FF FF FF FF FF
   0.428000 1  18F107F3x       Rx   d 8 38 A4 30 70 01 45 00 AE
   0.430000 1  18F108F3x       Rx   d 8 00 00 00 00 00 00 00 00
   0.431000 1  18F155F3x       Rx   d 8 3A 39 3A 39 39 3B 3A 00
   0.433000 1  18F156F3x       Rx   d 8 00 00 00 00 00 00 00 00
   0.435000 1  18F157F3x       Rx   d 8 00 00 00 00 00 00 00 00
   0.437000 1  18F158F3x       Rx   d 8 00 00 00 00 00 00 00 00
   0.438000 1  18F159F3x       Rx   d 8 00 00 00 00 00 00 00 00
   0.440000 1  18F15AF3x       Rx   d 8 00 00 00 00 00 00 00 00
   0.442000 1  18F15BF3x       Rx   d 7 00 00 00 00 00 00 00
   0.444000 1  CFF21CAx        Rx   d 8 41 00 C5 0F 4A 46 00 24
   0.445000 1  18F100D0x       Rx   d 8 0C FF FF FF FF FF FF FF
   0.447000 1  18F15CF3x       Rx   d 8 00 00 00 00 00 00 00 00
   0.449000 1  18F15DF3x       Rx   d 8 00 00 00 00 00 00 00 00
   0.451000 1  18F15EF3x       Rx   d 8 00 00 00 00 00 00 00 00
   0.452000 1  CFF21CAx        Rx   d 8 41 00 DB 0F 4A 46 00 24
   0.458000 1  CFF21CAx        Rx   d 8 41 00 EC 0F 4A 46 00 24
   0.462000 1  18F100D0x       Rx   d 8 0C FF FF FF FF FF FF FF
   0.470000 1  CFF21CAx        Rx   d 8 41 00 EC 0F 4A 46 00 24
   0.482000 1  CFF21CAx        Rx   d 8 41 00 03 10 4A 46 00 24
   0.485000 1  18FF2112x       Rx   d 8 01 00 00 00 00 00 00 00
   0.490000 1  18F100D0x       Rx   d 8 0C FF FF FF FF FF FF FF
   0.494000 1  CFF21CAx        Rx   d 8 41 00 14 10 4A 46 00 24
   0.506000 1  CFF21CAx        Rx   d 8 41 00 2D 10 4A 46 00 24
   0.518000 1  CFF21CAx        Rx   d 8 41 00 44 10 4A 46 00 24
   0.519000 1  18F100D0x       Rx   d 8 0C FF FF FF FF FF FF FF
   0.522000 1  18F100F3x       Rx   d 8 02 D3 7E DB 66 FA 14 00
   0.523000 1  18F102F3x       Rx   d 8 0E 21 0E 1D 10 0C 00 04
   0.524000 1  18F106F3x       Rx   d 8 45 E0 FC FF FF FF FF FF
   0.526000 1  18F107F3x       Rx   d 8 38 A4 30 70 01 45 00 AE
   0.527000 1  18F108F3x       Rx   d 8 00 00 00 00 00 00 00 00
   0.558000 1  18F155F3x       Rx   d 8 3A 39 3A 39 39 3B 3A 00
   0.560000 1  18F156F3x       Rx   d 8 00 00 00 00 00 00 00 00
   0.561000 1  18F157F3x       Rx   d 8 00 00 00 00 00 00 00 00
   0.563000 1  18F158F3x       Rx   d 8 00 00 00 00 00 00 00 00
   0.565000 1  CFF21CAx        Rx   d 8 41 00 4D 10 4A 46 00 24
   0.567000 1  18F159F3x       Rx   d 8 00 00 00 00 00 00 00 00
   0.568000 1  18F15AF3x       Rx   d 8 00 00 00 00 00 00 00 00
   0.570000 1  18F15BF3x       Rx   d 7 00 00 00 00 00 00 00
   0.572000 1  18F15CF3x       Rx   d 8 00 00 00 00 00 00 00 00
   0.574000 1  18F15DF3x       Rx   d 8 00 00 00 00 00 00 00 00
   0.575000 1  18F15EF3x       Rx   d 8 00 00 00 00 00 00 00 00
   0.577000 1  CFF21CAx        Rx   d 8 3F 00 63 10 4A 46 00 24
   0.579000 1  18F100D0x       Rx   d 8 0C FF FF FF FF FF FF FF
   0.580000 1  CFF21CAx        Rx   d 8 3F 00 73 10 4A 46 00 24
   0.582000 1  CFF21CAx        Rx   d 8 3D 00 82 10 4A 46 00 24
   0.583000 1  18F100D0x       Rx   d 8 0C FF FF FF FF FF FF FF
   0.584000 1  CFF21CAx        Rx   d 8 3D 00 82 10 4A 46 00 24
   0.585000 1  18FF2112x       Rx   d 8 01 00 00 00 00 00 00 00
   0.591000 1  CFF21CAx        Rx   d 8 3D 00 91 10 4A 46 00 24
   0.599000 1  18F100D0x       Rx   d 8 0C FF FF FF FF FF FF FF
   0.619000 1  CFF21CAx        Rx   d 8 3B 00 9B 10 4A 46 00 24
   0.621000 1  18F104F3x       Rx   d 8 3B 39 06 02 02 FF FF FF
   0.623000 1  CFF21CAx        Rx   d 8 3B 00 B4 10 4A 46 00 24
   0.625000 1  18F113F3x       Rx   d 8 0E 1F 0E 1E 0E 1F 0E 20
   0.626000 1  18F114F3x       Rx   d 8 0E 20 0E 1F 0E 20 0E 1F
   0.628000 1  18F115F3x       Rx   d 8 0E 1E 0E 1E 0E 1F 0E 1D
   0.630000 1  18F116F3x       Rx   d 8 0E 20 0E 1F 0E 20 0E 21
   0.632000 1  18F117F3x       Rx   d 8 0E 20 0E 21 0E 21 0E 20
   0.633000 1  18F118F3x       Rx   d 8 00 00 00 00 00 00 00 00
   0.635000 1  18F119F3x       Rx   d 8 00 00 00 00 00 00 00 00
   0.637000 1  18F100F3x       Rx   d 8 02 D3 7E DB 66 FA 14 00
   0.639000 1  18F102F3x       Rx   d 8 0E 21 0E 1D 10 0C 00 04
   0.640000 1  18F106F3x       Rx   d 8 45 E0 FC FF FF FF FF FF
   0.642000 1  18F107F3x       Rx   d 8 38 A4 30 70 01 45 00 AE
   0.644000 1  18F108F3x       Rx   d 8 00 00 00 00 00 00 00 00
   0.646000 1  CFF21CAx        Rx   d 8 3B 00 BE 10 4A 46 00 24
   0.647000 1  18F100D0x       Rx   d 8 0C FF FF FF FF FF FF FF
   0.649000 1  18F11AF3x       Rx   d 8 00 00 00 00 00 00 00 00
   0.651000 1  18F11BF3x       Rx   d 8 00 00 00 00 00 00 00 00
   0.652000 1  18F11CF3x       Rx   d 8 00 00 00 00 00 00 00 00
   0.653000 1  18F11DF3x       Rx   d 8 00 00 00 00 00 00 00 00
   0.654000 1  18F11EF3x       Rx   d 8 00 00 00 00 00 00 00 00
   0.686000 1  18F11FF3x       Rx   d 8 00 00 00 00 00 00 00 00
   0.687000 1  18F120F3x       Rx   d 8 00 00 00 00 00 00 00 00
   0.690000 1  18F121F3x       Rx   d 8 00 00 00 00 00 00 00 00
   0.692000 1  18F122F3x       Rx   d 8 00 00 00 00 00 00 00 00
   0.693000 1  18F123F3x       Rx   d 8 00 00 00 00 00 00 00 00
   0.695000 1  18F124F3x       Rx   d 8 00 00 00 00 00 00 00 00
   0.697000 1  CFF21CAx        Rx   d 8 39 00 CE 10 4A 46 00 24
   0.698000 1  18F125F3x       Rx   d 8 00 00 00 00 00 00 00 00
   0.700000 1  18F126F3x       Rx   d 8 00 00 00 00 00 00 00 00
   0.702000 1  18F127F3x       Rx   d 8 00 00 00 00 00 00 00 00
   0.703000 1  18F128F3x       Rx   d 8 00 00 00 00 00 00 00 00
   0.705000 1  18F129F3x       Rx   d 8 00 00 00 00 00 00 00 00
   0.707000 1  18F12AF3x       Rx   d 8 00 00 00 00 00 00 00 00
   0.708000 1  18F12BF3x       Rx   d 8 00 00 00 00 00 00 00 00
   0.710000 1  18F12CF3x       Rx   d 8 00 00 00 00 00 00 00 00
   0.712000 1  18F12DF3x       Rx   d 8 00 00 00 00 00 00 00 00
   0.714000 1  18F12EF3x       Rx   d 8 00 00 00 00 00 00 00 00
   0.715000 1  18F12FF3x       Rx   d 8 00 00 00 00 00 00 00 00
   0.717000 1  18F130F3x       Rx   d 8 00 00 00 00 00 00 00 00
   0.719000 1  CFF21CAx        Rx   d 8 39 00 DE 10 4A 46 00 24
   0.720000 1  18F131F3x       Rx   d 8 00 00 00 00 00 00 00 00
   0.722000 1  18F132F3x       Rx   d 8 00 00 00 00 00 00 00 00
   0.724000 1  18F133F3x       Rx   d 8 00 00 00 00 00 00 00 00
   0.726000 1  18F134F3x       Rx   d 8 00 00 00 00 00 00 00 00
   0.727000 1  18F100D0x       Rx   d 8 0C FF FF FF FF FF FF FF
   0.729000 1  18F135F3x       Rx   d 8 00 00 00 00 00 00 00 00
   0.731000 1  18F136F3x       Rx   d 8 00 00 00 00 00 00 00 00
   0.733000 1  18F137F3x       Rx   d 8 00 00 00 00 00 00 00 00
   0.735000 1  18F138F3x       Rx   d 8 00 00 00 00 00 00 00 00
   0.737000 1  18F139F3x       Rx   d 8 00 00 00 00 00 00 00 00
   0.738000 1  18F13AF3x       Rx   d 8 00 00 00 00 00 00 00 00
   0.740000 1  18F13BF3x       Rx   d 8 00 00 00 00 00 00 00 00
   0.742000 1  18F13CF3x       Rx   d 8 00 00 00 00 00 00 00 00
   0.744000 1  18F155F3x       Rx   d 8 3A 39 3A 39 39 3B 3A 00
   0.745000 1  CFF21CAx        Rx   d 8 38 00 E5 10 4A 46 00 24
   0.747000 1  18F156F3x       Rx   d 8 00 00 00 00 00 00 00 00
   0.749000 1  18F157F3x       Rx   d 8 00 00 00 00 00 00 00 00
   0.751000 1  18F158F3x       Rx   d 8 00 00 00 00 00 00 00 00
   0.752000 1  18F159F3x       Rx   d 8 00 00 00 00 00 00 00 00
   0.754000 1  18F15AF3x       Rx   d 8 00 00 00 00 00 00 00 00
   0.756000 1  18F15BF3x       Rx   d 7 00 00 00 00 00 00 00
   0.757000 1  18F15CF3x       Rx   d 8 00 00 00 00 00 00 00 00
   0.759000 1  18F15DF3x       Rx   d 8 00 00 00 00 00 00 00 00
   0.761000 1  18F15EF3x       Rx   d 8 00 00 00 00 00 00 00 00
   0.762000 1  CFF21CAx        Rx   d 8 38 00 E5 10 4A 46 00 24
   0.764000 1  18FF2112x       Rx   d 8 01 00 00 00 00 00 00 00
   0.766000 1  18F100D0x       Rx   d 8 0C FF FF FF FF FF FF FF
   0.768000 1  CFF21CAx        Rx   d 8 38 00 F9 10 4A 46 00 24
   0.769000 1  CFF21CAx        Rx   d 8 37 00 03 11 4A 46 00 24
   0.771000 1  18F100D0x       Rx   d 8 0C FF FF FF FF FF FF FF
   0.773000 1  CFF21CAx        Rx   d 8 37 00 0A 11 4A 46 00 24
   0.775000 1  18F100F3x       Rx   d 8 02 D3 7E DB 66 FA 14 00
   0.776000 1  18F102F3x       Rx   d 8 0E 21 0E 1D 10 0C 00 04
   0.778000 1  CFF21CAx        Rx   d 8 37 00 19 11 4A 46 00 24
   0.780000 1  18F106F3x       Rx   d 8 45 E0 FC FF FF FF FF FF
   0.781000 1  18F107F3x       Rx   d 8 38 A4 30 70 01 45 00 AE
   0.783000 1  18F108F3x       Rx   d 8 00 00 00 00 00 00 00 00
   0.785000 1  18F155F3x       Rx   d 8 3A 39 3A 39 39 3B 3A 00
   0.786000 1  18F156F3x       Rx   d 8 00 00 00 00 00 00 00 00
   0.788000 1  18F157F3x       Rx   d 8 00 00 00 00 00 00 00 00
   0.790000 1  18F158F3x       Rx   d 8 00 00 00 00 00 00 00 00
   0.791000 1  18F159F3x       Rx   d 8 00 00 00 00 00 00 00 00
   0.793000 1  18F15AF3x       Rx   d 8 00 00 00 00 00 00 00 00
   0.795000 1  18F15BF3x       Rx   d 7 00 00 00 00 00 00 00
   0.796000 1  18F15CF3x       Rx   d 8 00 00 00 00 00 00 00 00
   0.798000 1  CFF21CAx        Rx   d 8 36 00 28 11 4A 46 00 24
   0.800000 1  18F15DF3x       Rx   d 8 00 00 00 00 00 00 00 00
   0.801000 1  18F15EF3x       Rx   d 8 00 00 00 00 00 00 00 00
   0.802000 1  18F100D0x       Rx   d 8 0C FF FF FF FF FF FF FF
   0.804000 1  CFF21CAx        Rx   d 8 36 00 30 11 4A 46 00 24
   0.806000 1  CFF21CAx        Rx   d 8 36 00 30 11 4A 46 00 24
   0.808000 1  18F100D0x       Rx   d 8 0C FF FF FF FF FF FF FF
   0.810000 1  CFF21CAx        Rx   d 8 36 00 3F 11 4A 46 00 24
   0.811000 1  18FF2112x       Rx   d 8 01 00 00 00 00 00 00 00
   0.813000 1  CFF21CAx        Rx   d 8 36 00 50 11 4A 46 00 24
   0.814000 1  18F100D0x       Rx   d 8 0C FF FF FF FF FF FF FF
   0.816000 1  CFF21CAx        Rx   d 8 36 00 57 11 4A 46 00 24
   0.818000 1  CFF21CAx        Rx   d 8 36 00 68 11 4A 46 00 24
   0.819000 1  CFF21CAx        Rx   d 8 36 00 74 11 4A 46 00 24
   0.821000 1  18F100D0x       Rx   d 8 0C FF FF FF FF FF FF FF
   0.823000 1  18F100F3x       Rx   d 8 02 D3 7E CD 66 FA 14 00
   0.825000 1  18F102F3x       Rx   d 8 0E 21 0E 1D 10 02 00 04
   0.826000 1  18F106F3x       Rx   d 8 45 E0 FC FF FF FF FF FF
   0.828000 1  18F107F3x       Rx   d 8 38 A4 30 70 01 45 00 AE
   0.830000 1  18F108F3x       Rx   d 8 00 00 00 00 00 00 00 00
   0.832000 1  18F155F3x       Rx   d 8 3A 39 3A 39 39 3B 3A 00
   0.834000 1  18F156F3x       Rx   d 8 00 00 00 00 00 00 00 00
   0.835000 1  18F157F3x       Rx   d 8 00 00 00 00 00 00 00 00
   0.837000 1  18F158F3x       Rx   d 8 00 00 00 00 00 00 00 00
   0.839000 1  18F159F3x       Rx   d 8 00 00 00 00 00 00 00 00
   0.840000 1  CFF21CAx        Rx   d 8 36 00 7E 11 4A 46 00 24
   0.842000 1  18F15AF3x       Rx   d 8 00 00 00 00 00 00 00 00
   0.844000 1  18F15BF3x       Rx   d 7 00 00 00 00 00 00 00
   0.846000 1  18F15CF3x       Rx   d 8 00 00 00 00 00 00 00 00
   0.847000 1  18F15DF3x       Rx   d 8 00 00 00 00 00 00 00 00
   0.849000 1  18F15EF3x       Rx   d 8 00 00 00 00 00 00 00 00
   0.851000 1  CFF21CAx        Rx   d 8 36 00 8B 11 4A 46 00 24
   0.852000 1  18F100D0x       Rx   d 8 0C FF FF FF FF FF FF FF
   0.856000 1  CFF21CAx        Rx   d 8 36 00 99 11 4A 46 00 24
   0.868000 1  CFF21CAx        Rx   d 8 36 00 99 11 4A 46 00 24
   0.874000 1  18FF2112x       Rx   d 8 01 00 00 00 00 00 00 00
   0.875000 1  18F100D0x       Rx   d 8 0C FF FF FF FF FF FF FF
   0.880000 1  CFF21CAx        Rx   d 8 36 00 A8 11 4A 46 00 24
   0.892000 1  CFF21CAx        Rx   d 8 36 00 B5 11 4A 46 00 24
   0.904000 1  CFF21CAx        Rx   d 8 36 00 C3 11 4A 46 00 24
   0.905000 1  18F100D0x       Rx   d 8 0C FF FF FF FF FF FF FF
   0.916000 1  CFF21CAx        Rx   d 8 36 00 D5 11 4A 46 00 24
   0.922000 1  18F100F3x       Rx   d 8 02 D3 7E CD 66 FA 14 00
   0.923000 1  18F102F3x       Rx   d 8 0E 21 0E 1D 10 02 00 04
   0.925000 1  18F106F3x       Rx   d 8 45 E0 FC FF FF FF FF FF
   0.927000 1  18F107F3x       Rx   d 8 38 A4 30 70 01 45 00 AE
   0.929000 1  18F108F3x       Rx   d 8 00 00 00 00 00 00 00 00
   0.931000 1  18F155F3x       Rx   d 8 3A 39 3A 39 39 3B 3A 00
   0.932000 1  CFF21CAx        Rx   d 8 35 00 E4 11 4A 46 00 24
   0.934000 1  18F100D0x       Rx   d 8 0C FF FF FF FF FF FF FF
   0.936000 1  18F156F3x       Rx   d 8 00 00 00 00 00 00 00 00
   0.938000 1  18F157F3x       Rx   d 8 00 00 00 00 00 00 00 00
   0.939000 1  18F158F3x       Rx   d 8 00 00 00 00 00 00 00 00
   0.941000 1  18F159F3x       Rx   d 8 00 00 00 00 00 00 00 00
   0.943000 1  18F15AF3x       Rx   d 8 00 00 00 00 00 00 00 00
   0.945000 1  18F15BF3x       Rx   d 7 00 00 00 00 00 00 00
   0.946000 1  18F15CF3x       Rx   d 8 00 00 00 00 00 00 00 00
   0.948000 1  18F15DF3x       Rx   d 8 00 00 00 00 00 00 00 00
   0.950000 1  18F15EF3x       Rx   d 8 00 00 00 00 00 00 00 00
   0.952000 1  CFF21CAx        Rx   d 8 35 00 EC 11 4A 46 00 24
   0.953000 1  CFF21CAx        Rx   d 8 35 00 F7 11 4A 46 00 24
   0.957000 1  18F100D0x       Rx   d 8 0C FF FF FF FF FF FF FF
   0.964000 1  CFF21CAx        Rx   d 8 35 00 F7 11 4A 46 00 24
   0.971000 1  18FF2112x       Rx   d 8 01 00 00 00 00 00 00 00
   0.976000 1  CFF21CAx        Rx   d 8 35 00 08 12 4A 46 00 24
   0.984000 1  18F100D0x       Rx   d 8 0C FF FF FF FF FF FF FF
   0.988000 1  CFF21CAx        Rx   d 8 34 00 1A 12 4A 46 00 24
   1.000000 1  CFF21CAx        Rx   d 8 34 00 1F 12 4A 46 00 24
   1.012000 1  CFF21CAx        Rx   d 8 34 00 2E 12 4A 46 00 24
   1.013000 1  18F100D0x       Rx   d 8 0C FF FF FF FF FF FF FF
   1.022000 1  18F100F3x       Rx   d 8 02 D3 7E C8 66 FA 14 00
   1.023000 1  18F102F3x       Rx   d 8 0E 21 0E 1D 10 02 00 04
   1.025000 1  18F106F3x       Rx   d 8 45 E0 FC FF FF FF FF FF
   1.027000 1  CFF21CAx        Rx   d 8 34 00 37 12 4A 46 00 24
   1.029000 1  18F107F3x       Rx   d 8 38 A4 30 70 01 45 00 AE
   1.031000 1  18F108F3x       Rx   d 8 00 00 00 00 00 00 00 00
   1.032000 1  18F155F3x       Rx   d 8 3A 39 3A 39 39 3B 3A 00
   1.034000 1  18F156F3x       Rx   d 8 00 00 00 00 00 00 00 00
   1.036000 1  18FECACAx       Rx   d 8 00 00 00 00 00 00 FF FF
   1.038000 1  18F157F3x       Rx   d 8 00 00 00 00 00 00 00 00
   1.039000 1  18F158F3x       Rx   d 8 00 00 00 00 00 00 00 00
   1.041000 1  18F159F3x       Rx   d 8 00 00 00 00 00 00 00 00
   1.043000 1  18F15AF3x       Rx   d 8 00 00 00 00 00 00 00 00
   1.045000 1  18F15BF3x       Rx   d 7 00 00 00 00 00 00 00
   1.046000 1  18F15CF3x       Rx   d 8 00 00 00 00 00 00 00 00
   1.048000 1  18F15DF3x       Rx   d 8 00 00 00 00 00 00 00 00
   1.050000 1  18F15EF3x       Rx   d 8 00 00 00 00 00 00 00 00
   1.052000 1  CFF21CAx        Rx   d 8 34 00 42 12 4A 46 00 24
   1.053000 1  18F100D0x       Rx   d 8 0C FF FF FF FF FF FF FF
   1.054000 1  CFF21CAx        Rx   d 8 34 00 42 12 4A 46 00 24
   1.061000 1  CFF21CAx        Rx   d 8 33 00 50 12 4A 46 00 24
   1.068000 1  18FF2112x       Rx   d 8 01 00 00 00 00 00 00 00
   1.072000 1  CFF21CAx        Rx   d 8 33 00 61 12 4A 46 00 24
   1.073000 1  18F100D0x       Rx   d 8 0C FF FF FF FF FF FF FF
   1.084000 1  CFF21CAx        Rx   d 8 32 00 69 12 4A 46 00 24
   1.097000 1  CFF21CAx        Rx   d 8 32 00 6B 12 4A 46 00 24
   1.098000 1  18F100D0x       Rx   d 8 0C FF FF FF FF FF FF FF
   1.108000 1  CFF21CAx        Rx   d 8 32 00 7B 12 4A 46 00 24
   1.120000 1  CFF21CAx        Rx   d 8 31 00 85 12 4A 46 00 24
   1.121000 1  18F100D0x       Rx   d 8 0C FF FF FF FF FF FF FF
   1.123000 1  18F100F3x       Rx   d 8 02 D3 7E C8 66 FA 14 00
   1.125000 1  18F102F3x       Rx   d 8 0E 21 0E 1D 10 02 00 04
   1.127000 1  18F106F3x       Rx   d 8 45 E0 FC FF FF FF FF FF
   1.129000 1  18F107F3x       Rx   d 8 38 A4 30 70 01 45 00 AE
   1.130000 1  18F108F3x       Rx   d 8 00 00 00 00 00 00 00 00
   1.132000 1  18F155F3x       Rx   d 8 3A 39 3A 39 39 3B 3A 00
   1.134000 1  18F156F3x       Rx   d 8 00 00 00 00 00 00 00 00
   1.136000 1  18F157F3x       Rx   d 8 00 00 00 00 00 00 00 00
   1.137000 1  18F158F3x       Rx   d 8 00 00 00 00 00 00 00 00
   1.139000 1  18F159F3x       Rx   d 8 00 00 00 00 00 00 00 00
   1.141000 1  CFF21CAx        Rx   d 8 31 00 8E 12 4A 46 00 24
   1.143000 1  18F15AF3x       Rx   d 8 00 00 00 00 00 00 00 00
   1.144000 1  18F15BF3x       Rx   d 7 00 00 00 00 00 00 00
   1.146000 1  18F15CF3x       Rx   d 8 00 00 00 00 00 00 00 00
   1.148000 1  18F15DF3x       Rx   d 8 00 00 00 00 00 00 00 00
   1.149000 1  18F15EF3x       Rx   d 8 00 00 00 00 00 00 00 00
   1.151000 1  CFF21CAx        Rx   d 8 32 00 97 12 4A 46 00 24
   1.153000 1  18F100D0x       Rx   d 8 0C FF FF FF FF FF FF FF
   1.157000 1  CFF21CAx        Rx   d 8 32 00 9E 12 4A 46 00 24
   1.165000 1  18FF2112x       Rx   d 8 01 00 00 00 00 00 00 00
   1.168000 1  CFF21CAx        Rx   d 8 32 00 A5 12 4A 46 00 24
   1.172000 1  18F100D0x       Rx   d 8 0C FF FF FF FF FF FF FF
   1.180000 1  CFF21CAx        Rx   d 8 32 00 A5 12 4A 46 00 24
   1.193000 1  CFF21CAx        Rx   d 8 33 00 B4 12 4A 46 00 24
   1.197000 1  18F100D0x       Rx   d 8 0C FF FF FF FF FF FF FF
   1.205000 1  CFF21CAx        Rx   d 8 33 00 B4 12 4A 46 00 24
   1.217000 1  CFF21CAx        Rx   d 8 35 00 B7 12 4A 46 00 24
   1.222000 1  18F100F3x       Rx   d 8 02 D3 7E C8 66 FA 14 00
   1.223000 1  18F102F3x       Rx   d 8 0E 21 0E 1C 13 02 00 05
   1.225000 1  18F106F3x       Rx   d 8 45 E0 FC FF FF FF FF FF
   1.227000 1  18F107F3x       Rx   d 8 38 A4 30 70 01 45 00 AE
   1.228000 1  18F100D0x       Rx   d 8 0C FF FF FF FF FF FF FF
   1.231000 1  18F108F3x       Rx   d 8 00 00 00 00 00 00 00 00
   1.232000 1  18F155F3x       Rx   d 8 3A 39 3A 39 39 3B 3A 00
   1.233000 1  18F156F3x       Rx   d 8 00 00 00 00 00 00 00 00
   1.234000 1  CFF21CAx        Rx   d 8 35 00 C1 12 4A 46 00 24
   1.236000 1  18F157F3x       Rx   d 8 00 00 00 00 00 00 00 00
   1.237000 1  18F158F3x       Rx   d 8 00 00 00 00 00 00 00 00
   1.265000 1  18F159F3x       Rx   d 8 00 00 00 00 00 00 00 00
   1.267000 1  18F15AF3x       Rx   d 8 00 00 00 00 00 00 00 00
   1.269000 1  18F15BF3x       Rx   d 7 00 00 00 00 00 00 00
   1.271000 1  18F15CF3x       Rx   d 8 00 00 00 00 00 00 00 00
   1.272000 1  18F15DF3x       Rx   d 8 00 00 00 00 00 00 00 00
   1.274000 1  18F15EF3x       Rx   d 8 00 00 00 00 00 00 00 00
   1.276000 1  CFF21CAx        Rx   d 8 35 00 C8 12 4A 46 00 24
   1.277000 1  18F100D0x       Rx   d 8 0C FF FF FF FF FF FF FF
   1.279000 1  CFF21CAx        Rx   d 8 35 00 D3 12 4A 46 00 24
   1.281000 1  18FF2112x       Rx   d 8 01 00 00 00 00 00 00 00
   1.283000 1  CFF21CAx        Rx   d 8 35 00 DA 12 4A 46 00 24
   1.284000 1  CFF21CAx        Rx   d 8 37 00 E3 12 4A 46 00 24
   1.286000 1  18F100D0x       Rx   d 8 0C FF FF FF FF FF FF FF
   1.289000 1  CFF21CAx        Rx   d 8 37 00 EC 12 4A 46 00 24
   1.301000 1  CFF21CAx        Rx   d 8 37 00 F4 12 4A 46 00 24
   1.302000 1  18F100D0x       Rx   d 8 0C FF FF FF FF FF FF FF
   1.313000 1  CFF21CAx        Rx   d 8 38 00 01 13 4A 46 00 24
   1.322000 1  18F100F3x       Rx   d 8 02 D3 7E B6 66 FA 14 00
   1.323000 1  18F102F3x       Rx   d 8 0E 21 0E 1C 13 02 00 05
   1.324000 1  18F106F3x       Rx   d 8 45 E0 FC FF FF FF FF FF
   1.326000 1  18F107F3x       Rx   d 8 38 A4 30 70 01 45 00 AE
   1.331000 1  CFF21CAx        Rx   d 8 38 00 0A 13 4A 46 00 24
   1.333000 1  18F100D0x       Rx   d 8 0C FF FF FF FF FF FF FF
   1.334000 1  18F108F3x       Rx   d 8 00 00 00 00 00 00 00 00
   1.336000 1  18F155F3x       Rx   d 8 3A 39 3A 39 39 3B 3A 00
   1.338000 1  18F156F3x       Rx   d 8 00 00 00 00 00 00 00 00
   1.339000 1  18F157F3x       Rx   d 8 00 00 00 00 00 00 00 00
   1.341000 1  18F158F3x       Rx   d 8 00 00 00 00 00 00 00 00
   1.343000 1  18F159F3x       Rx   d 8 00 00 00 00 00 00 00 00
   1.345000 1  18F15AF3x       Rx   d 8 00 00 00 00 00 00 00 00
   1.346000 1  18F15BF3x       Rx   d 7 00 00 00 00 00 00 00
   1.348000 1  18F15CF3x       Rx   d 8 00 00 00 00 00 00 00 00
   1.350000 1  18F15DF3x       Rx   d 8 00 00 00 00 00 00 00 00
   1.351000 1  18F15EF3x       Rx   d 8 00 00 00 00 00 00 00 00
   1.353000 1  CFF21CAx        Rx   d 8 3B 00 10 13 4A 46 00 24
   1.355000 1  CFF21CAx        Rx   d 8 3B 00 1F 13 4A 46 00 24
   1.356000 1  18F100D0x       Rx   d 8 0C FF FF FF FF FF FF FF
   1.360000 1  18FF2112x       Rx   d 8 01 00 00 00 00 00 00 00
   1.362000 1  CFF21CAx        Rx   d 8 3B 00 25 13 4A 46 00 24
   1.373000 1  CFF21CAx        Rx   d 8 3B 00 2E 13 4A 46 00 24
   1.378000 1  18F100D0x       Rx   d 8 0C FF FF FF FF FF FF FF
   1.386000 1  CFF21CAx        Rx   d 8 3B 00 33 13 4A 46 00 24
   1.397000 1  CFF21CAx        Rx   d 8 3B 00 33 13 4A 46 00 24
   1.402000 1  18F100D0x       Rx   d 8 0C FF FF FF FF FF FF FF
   1.410000 1  CFF21CAx        Rx   d 8 3C 00 44 13 4A 46 00 24
   1.421000 1  CFF21CAx        Rx   d 8 3C 00 44 13 4A 46 00 24
   1.422000 1  18F100F3x       Rx   d 8 02 D3 7E B6 66 FA 14 00
   1.424000 1  18F102F3x       Rx   d 8 0E 21 0E 1C 13 02 00 05
   1.425000 1  18F106F3x       Rx   d 8 45 E0 FC FF FF FF FF FF
   1.427000 1  18F107F3x       Rx   d 8 38 A4 30 70 01 45 00 AE
   1.428000 1  18F100D0x       Rx   d 8 0C FF FF FF FF FF FF FF
   1.430000 1  18F108F3x       Rx   d 8 00 00 00 00 00 00 00 00
   1.431000 1  18F155F3x       Rx   d 8 3A 39 3A 39 39 3B 3A 00
   1.433000 1  18F156F3x       Rx   d 8 00 00 00 00 00 00 00 00
   1.435000 1  18F157F3x       Rx   d 8 00 00 00 00 00 00 00 00
   1.437000 1  18F158F3x       Rx   d 8 00 00 00 00 00 00 00 00
   1.439000 1  18F159F3x       Rx   d 8 00 00 00 00 00 00 00 00
   1.440000 1  18F15AF3x       Rx   d 8 00 00 00 00 00 00 00 00
   1.442000 1  18F15BF3x       Rx   d 7 00 00 00 00 00 00 00
   1.444000 1  CFF21CAx        Rx   d 8 3C 00 4F 13 4A 46 00 24
   1.445000 1  18F15CF3x       Rx   d 8 00 00 00 00 00 00 00 00
   1.447000 1  18F15DF3x       Rx   d 8 00 00 00 00 00 00 00 00
   1.449000 1  18F15EF3x       Rx   d 8 00 00 00 00 00 00 00 00
   1.451000 1  CFF21CAx        Rx   d 8 3E 00 55 13 4A 46 00 24
   1.454000 1  18F100D0x       Rx   d 8 0C FF FF FF FF FF FF FF
   1.457000 1  18FF2112x       Rx   d 8 01 00 00 00 00 00 00 00
   1.459000 1  CFF21CAx        Rx   d 8 3E 00 5E 13 4A 46 00 24
   1.470000 1  CFF21CAx        Rx   d 8 3F 00 66 13 4A 46 00 24
   1.478000 1  18F100D0x       Rx   d 8 0C FF FF FF FF FF FF FF
   1.482000 1  CFF21CAx        Rx   d 8 3F 00 70 13 4A 46 00 24
   1.494000 1  CFF21CAx        Rx   d 8 3F 00 78 13 4A 46 00 24
   1.506000 1  CFF21CAx        Rx   d 8 41 00 85 13 4A 46 00 24
   1.507000 1  18F100D0x       Rx   d 8 0C FF FF FF FF FF FF FF
   1.518000 1  CFF21CAx        Rx   d 8 41 00 8D 13 4A 46 00 24
   1.522000 1  18F100F3x       Rx   d 8 02 D3 7E F1 66 FA 14 00
   1.523000 1  18F102F3x       Rx   d 8 0E 21 0E 1C 13 02 00 05
   1.525000 1  18F106F3x       Rx   d 8 45 E0 FC FF FF FF FF FF
   1.526000 1  18F107F3x       Rx   d 8 38 A4 30 70 01 45 00 AE
   1.528000 1  18F108F3x       Rx   d 8 00 00 00 00 00 00 00 00
   1.530000 1  18F155F3x       Rx   d 8 3A 39 3A 39 39 3B 3A 00
   1.531000 1  18F156F3x       Rx   d 8 00 00 00 00 00 00 00 00
   1.533000 1  18F157F3x       Rx   d 8 00 00 00 00 00 00 00 00
   1.535000 1  CFF21CAx        Rx   d 8 41 00 94 13 4A 46 00 24
   1.537000 1  18F100D0x       Rx   d 8 0C FF FF FF FF FF FF FF
   1.539000 1  18F158F3x       Rx   d 8 00 00 00 00 00 00 00 00
   1.540000 1  18F159F3x       Rx   d 8 00 00 00 00 00 00 00 00
   1.542000 1  18F15AF3x       Rx   d 8 00 00 00 00 00 00 00 00
   1.544000 1  18F15BF3x       Rx   d 7 00 00 00 00 00 00 00
   1.545000 1  18F15CF3x       Rx   d 8 00 00 00 00 00 00 00 00
   1.547000 1  18F15DF3x       Rx   d 8 00 00 00 00 00 00 00 00
   1.549000 1  18F15EF3x       Rx   d 8 00 00 00 00 00 00 00 00
   1.550000 1  CFF21CAx        Rx   d 8 41 00 9F 13 4A 46 00 24
   1.554000 1  CFF21CAx        Rx   d 8 41 00 AD 13 4A 46 00 24
   1.556000 1  18F100D0x       Rx   d 8 0C FF FF FF FF FF FF FF
   1.557000 1  18FF2112x       Rx   d 8 01 00 00 00 00 00 00 00
   1.566000 1  CFF21CAx        Rx   d 8 41 00 B6 13 4A 46 00 24
   1.578000 1  CFF21CAx        Rx   d 8 41 00 C1 13 4A 46 00 24
   1.582000 1  18F100D0x       Rx   d 8 0C FF FF FF FF FF FF FF
   1.590000 1  CFF21CAx        Rx   d 8 41 00 CB 13 4A 46 00 24
   1.603000 1  CFF21CAx        Rx   d 8 41 00 D5 13 4A 46 00 24
   1.606000 1  18F100D0x       Rx   d 8 0C FF FF FF FF FF FF FF
   1.614000 1  18F104F3x       Rx   d 8 3B 39 06 02 02 FF FF FF
   1.615000 1  CFF21CAx        Rx   d 8 41 00 E0 13 4A 46 00 24
   1.617000 1  18F113F3x       Rx   d 8 0E 1F 0E 1C 0E 1F 0E 20
   1.619000 1  18F114F3x       Rx   d 8 0E 1F 0E 1E 0E 1F 0E 1D
   1.621000 1  18F115F3x       Rx   d 8 0E 1D 0E 1D 0E 1F 0E 1C
   1.622000 1  18F116F3x       Rx   d 8 0E 1F 0E 1D 0E 20 0E 20
   1.624000 1  18F117F3x       Rx   d 8 0E 1F 0E 20 0E 21 0E 20
   1.626000 1  18F118F3x       Rx   d 8 00 00 00 00 00 00 00 00
   1.628000 1  18F119F3x       Rx   d 8 00 00 00 00 00 00 00 00
   1.629000 1  18F11AF3x       Rx   d 8 00 00 00 00 00 00 00 00
   1.630000 1  18F100F3x       Rx   d 8 02 D3 7E F1 66 FA 14 00
   1.632000 1  18F102F3x       Rx   d 8 0E 21 0E 1C 13 02 00 05
   1.634000 1  18F106F3x       Rx   d 8 45 E0 FC FF FF FF FF FF
   1.635000 1  18F107F3x       Rx   d 8 38 A4 30 70 01 45 00 AE
   1.638000 1  CFF21CAx        Rx   d 8 41 00 E9 13 4A 46 00 24
   1.639000 1  18F108F3x       Rx   d 8 00 00 00 00 00 00 00 00
   1.641000 1  18F11BF3x       Rx   d 8 00 00 00 00 00 00 00 00
   1.643000 1  18F11CF3x       Rx   d 8 00 00 00 00 00 00 00 00
   1.645000 1  18F11DF3x       Rx   d 8 00 00 00 00 00 00 00 00
   1.646000 1  18F11EF3x       Rx   d 8 00 00 00 00 00 00 00 00
   1.648000 1  18F11FF3x       Rx   d 8 00 00 00 00 00 00 00 00
   1.650000 1  18F120F3x       Rx   d 8 00 00 00 00 00 00 00 00
   1.651000 1  18F121F3x       Rx   d 8 00 00 00 00 00 00 00 00
   1.653000 1  18F100D0x       Rx   d 8 0C FF FF FF FF FF FF FF
   1.655000 1  18F122F3x       Rx   d 8 00 00 00 00 00 00 00 00
   1.656000 1  18F123F3x       Rx   d 8 00 00 00 00 00 00 00 00
   1.658000 1  18F124F3x       Rx   d 8 00 00 00 00 00 00 00 00
   1.660000 1  CFF21CAx        Rx   d 8 41 00 E9 13 4A 46 00 24
   1.662000 1  18F125F3x       Rx   d 8 00 00 00 00 00 00 00 00
   1.663000 1  18F126F3x       Rx   d 8 00 00 00 00 00 00 00 00
   1.665000 1  18F127F3x       Rx   d 8 00 00 00 00 00 00 00 00
   1.667000 1  18F128F3x       Rx   d 8 00 00 00 00 00 00 00 00
   1.669000 1  18F129F3x       Rx   d 8 00 00 00 00 00 00 00 00
   1.670000 1  18F12AF3x       Rx   d 8 00 00 00 00 00 00 00 00
   1.672000 1  18F12BF3x       Rx   d 8 00 00 00 00 00 00 00 00
   1.674000 1  18F12CF3x       Rx   d 8 00 00 00 00 00 00 00 00
   1.676000 1  18F12DF3x       Rx   d 8 00 00 00 00 00 00 00 00
   1.677000 1  18F12EF3x       Rx   d 8 00 00 00 00 00 00 00 00
   1.679000 1  18F12FF3x       Rx   d 8 00 00 00 00 00 00 00 00
   1.681000 1  18F130F3x       Rx   d 8 00 00 00 00 00 00 00 00
   1.683000 1  18F131F3x       Rx   d 8 00 00 00 00 00 00 00 00
   1.684000 1  CFF21CAx        Rx   d 8 41 00 F7 13 4A 46 00 24
   1.686000 1  18F132F3x       Rx   d 8 00 00 00 00 00 00 00 00
   1.688000 1  18FF2112x       Rx   d 8 01 00 00 00 00 00 00 00
   1.690000 1  18F133F3x       Rx   d 8 00 00 00 00 00 00 00 00
   1.691000 1  18F134F3x       Rx   d 8 00 00 00 00 00 00 00 00
   1.693000 1  18F135F3x       Rx   d 8 00 00 00 00 00 00 00 00
   1.695000 1  18F136F3x       Rx   d 8 00 00 00 00 00 00 00 00
   1.697000 1  18F137F3x       Rx   d 8 00 00 00 00 00 00 00 00
   1.698000 1  18F138F3x       Rx   d 8 00 00 00 00 00 00 00 00
   1.700000 1  18F139F3x       Rx   d 8 00 00 00 00 00 00 00 00
   1.702000 1  18F100D0x       Rx   d 8 0C FF FF FF FF FF FF FF
   1.704000 1  18F13AF3x       Rx   d 8 00 00 00 00 00 00 00 00
   1.706000 1  18F13BF3x       Rx   d 8 00 00 00 00 00 00 00 00
   1.707000 1  18F13CF3x       Rx   d 8 00 00 00 00 00 00 00 00
   1.709000 1  18F155F3x       Rx   d 8 3A 39 3A 39 39 3B 3A 00
   1.711000 1  CFF21CAx        Rx   d 8 40 00 03 14 4A 46 00 24
   1.712000 1  18F156F3x       Rx   d 8 00 00 00 00 00 00 00 00
   1.714000 1  18F157F3x       Rx   d 8 00 00 00 00 00 00 00 00
   1.716000 1  18F158F3x       Rx   d 8 00 00 00 00 00 00 00 00
   1.717000 1  18F159F3x       Rx   d 8 00 00 00 00 00 00 00 00
   1.719000 1  18F15AF3x       Rx   d 8 00 00 00 00 00 00 00 00
   1.721000 1  18F15BF3x       Rx   d 7 00 00 00 00 00 00 00
   1.722000 1  18F15CF3x       Rx   d 8 00 00 00 00 00 00 00 00
   1.724000 1  18F15DF3x       Rx   d 8 00 00 00 00 00 00 00 00
   1.725000 1  18F15EF3x       Rx   d 8 00 00 00 00 00 00 00 00
   1.727000 1  CFF21CAx        Rx   d 8 40 00 0C 14 4A 46 00 24
   1.729000 1  18F100D0x       Rx   d 8 0C FF FF FF FF FF FF FF
   1.731000 1  CFF21CAx        Rx   d 8 40 00 19 14 4A 46 00 24
   1.732000 1  CFF21CAx        Rx   d 8 3F 00 23 14 4A 46 00 24
   1.734000 1  18F100D0x       Rx   d 8 0C FF FF FF FF FF FF FF
   1.736000 1  CFF21CAx        Rx   d 8 3F 00 32 14 4A 46 00 24
   1.738000 1  18F100F3x       Rx   d 8 02 D3 7E F1 66 FA 14 00
   1.740000 1  18F102F3x       Rx   d 8 0E 21 0E 1C 13 02 00 05
   1.742000 1  CFF21CAx        Rx   d 8 3F 00 32 14 4A 46 00 24
   1.743000 1  18F106F3x       Rx   d 8 45 E0 FC FF FF FF FF FF
   1.745000 1  18F107F3x       Rx   d 8 38 A4 30 70 01 45 00 AE
   1.747000 1  18F108F3x       Rx   d 8 00 00 00 00 00 00 00 00
   1.749000 1  18F155F3x       Rx   d 8 3A 39 3A 39 39 3B 3A 00
   1.750000 1  18F156F3x       Rx   d 8 00 00 00 00 00 00 00 00
   1.752000 1  18F157F3x       Rx   d 8 00 00 00 00 00 00 00 00
   1.754000 1  18F158F3x       Rx   d 8 00 00 00 00 00 00 00 00
   1.755000 1  18F100D0x       Rx   d 8 0C FF FF FF FF FF FF FF
   1.757000 1  18F159F3x       Rx   d 8 00 00 00 00 00 00 00 00
   1.759000 1  18F15AF3x       Rx   d 8 00 00 00 00 00 00 00 00
   1.761000 1  18F15BF3x       Rx   d 7 00 00 00 00 00 00 00
   1.762000 1  18F15CF3x       Rx   d 8 00 00 00 00 00 00 00 00
   1.764000 1  CFF21CAx        Rx   d 8 3D 00 43 14 4A 46 00 24
   1.766000 1  18F15DF3x       Rx   d 8 00 00 00 00 00 00 00 00
   1.767000 1  18F15EF3x       Rx   d 8 00 00 00 00 00 00 00 00
   1.769000 1  CFF21CAx        Rx   d 8 3D 00 49 14 4A 46 00 24
   1.771000 1  18FF2112x       Rx   d 8 01 00 00 00 00 00 00 00
   1.773000 1  CFF21CAx        Rx   d 8 3A 00 50 14 4A 46 00 24
   1.774000 1  18F100D0x       Rx   d 8 0C FF FF FF FF FF FF FF
   1.776000 1  CFF21CAx        Rx   d 8 3A 00 59 14 4A 46 00 24
   1.783000 1  CFF21CAx        Rx   d 8 3A 00 5C 14 4A 46 00 24
   1.787000 1  18F100D0x       Rx   d 8 0C FF FF FF FF FF FF FF
   1.795000 1  CFF21CAx        Rx   d 8 39 00 69 14 4A 46 00 24
   1.807000 1  CFF21CAx        Rx   d 8 39 00 6A 14 4A 46 00 24
   1.811000 1  18F100D0x       Rx   d 8 0C FF FF FF FF FF FF FF
   1.820000 1  CFF21CAx        Rx   d 8 38 00 73 14 4A 46 00 24
   1.821000 1  18F100F3x       Rx   d 8 02 D3 7E E1 66 FA 14 00
   1.822000 1  18F102F3x       Rx   d 8 0E 21 0E 1C 13 02 00 05
   1.824000 1  18F106F3x       Rx   d 8 45 E0 FC FF FF FF FF FF
   1.825000 1  18F107F3x       Rx   d 8 38 A4 30 70 01 45 00 AE
   1.826000 1  18F108F3x       Rx   d 8 00 00 00 00 00 00 00 00
   1.827000 1  18F155F3x       Rx   d 8 3A 39 3A 39 39 3B 3A 00
   1.829000 1  18F156F3x       Rx   d 8 00 00 00 00 00 00 00 00
   1.830000 1  18F157F3x       Rx   d 8 00 00 00 00 00 00 00 00
   1.846000 1  18F158F3x       Rx   d 8 00 00 00 00 00 00 00 00
   1.848000 1  CFF21CAx        Rx   d 8 38 00 74 14 4A 46 00 24
   1.849000 1  18F159F3x       Rx   d 8 00 00 00 00 00 00 00 00
   1.851000 1  18F15AF3x       Rx   d 8 00 00 00 00 00 00 00 00
   1.853000 1  18F15BF3x       Rx   d 7 00 00 00 00 00 00 00
   1.854000 1  18F15CF3x       Rx   d 8 00 00 00 00 00 00 00 00
   1.856000 1  18F15DF3x       Rx   d 8 00 00 00 00 00 00 00 00
   1.858000 1  18F100D0x       Rx   d 8 0C FF FF FF FF FF FF FF
   1.860000 1  18F15EF3x       Rx   d 8 00 00 00 00 00 00 00 00
   1.862000 1  CFF21CAx        Rx   d 8 38 00 7F 14 4A 46 00 24
   1.863000 1  18FF2112x       Rx   d 8 01 00 00 00 00 00 00 00
   1.865000 1  CFF21CAx        Rx   d 8 38 00 7F 14 4A 46 00 24
   1.867000 1  18F100D0x       Rx   d 8 0C FF FF FF FF FF FF FF
   1.869000 1  CFF21CAx        Rx   d 8 36 00 86 14 4A 46 00 24
   1.879000 1  CFF21CAx        Rx   d 8 36 00 8C 14 4A 46 00 24
   1.884000 1  18F100D0x       Rx   d 8 0C FF FF FF FF FF FF FF
   1.892000 1  CFF21CAx        Rx   d 8 36 00 92 14 4A 46 00 24
   1.903000 1  CFF21CAx        Rx   d 8 36 00 96 14 4A 46 00 24
   1.911000 1  18F100D0x       Rx   d 8 0C FF FF FF FF FF FF FF
   1.916000 1  CFF21CAx        Rx   d 8 36 00 9F 14 4A 46 00 24
   1.922000 1  18F100F3x       Rx   d 8 02 D3 7E E1 66 FA 14 00
   1.923000 1  18F102F3x       Rx   d 8 0E 21 0E 1C 13 02 00 05
   1.925000 1  18F106F3x       Rx   d 8 45 E0 FC FF FF FF FF FF
   1.927000 1  18F107F3x       Rx   d 8 38 A4 30 70 01 45 00 AE
   1.929000 1  18F108F3x       Rx   d 8 00 00 00 00 00 00 00 00
   1.931000 1  18F155F3x       Rx   d 8 3A 39 3A 39 39 3B 3A 00
   1.932000 1  CFF21CAx        Rx   d 8 37 00 A4 14 4A 46 00 24
   1.935000 1  18F156F3x       Rx   d 8 00 00 00 00 00 00 00 00
   1.936000 1  18F157F3x       Rx   d 8 00 00 00 00 00 00 00 00
   1.937000 1  18F158F3x       Rx   d 8 00 00 00 00 00 00 00 00
   1.939000 1  18F159F3x       Rx   d 8 00 00 00 00 00 00 00 00
   1.940000 1  18F15AF3x       Rx   d 8 00 00 00 00 00 00 00 00
   1.942000 1  18F15BF3x       Rx   d 7 00 00 00 00 00 00 00
   1.943000 1  18F15CF3x       Rx   d 8 00 00 00 00 00 00 00 00
   1.947000 1  18F15DF3x       Rx   d 8 00 00 00 00 00 00 00 00
   1.949000 1  18F100D0x       Rx   d 8 0C FF FF FF FF FF FF FF
   1.950000 1  18F15EF3x       Rx   d 8 00 00 00 00 00 00 00 00
   1.952000 1  CFF21CAx        Rx   d 8 37 00 A9 14 4A 46 00 24
   1.954000 1  18FF2112x       Rx   d 8 01 00 00 00 00 00 00 00
   1.955000 1  CFF21CAx        Rx   d 8 38 00 B2 14 4A 46 00 24
   1.964000 1  CFF21CAx        Rx   d 8 38 00 B9 14 4A 46 00 24
   1.965000 1  18F100D0x       Rx   d 8 0C FF FF FF FF FF FF FF
   1.976000 1  CFF21CAx        Rx   d 8 38 00 C0 14 4A 46 00 24
   1.988000 1  CFF21CAx        Rx   d 8 3A 00 C5 14 4A 46 00 24
   1.989000 1  18F100D0x       Rx   d 8 0C FF FF FF FF FF FF FF
   2.000000 1  CFF21CAx        Rx   d 8 3A 00 D1 14 4A 46 00 24
   2.012000 1  CFF21CAx        Rx   d 8 3B 00 D2 14 4A 46 00 24
   2.013000 1  18F100D0x       Rx   d 8 0C FF FF FF FF FF FF FF
   2.022000 1  18F100F3x       Rx   d 8 02 D3 7E BF 66 FA 14 00
   2.023000 1  18F102F3x       Rx   d 8 0E 21 0E 1C 13 02 00 05
   2.025000 1  18F106F3x       Rx   d 8 45 E0 FC FF FF FF FF FF
   2.026000 1  CFF21CAx        Rx   d 8 3B 00 DE 14 4A 46 00 24
   2.027000 1  18F107F3x       Rx   d 8 38 A4 30 70 01 45 00 AE
   2.028000 1  18F108F3x       Rx   d 8 00 00 00 00 00 00 00 00
   2.029000 1  18F155F3x       Rx   d 8 3A 39 3A 39 39 3B 3A 00
   2.031000 1  18F156F3x       Rx   d 8 00 00 00 00 00 00 00 00
   2.062000 1  18F157F3x       Rx   d 8 00 00 00 00 00 00 00 00
   2.063000 1  18F158F3x       Rx   d 8 00 00 00 00 00 00 00 00
   2.065000 1  18F159F3x       Rx   d 8 00 00 00 00 00 00 00 00
   2.067000 1  18F15AF3x       Rx   d 8 00 00 00 00 00 00 00 00
   2.068000 1  18F15BF3x       Rx   d 7 00 00 00 00 00 00 00
   2.070000 1  18F15CF3x       Rx   d 8 00 00 00 00 00 00 00 00
   2.072000 1  18F15DF3x       Rx   d 8 00 00 00 00 00 00 00 00
   2.074000 1  18F15EF3x       Rx   d 8 00 00 00 00 00 00 00 00
   2.075000 1  CFF21CAx        Rx   d 8 3B 00 E5 14 4A 46 00 24
   2.077000 1  18F100D0x       Rx   d 8 0C FF FF FF FF FF FF FF
   2.079000 1  18FF2112x       Rx   d 8 01 00 00 00 00 00 00 00
   2.080000 1  CFF21CAx        Rx   d 8 3C 00 EF 14 4A 46 00 24
   2.082000 1  18FECACAx       Rx   d 8 00 00 00 00 00 00 FF FF
   2.083000 1  CFF21CAx        Rx   d 8 3C 00 F2 14 4A 46 00 24
   2.085000 1  18F100D0x       Rx   d 8 0C FF FF FF FF FF FF FF
   2.086000 1  CFF21CAx        Rx   d 8 3D 00 FD 14 4A 46 00 24
   2.087000 1  CFF21CAx        Rx   d 8 3D 00 05 15 4A 46 00 24
   2.088000 1  18F100D0x       Rx   d 8 0C FF FF FF FF FF FF FF
   2.120000 1  CFF21CAx        Rx   d 8 3D 00 0C 15 4A 46 00 24
   2.121000 1  CFF21CAx        Rx   d 8 3E 00 14 15 4A 46 00 24
   2.124000 1  18F100D0x       Rx   d 8 0C FF FF FF FF FF FF FF
   2.125000 1  CFF21CAx        Rx   d 8 3E 00 1C 15 4A 46 00 24
   2.127000 1  18F100F3x       Rx   d 8 02 D3 7E BF 66 FA 14 00
   2.129000 1  18F102F3x       Rx   d 8 0E 21 0E 1C 13 02 00 05
   2.131000 1  18F106F3x       Rx   d 8 45 E0 FC FF FF FF FF FF
   2.133000 1  18F107F3x       Rx   d 8 38 A4 30 70 01 45 00 AE
   2.135000 1  18F108F3x       Rx   d 8 00 00 00 00 00 00 00 00
   2.136000 1  18F155F3x       Rx   d 8 3A 39 3A 39 39 3B 3A 00
   2.138000 1  18F156F3x       Rx   d 8 00 00 00 00 00 00 00 00
   2.139000 1  18F157F3x       Rx   d 8 00 00 00 00 00 00 00 00
   2.141000 1  18F158F3x       Rx   d 8 00 00 00 00 00 00 00 00
   2.142000 1  18F159F3x       Rx   d 8 00 00 00 00 00 00 00 00
   2.144000 1  CFF21CAx        Rx   d 8 3E 00 25 15 4A 46 00 24
   2.148000 1  18F15AF3x       Rx   d 8 00 00 00 00 00 00 00 00
   2.150000 1  18F15BF3x       Rx   d 7 00 00 00 00 00 00 00
   2.152000 1  18F15CF3x       Rx   d 8 00 00 00 00 00 00 00 00
   2.153000 1  18F15DF3x       Rx   d 8 00 00 00 00 00 00 00 00
   2.155000 1  18F15EF3x       Rx   d 8 00 00 00 00 00 00 00 00
   2.157000 1  18FF2112x       Rx   d 8 01 00 00 00 00 00 00 00
   2.158000 1  18F100D0x       Rx   d 8 0C FF FF FF FF FF FF FF
   2.160000 1  CFF21CAx        Rx   d 8 3E 00 25 15 4A 46 00 24
   2.162000 1  CFF21CAx        Rx   d 8 3E 00 31 15 4A 46 00 24
   2.165000 1  18F100D0x       Rx   d 8 0C FF FF FF FF FF FF FF
   2.168000 1  CFF21CAx        Rx   d 8 3E 00 3E 15 4A 46 00 24
   2.180000 1  CFF21CAx        Rx   d 8 3E 00 41 15 4A 46 00 24
   2.189000 1  18F100D0x       Rx   d 8 0C FF FF FF FF FF FF FF
   2.193000 1  CFF21CAx        Rx   d 8 3E 00 4F 15 4A 46 00 24
   2.205000 1  CFF21CAx        Rx   d 8 3E 00 57 15 4A 46 00 24
   2.213000 1  18F100D0x       Rx   d 8 0C FF FF FF FF FF FF FF
   2.217000 1  CFF21CAx        Rx   d 8 3D 00 62 15 4A 46 00 24
   2.222000 1  18F100F3x       Rx   d 8 02 D3 7E BF 66 FA 14 00
   2.223000 1  18F102F3x       Rx   d 8 0E 1F 0E 1A 10 0C 00 05
   2.225000 1  18F106F3x       Rx   d 8 45 E0 FC FF FF FF FF FF
   2.227000 1  18F107F3x       Rx   d 8 38 A4 30 70 01 45 00 AE
   2.229000 1  18F108F3x       Rx   d 8 00 00 00 00 00 00 00 00
   2.230000 1  18F155F3x       Rx   d 8 3A 39 3A 39 39 3B 3A 00
   2.232000 1  18F156F3x       Rx   d 8 00 00 00 00 00 00 00 00
   2.234000 1  CFF21CAx        Rx   d 8 3D 00 6A 15 4A 46 00 24
   2.236000 1  18F157F3x       Rx   d 8 00 00 00 00 00 00 00 00
   2.237000 1  18F158F3x       Rx   d 8 00 00 00 00 00 00 00 00
   2.240000 1  18F159F3x       Rx   d 8 00 00 00 00 00 00 00 00
   2.241000 1  18F15AF3x       Rx   d 8 00 00 00 00 00 00 00 00
   2.243000 1  18F15BF3x       Rx   d 7 00 00 00 00 00 00 00
   2.244000 1  18F15CF3x       Rx   d 8 00 00 00 00 00 00 00 00
   2.246000 1  18F15DF3x       Rx   d 8 00 00 00 00 00 00 00 00
   2.247000 1  18FF2112x       Rx   d 8 01 00 00 00 00 00 00 00
   2.249000 1  18F15EF3x       Rx   d 8 00 00 00 00 00 00 00 00
   2.251000 1  18F100D0x       Rx   d 8 0C FF FF FF FF FF FF FF
   2.253000 1  CFF21CAx        Rx   d 8 3B 00 72 15 4A 46 00 24
   2.254000 1  CFF21CAx        Rx   d 8 3B 00 7B 15 4A 46 00 24
   2.261000 1  18F100D0x       Rx   d 8 0C FF FF FF FF FF FF FF
   2.265000 1  CFF21CAx        Rx   d 8 3B 00 84 15 4A 46 00 24
   2.277000 1  CFF21CAx        Rx   d 8 3A 00 8A 15 4A 46 00 24
   2.289000 1  CFF21CAx        Rx   d 8 3A 00 96 15 4A 46 00 24
   2.290000 1  18F100D0x       Rx   d 8 0C FF FF FF FF FF FF FF
   2.301000 1  CFF21CAx        Rx   d 8 3A 00 9D 15 4A 46 00 24
   2.313000 1  CFF21CAx        Rx   d 8 3A 00 A4 15 4A 46 00 24
   2.314000 1  18F100D0x       Rx   d 8 0C FF FF FF FF FF FF FF
   2.322000 1  18F100F3x       Rx   d 8 02 D3 7E E8 66 FA 14 00
   2.323000 1  18F102F3x       Rx   d 8 0E 1F 0E 1A 10 0C 00 05
   2.325000 1  18F106F3x       Rx   d 8 45 E0 FC FF FF FF FF FF
   2.327000 1  18F107F3x       Rx   d 8 38 A4 30 70 01 45 00 AE
   2.329000 1  CFF21CAx        Rx   d 8 3A 00 AB 15 4A 46 00 24
   2.330000 1  18F108F3x       Rx   d 8 00 00 00 00 00 00 00 00
   2.332000 1  18F155F3x       Rx   d 8 3A 39 3A 39 39 3B 3A 00
   2.334000 1  18F156F3x       Rx   d 8 00 00 00 00 00 00 00 00
   2.336000 1  18F157F3x       Rx   d 8 00 00 00 00 00 00 00 00
   2.337000 1  18F158F3x       Rx   d 8 00 00 00 00 00 00 00 00
   2.339000 1  18F159F3x       Rx   d 8 00 00 00 00 00 00 00 00
   2.340000 1  18F15AF3x       Rx   d 8 00 00 00 00 00 00 00 00
   2.342000 1  18FF2112x       Rx   d 8 01 00 00 00 00 00 00 00
   2.344000 1  18F15BF3x       Rx   d 7 00 00 00 00 00 00 00
   2.346000 1  18F15CF3x       Rx   d 8 00 00 00 00 00 00 00 00
   2.347000 1  18F15DF3x       Rx   d 8 00 00 00 00 00 00 00 00
   2.349000 1  18F15EF3x       Rx   d 8 00 00 00 00 00 00 00 00
   2.350000 1  CFF21CAx        Rx   d 8 3A 00 B3 15 4A 46 00 24
   2.352000 1  18F100D0x       Rx   d 8 0C FF FF FF FF FF FF FF
   2.354000 1  CFF21CAx        Rx   d 8 3A 00 BD 15 4A 46 00 24
   2.361000 1  CFF21CAx        Rx   d 8 3A 00 C1 15 4A 46 00 24
   2.362000 1  18F100D0x       Rx   d 8 0C FF FF FF FF FF FF FF
   2.373000 1  CFF21CAx        Rx   d 8 38 00 CA 15 4A 46 00 24
   2.386000 1  CFF21CAx        Rx   d 8 38 00 D1 15 4A 46 00 24
   2.387000 1  18F100D0x       Rx   d 8 0C FF FF FF FF FF FF FF
   2.397000 1  CFF21CAx        Rx   d 8 37 00 DB 15 4A 46 00 24
   2.410000 1  CFF21CAx        Rx   d 8 37 00 E2 15 4A 46 00 24
   2.413000 1  18F100D0x       Rx   d 8 0C FF FF FF FF FF FF FF
   2.421000 1  CFF21CAx        Rx   d 8 37 00 E9 15 4A 46 00 24
   2.422000 1  18F100F3x       Rx   d 8 02 D3 7E E8 66 FA 14 00
   2.424000 1  18F102F3x       Rx   d 8 0E 1F 0E 1A 10 0C 00 05
   2.426000 1  18F106F3x       Rx   d 8 45 E0 FC FF FF FF FF FF
   2.428000 1  18F107F3x       Rx   d 8 38 A4 30 70 01 45 00 AE
   2.429000 1  18F108F3x       Rx   d 8 00 00 00 00 00 00 00 00
   2.431000 1  18F155F3x       Rx   d 8 3A 39 3A 39 39 3B 3A 00
   2.433000 1  18F156F3x       Rx   d 8 00 00 00 00 00 00 00 00
   2.435000 1  18FF2112x       Rx   d 8 01 00 00 00 00 00 00 00
   2.437000 1  18F157F3x       Rx   d 8 00 00 00 00 00 00 00 00
   2.438000 1  18F158F3x       Rx   d 8 00 00 00 00 00 00 00 00
   2.440000 1  18F159F3x       Rx   d 8 00 00 00 00 00 00 00 00
   2.442000 1  18F15AF3x       Rx   d 8 00 00 00 00 00 00 00 00
   2.443000 1  CFF21CAx        Rx   d 8 37 00 EF 15 4A 46 00 24
   2.446000 1  18F15BF3x       Rx   d 7 00 00 00 00 00 00 00
   2.447000 1  18F15CF3x       Rx   d 8 00 00 00 00 00 00 00 00
   2.449000 1  18F15DF3x       Rx   d 8 00 00 00 00 00 00 00 00
   2.450000 1  18F15EF3x       Rx   d 8 00 00 00 00 00 00 00 00
   2.451000 1  18F100D0x       Rx   d 8 0C FF FF FF FF FF FF FF
   2.453000 1  CFF21CAx        Rx   d 8 37 00 F6 15 4A 46 00 24
   2.458000 1  CFF21CAx        Rx   d 8 36 00 F9 15 4A 46 00 24
   2.462000 1  18F100D0x       Rx   d 8 0C FF FF FF FF FF FF FF
   2.480000 1  CFF21CAx        Rx   d 8 36 00 FD 15 4A 46 00 24
   2.483000 1  CFF21CAx        Rx   d 8 36 00 02 16 4A 46 00 24
   2.486000 1  18F100D0x       Rx   d 8 0C FF FF FF FF FF FF FF
   2.494000 1  CFF21CAx        Rx   d 8 37 00 06 16 4A 46 00 24
   2.506000 1  CFF21CAx        Rx   d 8 37 00 0A 16 4A 46 00 24
   2.510000 1  18F100D0x       Rx   d 8 0C FF FF FF FF FF FF FF
   2.518000 1  CFF21CAx        Rx   d 8 37 00 12 16 4A 46 00 24
   2.522000 1  18F100F3x       Rx   d 8 02 D3 7E D4 66 FA 14 00
   2.523000 1  18F102F3x       Rx   d 8 0E 1F 0E 1A 10 0C 00 05
   2.525000 1  18F106F3x       Rx   d 8 45 E0 FC FF FF FF FF FF
   2.527000 1  18F107F3x       Rx   d 8 38 A4 30 70 01 45 00 AE
   2.529000 1  18F108F3x       Rx   d 8 00 00 00 00 00 00 00 00
   2.531000 1  18FF2112x       Rx   d 8 01 00 00 00 00 00 00 00
   2.532000 1  18F155F3x       Rx   d 8 3A 39 3A 39 39 3B 3A 00
   2.534000 1  18F156F3x       Rx   d 8 00 00 00 00 00 00 00 00
   2.536000 1  18F157F3x       Rx   d 8 00 00 00 00 00 00 00 00
   2.538000 1  CFF21CAx        Rx   d 8 37 00 12 16 4A 46 00 24
   2.539000 1  18F158F3x       Rx   d 8 00 00 00 00 00 00 00 00
   2.541000 1  18F159F3x       Rx   d 8 00 00 00 00 00 00 00 00
   2.543000 1  18F15AF3x       Rx   d 8 00 00 00 00 00 00 00 00
   2.545000 1  18F15BF3x       Rx   d 7 00 00 00 00 00 00 00
   2.547000 1  18F15CF3x       Rx   d 8 00 00 00 00 00 00 00 00
   2.548000 1  18F15DF3x       Rx   d 8 00 00 00 00 00 00 00 00
   2.550000 1  18F15EF3x       Rx   d 8 00 00 00 00 00 00 00 00
   2.551000 1  18F100D0x       Rx   d 8 0C FF FF FF FF FF FF FF
   2.553000 1  CFF21CAx        Rx   d 8 38 00 13 16 4A 46 00 24
   2.555000 1  CFF21CAx        Rx   d 8 38 00 17 16 4A 46 00 24
   2.562000 1  18F100D0x       Rx   d 8 0C FF FF FF FF FF FF FF
   2.566000 1  CFF21CAx        Rx   d 8 3A 00 1E 16 4A 46 00 24
   2.578000 1  CFF21CAx        Rx   d 8 3A 00 24 16 4A 46 00 24
   2.587000 1  18F100D0x       Rx   d 8 0C FF FF FF FF FF FF FF
   2.590000 1  CFF21CAx        Rx   d 8 3A 00 2A 16 4A 46 00 24
   2.603000 1  CFF21CAx        Rx   d 8 3A 00 30 16 4A 46 00 24
   2.610000 1  18F100D0x       Rx   d 8 0C FF FF FF FF FF FF FF
   2.614000 1  18F104F3x       Rx   d 8 3B 39 06 02 02 FF FF FF
   2.615000 1  CFF21CAx        Rx   d 8 3A 00 38 16 4A 46 00 24
   2.617000 1  18F113F3x       Rx   d 8 0E 1C 0E 1B 0E 1D 0E 1E
   2.619000 1  18F114F3x       Rx   d 8 0E 1D 0E 1C 0E 1D 0E 1C
   2.621000 1  18F115F3x       Rx   d 8 0E 1C 0E 1C 0E 1C 0E 1A
   2.622000 1  18F116F3x       Rx   d 8 0E 1D 0E 1B 0E 1C 0E 1F
   2.624000 1  18F117F3x       Rx   d 8 0E 1C 0E 1E 0E 1F 0E 1D
   2.626000 1  18F118F3x       Rx   d 8 00 00 00 00 00 00 00 00
   2.628000 1  18F119F3x       Rx   d 8 00 00 00 00 00 00 00 00
   2.630000 1  18F11AF3x       Rx   d 8 00 00 00 00 00 00 00 00
   2.631000 1  18F100F3x       Rx   d 8 02 D3 7E D4 66 FA 14 00
   2.633000 1  18F102F3x       Rx   d 8 0E 1F 0E 1A 10 0C 00 05
   2.635000 1  18FF2112x       Rx   d 8 01 00 00 00 00 00 00 00
   2.637000 1  18F106F3x       Rx   d 8 45 E0 FC FF FF FF FF FF
   2.638000 1  18F107F3x       Rx   d 8 38 A4 30 70 01 45 00 AE
   2.640000 1  CFF21CAx        Rx   d 8 3C 00 44 16 4A 46 00 24
   2.642000 1  18F108F3x       Rx   d 8 00 00 00 00 00 00 00 00
   2.644000 1  18F11BF3x       Rx   d 8 00 00 00 00 00 00 00 00
   2.645000 1  18F11CF3x       Rx   d 8 00 00 00 00 00 00 00 00
   2.647000 1  18F11DF3x       Rx   d 8 00 00 00 00 00 00 00 00
   2.649000 1  18F11EF3x       Rx   d 8 00 00 00 00 00 00 00 00
   2.651000 1  18F11FF3x       Rx   d 8 00 00 00 00 00 00 00 00
   2.653000 1  18F120F3x       Rx   d 8 00 00 00 00 00 00 00 00
   2.655000 1  18F121F3x       Rx   d 8 00 00 00 00 00 00 00 00
   2.656000 1  18F122F3x       Rx   d 8 00 00 00 00 00 00 00 00
   2.657000 1  18F123F3x       Rx   d 8 00 00 00 00 00 00 00 00
   2.659000 1  CFF21CAx        Rx   d 8 3C 00 49 16 4A 46 00 24
   2.661000 1  18F100D0x       Rx   d 8 0C FF FF FF FF FF FF FF
   2.663000 1  18F124F3x       Rx   d 8 00 00 00 00 00 00 00 00
   2.665000 1  18F125F3x       Rx   d 8 00 00 00 00 00 00 00 00
   2.667000 1  18F126F3x       Rx   d 8 00 00 00 00 00 00 00 00
   2.668000 1  18F127F3x       Rx   d 8 00 00 00 00 00 00 00 00
   2.670000 1  18F128F3x       Rx   d 8 00 00 00 00 00 00 00 00
   2.672000 1  18F129F3x       Rx   d 8 00 00 00 00 00 00 00 00
   2.674000 1  18F12AF3x       Rx   d 8 00 00 00 00 00 00 00 00
   2.675000 1  18F12BF3x       Rx   d 8 00 00 00 00 00 00 00 00
   2.677000 1  18F12CF3x       Rx   d 8 00 00 00 00 00 00 00 00
   2.679000 1  18F12DF3x       Rx   d 8 00 00 00 00 00 00 00 00
   2.680000 1  18F12EF3x       Rx   d 8 00 00 00 00 00 00 00 00
   2.682000 1  18F12FF3x       Rx   d 8 00 00 00 00 00 00 00 00
   2.684000 1  CFF21CAx        Rx   d 8 3C 00 55 16 4A 46 00 24
   2.685000 1  18F130F3x       Rx   d 8 00 00 00 00 00 00 00 00
   2.687000 1  18F131F3x       Rx   d 8 00 00 00 00 00 00 00 00
   2.689000 1  18F132F3x       Rx   d 8 00 00 00 00 00 00 00 00
   2.691000 1  18F133F3x       Rx   d 8 00 00 00 00 00 00 00 00
   2.692000 1  18F134F3x       Rx   d 8 00 00 00 00 00 00 00 00
   2.693000 1  18F135F3x       Rx   d 8 00 00 00 00 00 00 00 00
   2.694000 1  18F136F3x       Rx   d 8 00 00 00 00 00 00 00 00
   2.696000 1  18F137F3x       Rx   d 8 00 00 00 00 00 00 00 00
   2.697000 1  18F138F3x       Rx   d 8 00 00 00 00 00 00 00 00
   2.698000 1  18F139F3x       Rx   d 8 00 00 00 00 00 00 00 00
   2.730000 1  18F13AF3x       Rx   d 8 00 00 00 00 00 00 00 00
   2.732000 1  18F13BF3x       Rx   d 8 00 00 00 00 00 00 00 00
   2.734000 1  CFF21CAx        Rx   d 8 3C 00 5D 16 4A 46 00 24
   2.736000 1  18F100D0x       Rx   d 8 0C FF FF FF FF FF FF FF
   2.737000 1  18F13CF3x       Rx   d 8 00 00 00 00 00 00 00 00
   2.739000 1  18F155F3x       Rx   d 8 3A 39 3A 39 39 3B 3A 00
   2.741000 1  18F156F3x       Rx   d 8 00 00 00 00 00 00 00 00
   2.743000 1  18F157F3x       Rx   d 8 00 00 00 00 00 00 00 00
   2.744000 1  18F158F3x       Rx   d 8 00 00 00 00 00 00 00 00
   2.746000 1  18F159F3x       Rx   d 8 00 00 00 00 00 00 00 00
   2.747000 1  18F15AF3x       Rx   d 8 00 00 00 00 00 00 00 00
   2.749000 1  18F15BF3x       Rx   d 7 00 00 00 00 00 00 00
   2.750000 1  18F15CF3x       Rx   d 8 00 00 00 00 00 00 00 00
   2.752000 1  18F15DF3x       Rx   d 8 00 00 00 00 00 00 00 00
   2.754000 1  18F15EF3x       Rx   d 8 00 00 00 00 00 00 00 00
   2.755000 1  CFF21CAx        Rx   d 8 3C 00 62 16 4A 46 00 24
   2.756000 1  CFF21CAx        Rx   d 8 3D 00 6D 16 4A 46 00 24
   2.757000 1  18F100D0x       Rx   d 8 0C FF FF FF FF FF FF FF
   2.758000 1  CFF21CAx        Rx   d 8 3D 00 75 16 4A 46 00 24
   2.789000 1  CFF21CAx        Rx   d 8 3D 00 81 16 4A 46 00 24
   2.790000 1  18F100D0x       Rx   d 8 0C FF FF FF FF FF FF FF
   2.795000 1  18F100F3x       Rx   d 8 02 D3 7E D4 66 FA 14 00
   2.797000 1  18FF2112x       Rx   d 8 01 00 00 00 00 00 00 00
   2.799000 1  18F102F3x       Rx   d 8 0E 1F 0E 1A 10 0C 00 05
   2.800000 1  CFF21CAx        Rx   d 8 3B 00 8B 16 4A 46 00 24
   2.802000 1  18F106F3x       Rx   d 8 45 E0 FC FF FF FF FF FF
   2.804000 1  18F107F3x       Rx   d 8 38 A4 30 70 01 45 00 AE
   2.805000 1  18F108F3x       Rx   d 8 00 00 00 00 00 00 00 00
   2.807000 1  18F155F3x       Rx   d 8 3A 39 3A 39 39 3B 3A 00
   2.809000 1  18F156F3x       Rx   d 8 00 00 00 00 00 00 00 00
   2.810000 1  18F157F3x       Rx   d 8 00 00 00 00 00 00 00 00
   2.812000 1  18F158F3x       Rx   d 8 00 00 00 00 00 00 00 00
   2.814000 1  18F159F3x       Rx   d 8 00 00 00 00 00 00 00 00
   2.815000 1  18F15AF3x       Rx   d 8 00 00 00 00 00 00 00 00
   2.816000 1  18F15BF3x       Rx   d 7 00 00 00 00 00 00 00
   2.817000 1  18F15CF3x       Rx   d 8 00 00 00 00 00 00 00 00
   2.819000 1  CFF21CAx        Rx   d 8 3B 00 96 16 4A 46 00 24
   2.820000 1  18F100D0x       Rx   d 8 0C FF FF FF FF FF FF FF
   2.850000 1  18F15DF3x       Rx   d 8 00 00 00 00 00 00 00 00
   2.851000 1  18F15EF3x       Rx   d 8 00 00 00 00 00 00 00 00
   2.857000 1  CFF21CAx        Rx   d 8 3B 00 9C 16 4A 46 00 24
   2.858000 1  CFF21CAx        Rx   d 8 3B 00 A6 16 4A 46 00 24
   2.860000 1  18F100D0x       Rx   d 8 0C FF FF FF FF FF FF FF
   2.861000 1  CFF21CAx        Rx   d 8 3B 00 B1 16 4A 46 00 24
   2.863000 1  CFF21CAx        Rx   d 8 3A 00 B8 16 4A 46 00 24
   2.864000 1  18F100D0x       Rx   d 8 0C FF FF FF FF FF FF FF
   2.866000 1  CFF21CAx        Rx   d 8 3A 00 C3 16 4A 46 00 24
   2.868000 1  CFF21CAx        Rx   d 8 3A 00 C9 16 4A 46 00 24
   2.870000 1  18F100D0x       Rx   d 8 0C FF FF FF FF FF FF FF
   2.871000 1  18FF2112x       Rx   d 8 01 00 00 00 00 00 00 00
   2.873000 1  CFF21CAx        Rx   d 8 3A 00 D8 16 4A 46 00 24
   2.875000 1  18F100F3x       Rx   d 8 02 D2 7F 2B 66 FA 14 00
   2.877000 1  18F102F3x       Rx   d 8 0E 1D 0E 18 13 0C 00 05
   2.878000 1  18F106F3x       Rx   d 8 45 E0 FC FF FF FF FF FF
   2.880000 1  18F107F3x       Rx   d 8 38 A4 30 70 01 45 00 AD
   2.882000 1  18F108F3x       Rx   d 8 00 00 00 00 00 00 00 00
   2.884000 1  18F155F3x       Rx   d 8 3A 39 3A 39 39 3B 3A 00
   2.885000 1  18F156F3x       Rx   d 8 00 00 00 00 00 00 00 00
   2.887000 1  18F157F3x       Rx   d 8 00 00 00 00 00 00 00 00
   2.889000 1  18F158F3x       Rx   d 8 00 00 00 00 00 00 00 00
   2.890000 1  CFF21CAx        Rx   d 8 3A 00 DB 16 4A 46 00 24
   2.892000 1  18F159F3x       Rx   d 8 00 00 00 00 00 00 00 00
   2.894000 1  18F15AF3x       Rx   d 8 00 00 00 00 00 00 00 00
   2.896000 1  18F15BF3x       Rx   d 7 00 00 00 00 00 00 00
   2.897000 1  18F15CF3x       Rx   d 8 00 00 00 00 00 00 00 00
   2.899000 1  18F15DF3x       Rx   d 8 00 00 00 00 00 00 00 00
   2.901000 1  18F100D0x       Rx   d 8 0C FF FF FF FF FF FF FF
   2.902000 1  18F15EF3x       Rx   d 8 00 00 00 00 00 00 00 00
   2.904000 1  CFF21CAx        Rx   d 8 3A 00 DB 16 4A 46 00 24
   2.906000 1  CFF21CAx        Rx   d 8 39 00 E8 16 4A 46 00 24
   2.907000 1  18F100D0x       Rx   d 8 0C FF FF FF FF FF FF FF
   2.909000 1  CFF21CAx        Rx   d 8 39 00 EC 16 4A 46 00 24
   2.911000 1  CFF21CAx        Rx   d 8 39 00 F2 16 4A 46 00 24
   2.913000 1  18F100D0x       Rx   d 8 0C FF FF FF FF FF FF FF
   2.914000 1  CFF21CAx        Rx   d 8 39 00 F7 16 4A 46 00 24
   2.916000 1  CFF21CAx        Rx   d 8 39 00 F8 16 4A 46 00 24
   2.918000 1  18F100D0x       Rx   d 8 0C FF FF FF FF FF FF FF
   2.920000 1  CFF21CAx        Rx   d 8 39 00 FD 16 4A 46 00 24
   2.921000 1  18FF2112x       Rx   d 8 01 00 00 00 00 00 00 00
   2.923000 1  18F100F3x       Rx   d 8 02 D2 7F 2B 66 FA 14 00
   2.925000 1  18F102F3x       Rx   d 8 0E 1D 0E 18 13 0C 00 05
   2.926000 1  18F106F3x       Rx   d 8 45 E0 FC FF FF FF FF FF
   2.928000 1  18F107F3x       Rx   d 8 38 A4 30 70 01 45 00 AD
   2.930000 1  18F108F3x       Rx   d 8 00 00 00 00 00 00 00 00
   2.932000 1  CFF21CAx        Rx   d 8 39 00 FF 16 4A 46 00 24
   2.934000 1  18F155F3x       Rx   d 8 3A 39 3A 39 39 3B 3A 00
   2.936000 1  18F156F3x       Rx   d 8 00 00 00 00 00 00 00 00
   2.937000 1  18F157F3x       Rx   d 8 00 00 00 00 00 00 00 00
   2.939000 1  18F158F3x       Rx   d 8 00 00 00 00 00 00 00 00
   2.941000 1  18F159F3x       Rx   d 8 00 00 00 00 00 00 00 00
   2.942000 1  18F15AF3x       Rx   d 8 00 00 00 00 00 00 00 00
   2.944000 1  18F15BF3x       Rx   d 7 00 00 00 00 00 00 00
   2.946000 1  18F100D0x       Rx   d 8 0C FF FF FF FF FF FF FF
   2.947000 1  18F15CF3x       Rx   d 8 00 00 00 00 00 00 00 00
   2.949000 1  18F15DF3x       Rx   d 8 00 00 00 00 00 00 00 00
   2.951000 1  18F15EF3x       Rx   d 8 00 00 00 00 00 00 00 00
   2.953000 1  CFF21CAx        Rx   d 8 39 00 0A 17 4A 46 00 24
   2.954000 1  CFF21CAx        Rx   d 8 3B 00 0F 17 4A 46 00 24
   2.960000 1  18F100D0x       Rx   d 8 0C FF FF FF FF FF FF FF
   2.964000 1  CFF21CAx        Rx   d 8 3B 00 16 17 4A 46 00 24
   2.976000 1  CFF21CAx        Rx   d 8 3B 00 18 17 4A 46 00 24
   2.984000 1  18F100D0x       Rx   d 8 0C FF FF FF FF FF FF FF
   2.988000 1  CFF21CAx        Rx   d 8 3A 00 25 17 4A 46 00 24
   3.000000 1  CFF21CAx        Rx   d 8 3A 00 2C 17 4A 46 00 24
   3.008000 1  18F100D0x       Rx   d 8 0C FF FF FF FF FF FF FF
   3.012000 1  CFF21CAx        Rx   d 8 3A 00 34 17 4A 46 00 24
   3.013000 1  18FF2112x       Rx   d 8 01 00 00 00 00 00 00 00
   3.023000 1  18F100F3x       Rx   d 8 02 D2 7F 26 66 FA 14 00
   3.024000 1  18F102F3x       Rx   d 8 0E 1D 0E 18 13 0C 00 05
   3.026000 1  CFF21CAx        Rx   d 8 3A 00 39 17 4A 46 00 24
   3.028000 1  18F106F3x       Rx   d 8 45 E0 FC FF FF FF FF FF
   3.030000 1  18F107F3x       Rx   d 8 38 A4 30 70 01 45 00 AD
   3.031000 1  18F108F3x       Rx   d 8 00 00 00 00 00 00 00 00
   3.033000 1  18F155F3x       Rx   d 8 3A 39 3A 39 39 3B 3A 00
   3.035000 1  18F156F3x       Rx   d 8 00 00 00 00 00 00 00 00
   3.037000 1  18F157F3x       Rx   d 8 00 00 00 00 00 00 00 00
   3.038000 1  18F158F3x       Rx   d 8 00 00 00 00 00 00 00 00
   3.040000 1  18F100D0x       Rx   d 8 0C FF FF FF FF FF FF FF
   3.042000 1  18F159F3x       Rx   d 8 00 00 00 00 00 00 00 00
   3.043000 1  18F15AF3x       Rx   d 8 00 00 00 00 00 00 00 00
   3.045000 1  18F15BF3x       Rx   d 7 00 00 00 00 00 00 00
   3.047000 1  18F15CF3x       Rx   d 8 00 00 00 00 00 00 00 00
   3.049000 1  CFF21CAx        Rx   d 8 3A 00 44 17 4A 46 00 24
   3.050000 1  18F15DF3x       Rx   d 8 00 00 00 00 00 00 00 00
   3.052000 1  18F15EF3x       Rx   d 8 00 00 00 00 00 00 00 00
   3.054000 1  CFF21CAx        Rx   d 8 3A 00 4A 17 4A 46 00 24
   3.060000 1  CFF21CAx        Rx   d 8 3A 00 52 17 4A 46 00 24
   3.061000 1  18F100D0x       Rx   d 8 0C FF FF FF FF FF FF FF
   3.063000 1  18FECACAx       Rx   d 8 00 00 00 00 00 00 FF FF
   3.072000 1  CFF21CAx        Rx   d 8 3A 00 5C 17 4A 46 00 24
   3.084000 1  CFF21CAx        Rx   d 8 3A 00 62 17 4A 46 00 24
   3.088000 1  18F100D0x       Rx   d 8 0C FF FF FF FF FF FF FF
   3.096000 1  CFF21CAx        Rx   d 8 3A 00 6C 17 4A 46 00 24
   3.109000 1  CFF21CAx        Rx   d 8 37 00 6F 17 4A 46 00 24
   3.112000 1  18FF2112x       Rx   d 8 01 00 00 00 00 00 00 00
   3.113000 1  18F100D0x       Rx   d 8 0C FF FF FF FF FF FF FF
   3.121000 1  CFF21CAx        Rx   d 8 37 00 73 17 4A 46 00 24
   3.123000 1  18F100F3x       Rx   d 8 02 D2 7F 26 66 FA 14 00
   3.125000 1  18F102F3x       Rx   d 8 0E 1D 0E 18 13 0C 00 05
   3.126000 1  18F106F3x       Rx   d 8 45 E0 FC FF FF FF FF FF
   3.128000 1  18F107F3x       Rx   d 8 38 A4 30 70 01 45 00 AD
   3.130000 1  18F108F3x       Rx   d 8 00 00 00 00 00 00 00 00
   3.132000 1  18F155F3x       Rx   d 8 3A 39 3A 39 39 3B 3A 00
   3.133000 1  18F156F3x       Rx   d 8 00 00 00 00 00 00 00 00
   3.135000 1  18F157F3x       Rx   d 8 00 00 00 00 00 00 00 00
   3.137000 1  18F158F3x       Rx   d 8 00 00 00 00 00 00 00 00
   3.139000 1  CFF21CAx        Rx   d 8 37 00 73 17 4A 46 00 24
   3.140000 1  18F159F3x       Rx   d 8 00 00 00 00 00 00 00 00
   3.142000 1  18F15AF3x       Rx   d 8 00 00 00 00 00 00 00 00
   3.143000 1  18F15BF3x       Rx   d 7 00 00 00 00 00 00 00
   3.145000 1  18F15CF3x       Rx   d 8 00 00 00 00 00 00 00 00
   3.147000 1  18F100D0x       Rx   d 8 0C FF FF FF FF FF FF FF
   3.149000 1  18F15DF3x       Rx   d 8 00 00 00 00 00 00 00 00
   3.151000 1  18F15EF3x       Rx   d 8 00 00 00 00 00 00 00 00
   3.152000 1  CFF21CAx        Rx   d 8 35 00 7C 17 4A 46 00 24
   3.156000 1  CFF21CAx        Rx   d 8 35 00 7C 17 4A 46 00 24
   3.160000 1  18F100D0x       Rx   d 8 0C FF FF FF FF FF FF FF
   3.168000 1  CFF21CAx        Rx   d 8 35 00 80 17 4A 46 00 24
   3.180000 1  CFF21CAx        Rx   d 8 34 00 82 17 4A 46 00 24
   3.189000 1  18F100D0x       Rx   d 8 0C FF FF FF FF FF FF FF
   3.193000 1  CFF21CAx        Rx   d 8 34 00 82 17 4A 46 00 24
   3.205000 1  CFF21CAx        Rx   d 8 31 00 8A 17 4A 46 00 24
   3.208000 1  18FF2112x       Rx   d 8 01 00 00 00 00 00 00 00
   3.213000 1  18F100D0x       Rx   d 8 0C FF FF FF FF FF FF FF
   3.217000 1  CFF21CAx        Rx   d 8 31 00 8B 17 4A 46 00 24
   3.223000 1  18F100F3x       Rx   d 8 02 D2 7F 26 66 FA 14 00
   3.224000 1  18F102F3x       Rx   d 8 0E 1C 0E 17 13 0C 00 05
   3.226000 1  18F106F3x       Rx   d 8 45 E0 FC FF FF FF FF FF
   3.228000 1  18F107F3x       Rx   d 8 38 A4 30 70 01 45 00 AD
   3.230000 1  18F108F3x       Rx   d 8 00 00 00 00 00 00 00 00
   3.231000 1  18F155F3x       Rx   d 8 3A 39 3A 39 39 3B 3A 00
   3.233000 1  CFF21CAx        Rx   d 8 31 00 90 17 4A 46 00 24
   3.235000 1  18F156F3x       Rx   d 8 00 00 00 00 00 00 00 00
   3.236000 1  18F157F3x       Rx   d 8 00 00 00 00 00 00 00 00
   3.238000 1  18F158F3x       Rx   d 8 00 00 00 00 00 00 00 00
   3.240000 1  18F159F3x       Rx   d 8 00 00 00 00 00 00 00 00
   3.242000 1  18F15AF3x       Rx   d 8 00 00 00 00 00 00 00 00
   3.244000 1  18F15BF3x       Rx   d 7 00 00 00 00 00 00 00
   3.245000 1  18F15CF3x       Rx   d 8 00 00 00 00 00 00 00 00
   3.247000 1  18F15DF3x       Rx   d 8 00 00 00 00 00 00 00 00
   3.249000 1  18F100D0x       Rx   d 8 0C FF FF FF FF FF FF FF
   3.250000 1  18F15EF3x       Rx   d 8 00 00 00 00 00 00 00 00
   3.252000 1  CFF21CAx        Rx   d 8 2F 00 97 17 4A 46 00 24
   3.254000 1  CFF21CAx        Rx   d 8 2F 00 9D 17 4A 46 00 24
   3.265000 1  CFF21CAx        Rx   d 8 2F 00 A3 17 4A 46 00 24
   3.266000 1  18F100D0x       Rx   d 8 0C FF FF FF FF FF FF FF
   3.277000 1  CFF21CAx        Rx   d 8 2C 00 A9 17 4A 46 00 24
   3.289000 1  CFF21CAx        Rx   d 8 2C 00 AE 17 4A 46 00 24
   3.290000 1  18F100D0x       Rx   d 8 0C FF FF FF FF FF FF FF
   3.301000 1  CFF21CAx        Rx   d 8 2A 00 B2 17 4A 46 00 24
   3.306000 1  18FF2112x       Rx   d 8 01 00 00 00 00 00 00 00
   3.313000 1  CFF21CAx        Rx   d 8 2A 00 B5 17 4A 46 00 24
   3.314000 1  18F100D0x       Rx   d 8 0C FF FF FF FF FF FF FF
   3.323000 1  18F100F3x       Rx   d 8 02 D2 7E EC 66 FA 14 00
   3.324000 1  18F102F3x       Rx   d 8 0E 1C 0E 17 13 0C 00 05
   3.326000 1  18F106F3x       Rx   d 8 45 E0 FC FF FF FF FF FF
   3.328000 1  CFF21CAx        Rx   d 8 2A 00 B9 17 4A 46 00 24
   3.330000 1  18F107F3x       Rx   d 8 38 A4 30 70 01 45 00 AD
   3.331000 1  18F108F3x       Rx   d 8 00 00 00 00 00 00 00 00
   3.333000 1  18F155F3x       Rx   d 8 3A 39 3A 39 39 3B 3A 00
   3.335000 1  18F156F3x       Rx   d 8 00 00 00 00 00 00 00 00
   3.337000 1  18F157F3x       Rx   d 8 00 00 00 00 00 00 00 00
   3.338000 1  18F158F3x       Rx   d 8 00 00 00 00 00 00 00 00
   3.340000 1  18F159F3x       Rx   d 8 00 00 00 00 00 00 00 00
   3.342000 1  18F15AF3x       Rx   d 8 00 00 00 00 00 00 00 00
   3.343000 1  18F15BF3x       Rx   d 7 00 00 00 00 00 00 00
   3.345000 1  18F15CF3x       Rx   d 8 00 00 00 00 00 00 00 00
   3.347000 1  18F15DF3x       Rx   d 8 00 00 00 00 00 00 00 00
   3.349000 1  18F15EF3x       Rx   d 8 00 00 00 00 00 00 00 00
   3.350000 1  CFF21CAx        Rx   d 8 25 00 BD 17 4A 46 00 24
   3.352000 1  18F100D0x       Rx   d 8 0C FF FF FF FF FF FF FF
   3.354000 1  CFF21CAx        Rx   d 8 25 00 BF 17 4A 46 00 24
   3.362000 1  CFF21CAx        Rx   d 8 1F 00 BD 17 4A 46 00 24
   3.365000 1  18F100D0x       Rx   d 8 0C FF FF FF FF FF FF FF
   3.373000 1  CFF21CAx        Rx   d 8 1F 00 BC 17 4A 46 00 24
   3.385000 1  CFF21CAx        Rx   d 8 1F 00 C2 17 4A 46 00 24
   3.389000 1  18F100D0x       Rx   d 8 0C FF FF FF FF FF FF FF
   3.397000 1  CFF21CAx        Rx   d 8 1B 00 BD 17 4A 46 00 24
   3.403000 1  18FF2112x       Rx   d 8 01 00 00 00 00 00 00 00
   3.410000 1  CFF21CAx        Rx   d 8 1B 00 BC 17 4A 46 00 24
   3.413000 1  18F100D0x       Rx   d 8 0C FF FF FF FF FF FF FF
   3.421000 1  CFF21CAx        Rx   d 8 1B 00 BC 17 4A 46 00 24
   3.422000 1  18F100F3x       Rx   d 8 02 D2 7E EC 66 FA 14 00
   3.423000 1  18F102F3x       Rx   d 8 0E 1C 0E 17 13 0C 00 05
   3.425000 1  18F106F3x       Rx   d 8 45 E0 FC FF FF FF FF FF
   3.426000 1  18F107F3x       Rx   d 8 38 A4 30 70 01 45 00 AD
   3.429000 1  18F108F3x       Rx   d 8 00 00 00 00 00 00 00 00
   3.430000 1  18F155F3x       Rx   d 8 3A 39 3A 39 39 3B 3A 00
   3.431000 1  18F156F3x       Rx   d 8 00 00 00 00 00 00 00 00
   3.461000 1  18F157F3x       Rx   d 8 00 00 00 00 00 00 00 00
   3.463000 1  18F158F3x       Rx   d 8 00 00 00 00 00 00 00 00
   3.465000 1  18F159F3x       Rx   d 8 00 00 00 00 00 00 00 00
   3.467000 1  18F15AF3x       Rx   d 8 00 00 00 00 00 00 00 00
   3.468000 1  CFF21CAx        Rx   d 8 19 00 B5 17 4A 46 00 24
   3.470000 1  18F15BF3x       Rx   d 7 00 00 00 00 00 00 00
   3.472000 1  18F15CF3x       Rx   d 8 00 00 00 00 00 00 00 00
   3.473000 1  18F15DF3x       Rx   d 8 00 00 00 00 00 00 00 00
   3.475000 1  18F15EF3x       Rx   d 8 00 00 00 00 00 00 00 00
   3.477000 1  18F100D0x       Rx   d 8 0C FF FF FF FF FF FF FF
   3.478000 1  CFF21CAx        Rx   d 8 19 00 B5 17 4A 46 00 24
   3.480000 1  CFF21CAx        Rx   d 8 19 00 B0 17 4A 46 00 24
   3.482000 1  18F100D0x       Rx   d 8 0C FF FF FF FF FF FF FF
   3.483000 1  CFF21CAx        Rx   d 8 16 00 A8 17 4A 46 00 24
   3.485000 1  CFF21CAx        Rx   d 8 16 00 9F 17 4A 46 00 24
   3.490000 1  18F100D0x       Rx   d 8 0C FF FF FF FF FF FF FF
   3.494000 1  CFF21CAx        Rx   d 8 17 00 9A 17 4A 46 00 24
   3.500000 1  18FF2112x       Rx   d 8 01 00 00 00 00 00 00 00
   3.519000 1  CFF21CAx        Rx   d 8 17 00 92 17 4A 46 00 24
   3.521000 1  18F100D0x       Rx   d 8 0C FF FF FF FF FF FF FF
   3.523000 1  CFF21CAx        Rx   d 8 17 00 88 17 4A 46 00 24
   3.524000 1  18F100F3x       Rx   d 8 02 D2 7E 0F 66 FA 14 00
   3.526000 1  18F102F3x       Rx   d 8 0E 1C 0E 17 13 0C 00 05
   3.528000 1  18F106F3x       Rx   d 8 45 E0 FC FF FF FF FF FF
   3.530000 1  18F107F3x       Rx   d 8 38 A4 30 70 01 45 00 AD
   3.532000 1  18F108F3x       Rx   d 8 00 00 00 00 00 00 00 00
   3.533000 1  18F155F3x       Rx   d 8 3A 39 3A 39 39 3B 3A 00
   3.535000 1  18F156F3x       Rx   d 8 00 00 00 00 00 00 00 00
   3.537000 1  CFF21CAx        Rx   d 8 19 00 80 17 4A 46 00 24
   3.539000 1  18F157F3x       Rx   d 8 00 00 00 00 00 00 00 00
   3.540000 1  18F158F3x       Rx   d 8 00 00 00 00 00 00 00 00
   3.542000 1  18F159F3x       Rx   d 8 00 00 00 00 00 00 00 00
   3.544000 1  18F15AF3x       Rx   d 8 00 00 00 00 00 00 00 00
   3.545000 1  18F15BF3x       Rx   d 7 00 00 00 00 00 00 00
   3.546000 1  18F15CF3x       Rx   d 8 00 00 00 00 00 00 00 00
   3.547000 1  18F15DF3x       Rx   d 8 00 00 00 00 00 00 00 00
   3.548000 1  18F15EF3x       Rx   d 8 00 00 00 00 00 00 00 00
   3.550000 1  18F100D0x       Rx   d 8 0C FF FF FF FF FF FF FF
   3.582000 1  CFF21CAx        Rx   d 8 19 00 74 17 4A 46 00 24
   3.583000 1  CFF21CAx        Rx   d 8 19 00 72 17 4A 46 00 24
   3.586000 1  CFF21CAx        Rx   d 8 1C 00 64 17 4A 46 00 24
   3.587000 1  18F100D0x       Rx   d 8 0C FF FF FF FF FF FF FF
   3.589000 1  CFF21CAx        Rx   d 8 1C 00 64 17 4A 46 00 24
   3.591000 1  CFF21CAx        Rx   d 8 21 00 5A 17 4A 46 00 24
   3.593000 1  18F100D0x       Rx   d 8 0C FF FF FF FF FF FF FF
   3.597000 1  18FF2112x       Rx   d 8 01 00 00 00 00 00 00 00
   3.603000 1  CFF21CAx        Rx   d 8 21 00 5E 17 4A 46 00 24
   3.614000 1  18F104F3x       Rx   d 8 3B 39 06 02 02 FF FF FF
   3.615000 1  CFF21CAx        Rx   d 8 21 00 56 17 4A 46 00 24
   3.617000 1  18F100D0x       Rx   d 8 0C FF FF FF FF FF FF FF
   3.619000 1  18F113F3x       Rx   d 8 0E 19 0E 18 0E 1A 0E 1B
   3.621000 1  18F114F3x       Rx   d 8 0E 1A 0E 1A 0E 1A 0E 1A
   3.622000 1  18F115F3x       Rx   d 8 0E 1B 0E 1A 0E 19 0E 17
   3.624000 1  18F116F3x       Rx   d 8 0E 1A 0E 19 0E 1A 0E 1B
   3.626000 1  18F117F3x       Rx   d 8 0E 1A 0E 1B 0E 1C 0E 1B
   3.628000 1  18F118F3x       Rx   d 8 00 00 00 00 00 00 00 00
   3.630000 1  18F119F3x       Rx   d 8 00 00 00 00 00 00 00 00
   3.631000 1  18F11AF3x       Rx   d 8 00 00 00 00 00 00 00 00
   3.633000 1  18F100F3x       Rx   d 8 02 D2 7E 0F 66 FA 14 00
   3.635000 1  18F102F3x       Rx   d 8 0E 1C 0E 17 13 0C 00 05
   3.637000 1  18F106F3x       Rx   d 8 45 E0 FC FF FF FF FF FF
   3.638000 1  CFF21CAx        Rx   d 8 26 00 57 17 4A 46 00 24
   3.640000 1  18F107F3x       Rx   d 8 38 A4 30 70 01 45 00 AD
   3.642000 1  18F108F3x       Rx   d 8 00 00 00 00 00 00 00 00
   3.644000 1  18F11BF3x       Rx   d 8 00 00 00 00 00 00 00 00
   3.645000 1  18F11CF3x       Rx   d 8 00 00 00 00 00 00 00 00
   3.647000 1  18F11DF3x       Rx   d 8 00 00 00 00 00 00 00 00
   3.649000 1  18F11EF3x       Rx   d 8 00 00 00 00 00 00 00 00
   3.651000 1  18F11FF3x       Rx   d 8 00 00 00 00 00 00 00 00
   3.653000 1  18F120F3x       Rx   d 8 00 00 00 00 00 00 00 00
   3.654000 1  18F121F3x       Rx   d 8 00 00 00 00 00 00 00 00
   3.656000 1  18F122F3x       Rx   d 8 00 00 00 00 00 00 00 00
   3.658000 1  18F123F3x       Rx   d 8 00 00 00 00 00 00 00 00
   3.660000 1  CFF21CAx        Rx   d 8 26 00 56 17 4A 46 00 24
   3.661000 1  18F100D0x       Rx   d 8 0C FF FF FF FF FF FF FF
   3.663000 1  18F124F3x       Rx   d 8 00 00 00 00 00 00 00 00
   3.665000 1  18F125F3x       Rx   d 8 00 00 00 00 00 00 00 00
   3.667000 1  18F126F3x       Rx   d 8 00 00 00 00 00 00 00 00
   3.669000 1  18F127F3x       Rx   d 8 00 00 00 00 00 00 00 00
   3.670000 1  18F128F3x       Rx   d 8 00 00 00 00 00 00 00 00
   3.672000 1  18F129F3x       Rx   d 8 00 00 00 00 00 00 00 00
   3.674000 1  18F12AF3x       Rx   d 8 00 00 00 00 00 00 00 00
   3.675000 1  18F12BF3x       Rx   d 8 00 00 00 00 00 00 00 00
   3.677000 1  18F12CF3x       Rx   d 8 00 00 00 00 00 00 00 00
   3.678000 1  18F12DF3x       Rx   d 8 00 00 00 00 00 00 00 00
   3.680000 1  18F12EF3x       Rx   d 8 00 00 00 00 00 00 00 00
   3.682000 1  18F12FF3x       Rx   d 8 00 00 00 00 00 00 00 00
   3.684000 1  18F130F3x       Rx   d 8 00 00 00 00 00 00 00 00
   3.686000 1  CFF21CAx        Rx   d 8 2A 00 59 17 4A 46 00 24
   3.687000 1  18F131F3x       Rx   d 8 00 00 00 00 00 00 00 00
   3.689000 1  18F132F3x       Rx   d 8 00 00 00 00 00 00 00 00
   3.691000 1  18F133F3x       Rx   d 8 00 00 00 00 00 00 00 00
   3.692000 1  18F134F3x       Rx   d 8 00 00 00 00 00 00 00 00
   3.694000 1  18F135F3x       Rx   d 8 00 00 00 00 00 00 00 00
   3.696000 1  18F136F3x       Rx   d 8 00 00 00 00 00 00 00 00
   3.698000 1  18F137F3x       Rx   d 8 00 00 00 00 00 00 00 00
   3.700000 1  18F138F3x       Rx   d 8 00 00 00 00 00 00 00 00
   3.701000 1  18F139F3x       Rx   d 8 00 00 00 00 00 00 00 00
   3.703000 1  18F13AF3x       Rx   d 8 00 00 00 00 00 00 00 00
   3.705000 1  18F13BF3x       Rx   d 8 00 00 00 00 00 00 00 00
   3.707000 1  18F13CF3x       Rx   d 8 00 00 00 00 00 00 00 00
   3.708000 1  CFF21CAx        Rx   d 8 2A 00 5C 17 4A 46 00 24
   3.710000 1  18F100D0x       Rx   d 8 0C FF FF FF FF FF FF FF
   3.712000 1  18F155F3x       Rx   d 8 3A 39 3A 39 39 3B 3A 00
   3.713000 1  18F156F3x       Rx   d 8 00 00 00 00 00 00 00 00
   3.715000 1  18F157F3x       Rx   d 8 00 00 00 00 00 00 00 00
   3.717000 1  18F158F3x       Rx   d 8 00 00 00 00 00 00 00 00
   3.718000 1  18F159F3x       Rx   d 8 00 00 00 00 00 00 00 00
   3.720000 1  18F15AF3x       Rx   d 8 00 00 00 00 00 00 00 00
   3.722000 1  18F15BF3x       Rx   d 7 00 00 00 00 00 00 00
   3.724000 1  18F15CF3x       Rx   d 8 00 00 00 00 00 00 00 00
   3.725000 1  18F15DF3x       Rx   d 8 00 00 00 00 00 00 00 00
   3.727000 1  18F15EF3x       Rx   d 8 00 00 00 00 00 00 00 00
   3.729000 1  CFF21CAx        Rx   d 8 2A 00 5F 17 4A 46 00 24
   3.731000 1  CFF21CAx        Rx   d 8 2D 00 67 17 4A 46 00 24
   3.732000 1  18F100D0x       Rx   d 8 0C FF FF FF FF FF FF FF
   3.734000 1  18FF2112x       Rx   d 8 01 00 00 00 00 00 00 00
   3.736000 1  CFF21CAx        Rx   d 8 2D 00 68 17 4A 46 00 24
   3.738000 1  CFF21CAx        Rx   d 8 2D 00 6B 17 4A 46 00 24
   3.739000 1  18F100D0x       Rx   d 8 0C FF FF FF FF FF FF FF
   3.740000 1  18F100F3x       Rx   d 8 02 D2 7E 0F 66 FA 14 00
   3.741000 1  CFF21CAx        Rx   d 8 2D 00 6F 17 4A 46 00 24
   3.742000 1  18F102F3x       Rx   d 8 0E 1C 0E 17 13 0C 00 05
   3.760000 1  18F106F3x       Rx   d 8 45 E0 FC FF FF FF FF FF
   3.761000 1  18F107F3x       Rx   d 8 38 A4 30 70 01 45 00 AD
   3.764000 1  18F108F3x       Rx   d 8 00 00 00 00 00 00 00 00
   3.765000 1  18F155F3x       Rx   d 8 3A 39 3A 39 39 3B 3A 00
   3.767000 1  18F156F3x       Rx   d 8 00 00 00 00 00 00 00 00
   3.769000 1  18F157F3x       Rx   d 8 00 00 00 00 00 00 00 00
   3.771000 1  18F158F3x       Rx   d 8 00 00 00 00 00 00 00 00
   3.772000 1  18F159F3x       Rx   d 8 00 00 00 00 00 00 00 00
   3.774000 1  18F15AF3x       Rx   d 8 00 00 00 00 00 00 00 00
   3.776000 1  18F15BF3x       Rx   d 7 00 00 00 00 00 00 00
   3.777000 1  CFF21CAx        Rx   d 8 2D 00 71 17 4A 46 00 24
   3.779000 1  18F15CF3x       Rx   d 8 00 00 00 00 00 00 00 00
   3.781000 1  18F15DF3x       Rx   d 8 00 00 00 00 00 00 00 00
   3.782000 1  18F15EF3x       Rx   d 8 00 00 00 00 00 00 00 00
   3.784000 1  18F100D0x       Rx   d 8 0C FF FF FF FF FF FF FF
   3.785000 1  CFF21CAx        Rx   d 8 2D 00 70 17 4A 46 00 24
   3.787000 1  CFF21CAx        Rx   d 8 2D 00 73 17 4A 46 00 24
   3.789000 1  18F100D0x       Rx   d 8 0C FF FF FF FF FF FF FF
   3.791000 1  CFF21CAx        Rx   d 8 2D 00 76 17 4A 46 00 24
   3.792000 1  CFF21CAx        Rx   d 8 2D 00 76 17 4A 46 00 24
   3.794000 1  18F100D0x       Rx   d 8 0C FF FF FF FF FF FF FF
   3.796000 1  18FF2112x       Rx   d 8 01 00 00 00 00 00 00 00
   3.797000 1  CFF21CAx        Rx   d 8 2C 00 70 17 4A 46 00 24
   3.807000 1  CFF21CAx        Rx   d 8 2C 00 70 17 4A 46 00 24
   3.815000 1  18F100D0x       Rx   d 8 0C FF FF FF FF FF FF FF
   3.819000 1  CFF21CAx        Rx   d 8 2D 00 6D 17 4A 46 00 24
   3.823000 1  18F100F3x       Rx   d 8 02 D2 7E 7D 66 FA 14 00
   3.825000 1  18F102F3x       Rx   d 8 0E 1C 0E 17 13 0C 00 05
   3.826000 1  18F106F3x       Rx   d 8 45 E0 FC FF FF FF FF FF
   3.828000 1  18F107F3x       Rx   d 8 38 A4 30 70 01 45 00 AD
   3.830000 1  18F108F3x       Rx   d 8 00 00 00 00 00 00 00 00
   3.832000 1  18F155F3x       Rx   d 8 3A 39 3A 39 39 3B 3A 00
   3.834000 1  18F156F3x       Rx   d 8 00 00 00 00 00 00 00 00
   3.835000 1  18F157F3x       Rx   d 8 00 00 00 00 00 00 00 00
   3.837000 1  CFF21CAx        Rx   d 8 2D 00 65 17 4A 46 00 24
   3.839000 1  18F158F3x       Rx   d 8 00 00 00 00 00 00 00 00
   3.841000 1  18F159F3x       Rx   d 8 00 00 00 00 00 00 00 00
   3.842000 1  18F15AF3x       Rx   d 8 00 00 00 00 00 00 00 00
   3.844000 1  18F15BF3x       Rx   d 7 00 00 00 00 00 00 00
   3.846000 1  18F15CF3x       Rx   d 8 00 00 00 00 00 00 00 00
   3.848000 1  18F15DF3x       Rx   d 8 00 00 00 00 00 00 00 00
   3.849000 1  18F15EF3x       Rx   d 8 00 00 00 00 00 00 00 00
   3.851000 1  18F100D0x       Rx   d 8 0C FF FF FF FF FF FF FF
   3.852000 1  CFF21CAx        Rx   d 8 2D 00 66 17 4A 46 00 24
   3.856000 1  CFF21CAx        Rx   d 8 2E 00 62 17 4A 46 00 24
   3.863000 1  18F100D0x       Rx   d 8 0C FF FF FF FF FF FF FF
   3.868000 1  CFF21CAx        Rx   d 8 2E 00 60 17 4A 46 00 24
   3.879000 1  CFF21CAx        Rx   d 8 30 00 5E 17 4A 46 00 24
   3.887000 1  18F100D0x       Rx   d 8 0C FF FF FF FF FF FF FF
   3.890000 1  18FF2112x       Rx   d 8 01 00 00 00 00 00 00 00
   3.891000 1  CFF21CAx        Rx   d 8 30 00 5B 17 4A 46 00 24
   3.903000 1  CFF21CAx        Rx   d 8 30 00 57 17 4A 46 00 24
   3.911000 1  18F100D0x       Rx   d 8 0C FF FF FF FF FF FF FF
   3.916000 1  CFF21CAx        Rx   d 8 31 00 56 17 4A 46 00 24
   3.923000 1  18F100F3x       Rx   d 8 02 D2 7E 7D 66 FA 14 00
   3.924000 1  18F102F3x       Rx   d 8 0E 1C 0E 17 13 0C 00 05
   3.926000 1  18F106F3x       Rx   d 8 45 E0 FC FF FF FF FF FF
   3.928000 1  18F107F3x       Rx   d 8 38 A4 30 70 01 45 00 AD
   3.930000 1  CFF21CAx        Rx   d 8 31 00 58 17 4A 46 00 24
   3.931000 1  18F108F3x       Rx   d 8 00 00 00 00 00 00 00 00
   3.933000 1  18F155F3x       Rx   d 8 3A 39 3A 39 39 3B 3A 00
   3.935000 1  18F156F3x       Rx   d 8 00 00 00 00 00 00 00 00
   3.937000 1  18F157F3x       Rx   d 8 00 00 00 00 00 00 00 00
   3.938000 1  18F158F3x       Rx   d 8 00 00 00 00 00 00 00 00
   3.940000 1  18F159F3x       Rx   d 8 00 00 00 00 00 00 00 00
   3.942000 1  18F15AF3x       Rx   d 8 00 00 00 00 00 00 00 00
   3.944000 1  18F15BF3x       Rx   d 7 00 00 00 00 00 00 00
   3.945000 1  18F15CF3x       Rx   d 8 00 00 00 00 00 00 00 00
   3.947000 1  18F15DF3x       Rx   d 8 00 00 00 00 00 00 00 00
   3.949000 1  18F15EF3x       Rx   d 8 00 00 00 00 00 00 00 00
   3.950000 1  CFF21CAx        Rx   d 8 34 00 55 17 4A 46 00 24
   3.952000 1  18F100D0x       Rx   d 8 0C FF FF FF FF FF FF FF
   3.954000 1  CFF21CAx        Rx   d 8 34 00 55 17 4A 46 00 24
   3.964000 1  CFF21CAx        Rx   d 8 34 00 58 17 4A 46 00 24
   3.965000 1  18F100D0x       Rx   d 8 0C FF FF FF FF FF FF FF
   3.976000 1  CFF21CAx        Rx   d 8 35 00 5C 17 4A 46 00 24
   3.986000 1  18FF2112x       Rx   d 8 01 00 00 00 00 00 00 00
   3.989000 1  CFF21CAx        Rx   d 8 35 00 62 17 4A 46 00 24
   3.990000 1  18F100D0x       Rx   d 8 0C FF FF FF FF FF FF FF
   4.000000 1  CFF21CAx        Rx   d 8 35 00 62 17 4A 46 00 24
   4.012000 1  CFF21CAx        Rx   d 8 34 00 70 17 4A 46 00 24
   4.013000 1  18F100D0x       Rx   d 8 0C FF FF FF FF FF FF FF
   4.023000 1  18F100F3x       Rx   d 8 02 D2 7E D4 66 FA 14 00
   4.024000 1  18F102F3x       Rx   d 8 0E 1C 0E 17 13 0C 00 05
   4.026000 1  CFF21CAx        Rx   d 8 34 00 77 17 4A 46 00 24
   4.028000 1  18F106F3x       Rx   d 8 45 E0 FC FF FF FF FF FF
   4.029000 1  18F107F3x       Rx   d 8 38 A4 30 70 01 45 00 AD
   4.031000 1  18F108F3x       Rx   d 8 00 00 00 00 00 00 00 00
   4.033000 1  18F155F3x       Rx   d 8 3A 39 3A 39 39 3B 3A 00
   4.035000 1  18F156F3x       Rx   d 8 00 00 00 00 00 00 00 00
   4.037000 1  18F157F3x       Rx   d 8 00 00 00 00 00 00 00 00
   4.038000 1  18F158F3x       Rx   d 8 00 00 00 00 00 00 00 00
   4.040000 1  18F159F3x       Rx   d 8 00 00 00 00 00 00 00 00
   4.042000 1  18F15AF3x       Rx   d 8 00 00 00 00 00 00 00 00
   4.043000 1  18F15BF3x       Rx   d 7 00 00 00 00 00 00 00
   4.045000 1  18F15CF3x       Rx   d 8 00 00 00 00 00 00 00 00
   4.047000 1  18F15DF3x       Rx   d 8 00 00 00 00 00 00 00 00
   4.049000 1  CFF21CAx        Rx   d 8 32 00 84 17 4A 46 00 24
   4.050000 1  18F100D0x       Rx   d 8 0C FF FF FF FF FF FF FF
   4.052000 1  18F15EF3x       Rx   d 8 00 00 00 00 00 00 00 00
   4.054000 1  CFF21CAx        Rx   d 8 32 00 8D 17 4A 46 00 24
   4.060000 1  CFF21CAx        Rx   d 8 32 00 94 17 4A 46 00 24
   4.061000 1  18F100D0x       Rx   d 8 0C FF FF FF FF FF FF FF
   4.072000 1  CFF21CAx        Rx   d 8 2E 00 9A 17 4A 46 00 24
   4.076000 1  18FECACAx       Rx   d 8 00 00 00 00 00 00 FF FF
   4.084000 1  18FF2112x       Rx   d 8 01 00 00 00 00 00 00 00
   4.085000 1  CFF21CAx        Rx   d 8 2E 00 9E 17 4A 46 00 24
   4.088000 1  18F100D0x       Rx   d 8 0C FF FF FF FF FF FF FF
   4.096000 1  CFF21CAx        Rx   d 8 2E 00 9E 17 4A 46 00 24
   4.108000 1  CFF21CAx        Rx   d 8 2A 00 9E 17 4A 46 00 24
   4.117000 1  18F100D0x       Rx   d 8 0C FF FF FF FF FF FF FF
   4.120000 1  CFF21CAx        Rx   d 8 2A 00 A0 17 4A 46 00 24
   4.123000 1  18F100F3x       Rx   d 8 02 D2 7E D4 66 FA 14 00
   4.125000 1  18F102F3x       Rx   d 8 0E 1C 0E 17 13 0C 00 05
   4.126000 1  18F106F3x       Rx   d 8 45 E0 FC FF FF FF FF FF
   4.128000 1  18F107F3x       Rx   d 8 38 A4 30 70 01 45 00 AD
   4.130000 1  18F108F3x       Rx   d 8 00 00 00 00 00 00 00 00
   4.132000 1  18F155F3x       Rx   d 8 3A 39 3A 39 39 3B 3A 00
   4.134000 1  18F156F3x       Rx   d 8 00 00 00 00 00 00 00 00
   4.135000 1  18F157F3x       Rx   d 8 00 00 00 00 00 00 00 00
   4.137000 1  18F158F3x       Rx   d 8 00 00 00 00 00 00 00 00
   4.139000 1  18F159F3x       Rx   d 8 00 00 00 00 00 00 00 00
   4.141000 1  CFF21CAx        Rx   d 8 2A 00 9E 17 4A 46 00 24
   4.142000 1  18F15AF3x       Rx   d 8 00 00 00 00 00 00 00 00
   4.144000 1  18F15BF3x       Rx   d 7 00 00 00 00 00 00 00
   4.145000 1  18F15CF3x       Rx   d 8 00 00 00 00 00 00 00 00
   4.147000 1  18F15DF3x       Rx   d 8 00 00 00 00 00 00 00 00
   4.149000 1  18F15EF3x       Rx   d 8 00 00 00 00 00 00 00 00
   4.150000 1  18F100D0x       Rx   d 8 0C FF FF FF FF FF FF FF
   4.152000 1  CFF21CAx        Rx   d 8 26 00 9C 17 4A 46 00 24
   4.156000 1  CFF21CAx        Rx   d 8 26 00 97 17 4A 46 00 24
   4.165000 1  18F100D0x       Rx   d 8 0C FF FF FF FF FF FF FF
   4.168000 1  CFF21CAx        Rx   d 8 24 00 8C 17 4A 46 00 24
   4.188000 1  CFF21CAx        Rx   d 8 24 00 8B 17 4A 46 00 24
   4.190000 1  18FF2112x       Rx   d 8 01 00 00 00 00 00 00 00
   4.191000 1  18F100D0x       Rx   d 8 0C FF FF FF FF FF FF FF
   4.193000 1  CFF21CAx        Rx   d 8 24 00 86 17 4A 46 00 24
   4.205000 1  CFF21CAx        Rx   d 8 23 00 80 17 4A 46 00 24
   4.217000 1  CFF21CAx        Rx   d 8 23 00 7C 17 4A 46 00 24
   4.218000 1  18F100D0x       Rx   d 8 0C FF FF FF FF FF FF FF
   4.223000 1  18F100F3x       Rx   d 8 02 D2 7E D4 66 FA 14 00
   4.224000 1  18F102F3x       Rx   d 8 0E 1B 0E 17 04 02 00 04
   4.225000 1  18F106F3x       Rx   d 8 45 E0 FC FF FF FF FF FF
   4.227000 1  18F107F3x       Rx   d 8 38 A4 30 70 01 45 00 AD
   4.228000 1  18F108F3x       Rx   d 8 00 00 00 00 00 00 00 00
   4.229000 1  18F155F3x       Rx   d 8 3A 39 3A 39 39 3B 3A 00
   4.251000 1  CFF21CAx        Rx   d 8 24 00 77 17 4A 46 00 24
   4.253000 1  18F156F3x       Rx   d 8 00 00 00 00 00 00 00 00
   4.254000 1  18F157F3x       Rx   d 8 00 00 00 00 00 00 00 00
   4.256000 1  18F158F3x       Rx   d 8 00 00 00 00 00 00 00 00
   4.258000 1  18F159F3x       Rx   d 8 00 00 00 00 00 00 00 00
   4.260000 1  18F15AF3x       Rx   d 8 00 00 00 00 00 00 00 00
   4.261000 1  18F15BF3x       Rx   d 7 00 00 00 00 00 00 00
   4.263000 1  18F15CF3x       Rx   d 8 00 00 00 00 00 00 00 00
   4.265000 1  18F15DF3x       Rx   d 8 00 00 00 00 00 00 00 00
   4.267000 1  18F15EF3x       Rx   d 8 00 00 00 00 00 00 00 00
   4.268000 1  CFF21CAx        Rx   d 8 24 00 72 17 4A 46 00 24
   4.270000 1  18F100D0x       Rx   d 8 0C FF FF FF FF FF FF FF
   4.272000 1  CFF21CAx        Rx   d 8 24 00 70 17 4A 46 00 24
   4.273000 1  CFF21CAx        Rx   d 8 26 00 6D 17 4A 46 00 24
   4.275000 1  18F100D0x       Rx   d 8 0C FF FF FF FF FF FF FF
   4.277000 1  CFF21CAx        Rx   d 8 26 00 6A 17 4A 46 00 24
   4.278000 1  18FF2112x       Rx   d 8 01 00 00 00 00 00 00 00
   4.289000 1  CFF21CAx        Rx   d 8 26 00 69 17 4A 46 00 24
   4.310000 1  18F100D0x       Rx   d 8 0C FF FF FF FF FF FF FF
   4.311000 1  CFF21CAx        Rx   d 8 28 00 69 17 4A 46 00 24
   4.314000 1  CFF21CAx        Rx   d 8 28 00 6A 17 4A 46 00 24
   4.316000 1  18F100D0x       Rx   d 8 0C FF FF FF FF FF FF FF
   4.323000 1  18F100F3x       Rx   d 8 02 D2 7E 60 66 FA 14 00
   4.324000 1  18F102F3x       Rx   d 8 0E 1B 0E 17 04 02 00 04
   4.326000 1  18F106F3x       Rx   d 8 45 E0 FC FF FF FF FF FF
   4.328000 1  CFF21CAx        Rx   d 8 2A 00 6A 17 4A 46 00 24
   4.329000 1  18F107F3x       Rx   d 8 38 A4 30 70 01 45 00 AD
   4.331000 1  18F108F3x       Rx   d 8 00 00 00 00 00 00 00 00
   4.334000 1  18F155F3x       Rx   d 8 3A 39 3A 39 39 3B 3A 00
   4.335000 1  18F156F3x       Rx   d 8 00 00 00 00 00 00 00 00
   4.337000 1  18F157F3x       Rx   d 8 00 00 00 00 00 00 00 00
   4.339000 1  18F158F3x       Rx   d 8 00 00 00 00 00 00 00 00
   4.340000 1  18F159F3x       Rx   d 8 00 00 00 00 00 00 00 00
   4.342000 1  18F15AF3x       Rx   d 8 00 00 00 00 00 00 00 00
   4.344000 1  18F15BF3x       Rx   d 7 00 00 00 00 00 00 00
   4.346000 1  18F15CF3x       Rx   d 8 00 00 00 00 00 00 00 00
   4.347000 1  18F15DF3x       Rx   d 8 00 00 00 00 00 00 00 00
   4.349000 1  18F15EF3x       Rx   d 8 00 00 00 00 00 00 00 00
   4.351000 1  CFF21CAx        Rx   d 8 2A 00 64 17 4A 46 00 24
   4.352000 1  18F100D0x       Rx   d 8 0C FF FF FF FF FF FF FF
   4.354000 1  CFF21CAx        Rx   d 8 2A 00 68 17 4A 46 00 24
   4.361000 1  CFF21CAx        Rx   d 8 2A 00 64 17 4A 46 00 24
   4.365000 1  18F100D0x       Rx   d 8 0C FF FF FF FF FF FF FF
   4.373000 1  CFF21CAx        Rx   d 8 2B 00 63 17 4A 46 00 24
   4.376000 1  18FF2112x       Rx   d 8 01 00 00 00 00 00 00 00
   4.385000 1  CFF21CAx        Rx   d 8 2B 00 63 17 4A 46 00 24
   4.389000 1  18F100D0x       Rx   d 8 0C FF FF FF FF FF FF FF
   4.397000 1  CFF21CAx        Rx   d 8 2D 00 61 17 4A 46 00 24
   4.409000 1  CFF21CAx        Rx   d 8 2D 00 5D 17 4A 46 00 24
   4.413000 1  18F100D0x       Rx   d 8 0C FF FF FF FF FF FF FF
   4.421000 1  CFF21CAx        Rx   d 8 2D 00 59 17 4A 46 00 24
   4.422000 1  18F100F3x       Rx   d 8 02 D2 7E 60 66 FA 14 00
   4.424000 1  18F102F3x       Rx   d 8 0E 1B 0E 17 04 02 00 04
   4.426000 1  18F106F3x       Rx   d 8 45 E0 FC FF FF FF FF FF
   4.428000 1  18F107F3x       Rx   d 8 38 A4 30 70 01 45 00 AD
   4.429000 1  18F108F3x       Rx   d 8 00 00 00 00 00 00 00 00
   4.431000 1  18F155F3x       Rx   d 8 3A 39 3A 39 39 3B 3A 00
   4.433000 1  18F156F3x       Rx   d 8 00 00 00 00 00 00 00 00
   4.435000 1  18F157F3x       Rx   d 8 00 00 00 00 00 00 00 00
   4.436000 1  18F158F3x       Rx   d 8 00 00 00 00 00 00 00 00
   4.438000 1  18F159F3x       Rx   d 8 00 00 00 00 00 00 00 00
   4.440000 1  18F15AF3x       Rx   d 8 00 00 00 00 00 00 00 00
   4.442000 1  CFF21CAx        Rx   d 8 2E 00 5B 17 4A 46 00 24
   4.443000 1  18F15BF3x       Rx   d 7 00 00 00 00 00 00 00
   4.445000 1  18F15CF3x       Rx   d 8 00 00 00 00 00 00 00 00
   4.447000 1  18F15DF3x       Rx   d 8 00 00 00 00 00 00 00 00
   4.449000 1  18F15EF3x       Rx   d 8 00 00 00 00 00 00 00 00
   4.450000 1  18F100D0x       Rx   d 8 0C FF FF FF FF FF FF FF
   4.452000 1  CFF21CAx        Rx   d 8 2E 00 5E 17 4A 46 00 24
   4.458000 1  CFF21CAx        Rx   d 8 2F 00 5B 17 4A 46 00 24
   4.466000 1  18F100D0x       Rx   d 8 0C FF FF FF FF FF FF FF
   4.470000 1  CFF21CAx        Rx   d 8 2F 00 60 17 4A 46 00 24
   4.473000 1  18FF2112x       Rx   d 8 01 00 00 00 00 00 00 00
   4.482000 1  CFF21CAx        Rx   d 8 2F 00 62 17 4A 46 00 24
   4.490000 1  18F100D0x       Rx   d 8 0C FF FF FF FF FF FF FF
   4.494000 1  CFF21CAx        Rx   d 8 30 00 65 17 4A 46 00 24
   4.506000 1  CFF21CAx        Rx   d 8 30 00 6B 17 4A 46 00 24
   4.514000 1  18F100D0x       Rx   d 8 0C FF FF FF FF FF FF FF
   4.518000 1  CFF21CAx        Rx   d 8 30 00 74 17 4A 46 00 24
   4.523000 1  18F100F3x       Rx   d 8 02 D2 7E A2 66 FA 14 00
   4.524000 1  18F102F3x       Rx   d 8 0E 1B 0E 17 04 02 00 04
   4.526000 1  18F106F3x       Rx   d 8 45 E0 FC FF FF FF FF FF
   4.528000 1  18F107F3x       Rx   d 8 38 A4 30 70 01 45 00 AD
   4.530000 1  18F108F3x       Rx   d 8 00 00 00 00 00 00 00 00
   4.532000 1  18F155F3x       Rx   d 8 3A 39 3A 39 39 3B 3A 00
   4.533000 1  18F156F3x       Rx   d 8 00 00 00 00 00 00 00 00
   4.535000 1  CFF21CAx        Rx   d 8 2F 00 7C 17 4A 46 00 24
   4.537000 1  18F157F3x       Rx   d 8 00 00 00 00 00 00 00 00
   4.539000 1  18F158F3x       Rx   d 8 00 00 00 00 00 00 00 00
   4.540000 1  18F159F3x       Rx   d 8 00 00 00 00 00 00 00 00
   4.542000 1  18F15AF3x       Rx   d 8 00 00 00 00 00 00 00 00
   4.544000 1  18F15BF3x       Rx   d 7 00 00 00 00 00 00 00
   4.546000 1  18F15CF3x       Rx   d 8 00 00 00 00 00 00 00 00
   4.547000 1  18F15DF3x       Rx   d 8 00 00 00 00 00 00 00 00
   4.549000 1  18F15EF3x       Rx   d 8 00 00 00 00 00 00 00 00
   4.551000 1  18F100D0x       Rx   d 8 0C FF FF FF FF FF FF FF
   4.553000 1  CFF21CAx        Rx   d 8 2F 00 7E 17 4A 46 00 24
   4.554000 1  CFF21CAx        Rx   d 8 2D 00 83 17 4A 46 00 24
   4.566000 1  CFF21CAx        Rx   d 8 2D 00 84 17 4A 46 00 24
   4.567000 1  18F100D0x       Rx   d 8 0C FF FF FF FF FF FF FF
   4.570000 1  18FF2112x       Rx   d 8 01 00 00 00 00 00 00 00
   4.578000 1  CFF21CAx        Rx   d 8 2D 00 87 17 4A 46 00 24
   4.590000 1  CFF21CAx        Rx   d 8 2B 00 88 17 4A 46 00 24
   4.591000 1  18F100D0x       Rx   d 8 0C FF FF FF FF FF FF FF
   4.603000 1  CFF21CAx        Rx   d 8 2B 00 87 17 4A 46 00 24
   4.614000 1  18F104F3x       Rx   d 8 3B 39 06 02 02 FF FF FF
   4.615000 1  CFF21CAx        Rx   d 8 2A 00 86 17 4A 46 00 24
   4.617000 1  18F100D0x       Rx   d 8 0C FF FF FF FF FF FF FF
   4.619000 1  18F113F3x       Rx   d 8 0E 18 0E 17 0E 1A 0E 1B
   4.621000 1  18F114F3x       Rx   d 8 0E 1A 0E 1A 0E 1A 0E 1A
   4.622000 1  18F115F3x       Rx   d 8 0E 1B 0E 1A 0E 18 0E 17
   4.624000 1  18F116F3x       Rx   d 8 0E 1A 0E 18 0E 19 0E 1B
   4.626000 1  18F117F3x       Rx   d 8 0E 1A 0E 1A 0E 1B 0E 1A
   4.628000 1  18F118F3x       Rx   d 8 00 00 00 00 00 00 00 00
   4.629000 1  18F119F3x       Rx   d 8 00 00 00 00 00 00 00 00
   4.631000 1  18F11AF3x       Rx   d 8 00 00 00 00 00 00 00 00
   4.633000 1  18F100F3x       Rx   d 8 02 D2 7E A2 66 FA 14 00
   4.635000 1  18F102F3x       Rx   d 8 0E 1B 0E 17 04 02 00 04
   4.636000 1  18F106F3x       Rx   d 8 45 E0 FC FF FF FF FF FF
   4.638000 1  CFF21CAx        Rx   d 8 2A 00 83 17 4A 46 00 24
   4.640000 1  18F107F3x       Rx   d 8 38 A4 30 70 01 45 00 AD
   4.642000 1  18F108F3x       Rx   d 8 00 00 00 00 00 00 00 00
   4.644000 1  18F11BF3x       Rx   d 8 00 00 00 00 00 00 00 00
   4.645000 1  18F11CF3x       Rx   d 8 00 00 00 00 00 00 00 00
   4.647000 1  18F11DF3x       Rx   d 8 00 00 00 00 00 00 00 00
   4.649000 1  18F11EF3x       Rx   d 8 00 00 00 00 00 00 00 00
   4.651000 1  18F11FF3x       Rx   d 8 00 00 00 00 00 00 00 00
   4.653000 1  18F120F3x       Rx   d 8 00 00 00 00 00 00 00 00
   4.654000 1  18F121F3x       Rx   d 8 00 00 00 00 00 00 00 00
   4.656000 1  18F122F3x       Rx   d 8 00 00 00 00 00 00 00 00
   4.658000 1  18F123F3x       Rx   d 8 00 00 00 00 00 00 00 00
   4.659000 1  CFF21CAx        Rx   d 8 2A 00 7E 17 4A 46 00 24
   4.661000 1  18F124F3x       Rx   d 8 00 00 00 00 00 00 00 00
   4.663000 1  18F125F3x       Rx   d 8 00 00 00 00 00 00 00 00
   4.665000 1  18F126F3x       Rx   d 8 00 00 00 00 00 00 00 00
   4.666000 1  18F127F3x       Rx   d 8 00 00 00 00 00 00 00 00
   4.668000 1  18F128F3x       Rx   d 8 00 00 00 00 00 00 00 00
   4.670000 1  18F100D0x       Rx   d 8 0C FF FF FF FF FF FF FF
   4.672000 1  18F129F3x       Rx   d 8 00 00 00 00 00 00 00 00
   4.673000 1  18F12AF3x       Rx   d 8 00 00 00 00 00 00 00 00
   4.675000 1  18F12BF3x       Rx   d 8 00 00 00 00 00 00 00 00
   4.677000 1  18F12CF3x       Rx   d 8 00 00 00 00 00 00 00 00
   4.679000 1  18F12DF3x       Rx   d 8 00 00 00 00 00 00 00 00
   4.680000 1  18F12EF3x       Rx   d 8 00 00 00 00 00 00 00 00
   4.682000 1  18F12FF3x       Rx   d 8 00 00 00 00 00 00 00 00
   4.684000 1  18F130F3x       Rx   d 8 00 00 00 00 00 00 00 00
   4.686000 1  CFF21CAx        Rx   d 8 28 00 79 17 4A 46 00 24
   4.687000 1  18F131F3x       Rx   d 8 00 00 00 00 00 00 00 00
   4.689000 1  18F132F3x       Rx   d 8 00 00 00 00 00 00 00 00
   4.691000 1  18F133F3x       Rx   d 8 00 00 00 00 00 00 00 00
   4.693000 1  18F134F3x       Rx   d 8 00 00 00 00 00 00 00 00
   4.694000 1  18F135F3x       Rx   d 8 00 00 00 00 00 00 00 00
   4.696000 1  18F136F3x       Rx   d 8 00 00 00 00 00 00 00 00
   4.698000 1  18F137F3x       Rx   d 8 00 00 00 00 00 00 00 00
   4.700000 1  18F138F3x       Rx   d 8 00 00 00 00 00 00 00 00
   4.701000 1  18F139F3x       Rx   d 8 00 00 00 00 00 00 00 00
   4.703000 1  18F13AF3x       Rx   d 8 00 00 00 00 00 00 00 00
   4.704000 1  18F13BF3x       Rx   d 8 00 00 00 00 00 00 00 00
   4.706000 1  18F13CF3x       Rx   d 8 00 00 00 00 00 00 00 00
   4.707000 1  18F155F3x       Rx   d 8 3A 39 3A 39 39 3B 3A 00
   4.710000 1  CFF21CAx        Rx   d 8 28 00 72 17 4A 46 00 24
   4.711000 1  18F156F3x       Rx   d 8 00 00 00 00 00 00 00 00
   4.713000 1  18F157F3x       Rx   d 8 00 00 00 00 00 00 00 00
   4.715000 1  18F158F3x       Rx   d 8 00 00 00 00 00 00 00 00
   4.717000 1  18F159F3x       Rx   d 8 00 00 00 00 00 00 00 00
   4.718000 1  18F100D0x       Rx   d 8 0C FF FF FF FF FF FF FF
   4.720000 1  18F15AF3x       Rx   d 8 00 00 00 00 00 00 00 00
   4.722000 1  18FF2112x       Rx   d 8 01 00 00 00 00 00 00 00
   4.723000 1  18F15BF3x       Rx   d 7 00 00 00 00 00 00 00
   4.725000 1  18F15CF3x       Rx   d 8 00 00 00 00 00 00 00 00
   4.727000 1  18F15DF3x       Rx   d 8 00 00 00 00 00 00 00 00
   4.729000 1  18F15EF3x       Rx   d 8 00 00 00 00 00 00 00 00
   4.730000 1  CFF21CAx        Rx   d 8 28 00 6E 17 4A 46 00 24
   4.732000 1  CFF21CAx        Rx   d 8 28 00 63 17 4A 46 00 24
   4.734000 1  18F100D0x       Rx   d 8 0C FF FF FF FF FF FF FF
   4.736000 1  CFF21CAx        Rx   d 8 28 00 5C 17 4A 46 00 24
   4.737000 1  CFF21CAx        Rx   d 8 28 00 5C 17 4A 46 00 24
   4.739000 1  18F100D0x       Rx   d 8 0C FF FF FF FF FF FF FF
   4.740000 1  18F100F3x       Rx   d 8 02 D2 7E A2 66 FA 14 00
   4.742000 1  CFF21CAx        Rx   d 8 2A 00 52 17 4A 46 00 24
   4.744000 1  18F102F3x       Rx   d 8 0E 1B 0E 17 04 02 00 04
   4.746000 1  18F106F3x       Rx   d 8 45 E0 FC FF FF FF FF FF
   4.747000 1  18F107F3x       Rx   d 8 38 A4 30 70 01 45 00 AD
   4.749000 1  18F108F3x       Rx   d 8 00 00 00 00 00 00 00 00
   4.751000 1  18F155F3x       Rx   d 8 3A 39 3A 39 39 3B 3A 00
   4.752000 1  18F156F3x       Rx   d 8 00 00 00 00 00 00 00 00
   4.754000 1  18F157F3x       Rx   d 8 00 00 00 00 00 00 00 00
   4.756000 1  18F158F3x       Rx   d 8 00 00 00 00 00 00 00 00
