date Mon May 25 15:05:10.800 2026
base hex  timestamps absolute
internal events logged
Begin Triggerblock Wed Dec 31 16:02:33.770 1969
 0.000000 Start of measurement
 0.000000 2  CFF21CAx        Rx   d 8 1F 00 46 16 3C 39 00 14
 0.008500 2  18F100D0x       Rx   d 8 0C FF FF FF FF FF FF FF
 0.012100 2  CFF21CAx        Rx   d 8 1F 00 44 16 3C 39 00 14
 0.024500 2  CFF21CAx        Rx   d 8 1F 00 45 16 3C 39 00 14
 0.032100 2  18F100D0x       Rx   d 8 0C FF FF FF FF FF FF FF
 0.033700 2  18FF2112x       Rx   d 8 01 00 00 00 00 00 00 00
 0.036200 2  CFF21CAx        Rx   d 8 1F 00 45 16 3C 39 00 14
 0.048200 2  CFF21CAx        Rx   d 8 1F 00 45 16 3C 39 00 14
 0.055000 2  18F100F3x       Rx   d 8 02 FF 7E 15 B1 FA 14 00
 0.055800 2  18F102F3x       Rx   d 8 0E FF 0E F8 10 0C 00 07
 0.056700 2  18F100D0x       Rx   d 8 0C FF FF FF FF FF FF FF
 0.057600 2  18F106F3x       Rx   d 8 45 E0 FC FF FF FF FF FF
 0.058900 2  18F107F3x       Rx   d 8 38 A4 30 70 01 59 00 B8
 0.060600 2  CFF21CAx        Rx   d 8 20 00 45 16 3C 39 00 14
 0.061200 2  18F108F3x       Rx   d 8 00 00 00 00 00 00 00 00
 0.062000 2  18F155F3x       Rx   d 8 37 37 37 37 37 37 37 00
 0.062900 2  18F156F3x       Rx   d 8 00 00 00 00 00 00 00 00
 0.063800 2  18F157F3x       Rx   d 8 00 00 00 00 00 00 00 00
 0.064800 2  18F158F3x       Rx   d 8 00 00 00 00 00 00 00 00
 0.065700 2  18F159F3x       Rx   d 8 00 00 00 00 00 00 00 00
 0.066900 2  18F15AF3x       Rx   d 8 00 00 00 00 00 00 00 00
 0.067800 2  18F15BF3x       Rx   d 7 00 00 00 00 00 00 00 00
 0.068700 2  18F15CF3x       Rx   d 8 00 00 00 00 00 00 00 00
 0.069500 2  18F15DF3x       Rx   d 8 00 00 00 00 00 00 00 00
 0.070300 2  18F15EF3x       Rx   d 8 00 00 00 00 00 00 00 00
 0.072700 2  CFF21CAx        Rx   d 8 20 00 46 16 3C 39 00 14
 0.080200 2  18F100D0x       Rx   d 8 0C FF FF FF FF FF FF FF
 0.084200 2  CFF21CAx        Rx   d 8 1F 00 45 16 3C 39 00 14
 0.096300 2  CFF21CAx        Rx   d 8 1F 00 46 16 3C 39 00 14
 0.104300 2  18F100D0x       Rx   d 8 0C FF FF FF FF FF FF FF
 0.108400 2  CFF21CAx        Rx   d 8 1F 00 45 16 3C 39 00 14
 0.120300 2  CFF21CAx        Rx   d 8 1F 00 45 16 3C 39 00 14
 0.128400 2  18F100D0x       Rx   d 8 0C FF FF FF FF FF FF FF
 0.130900 2  18FF2112x       Rx   d 8 01 00 00 00 00 00 00 00
 0.131400 2  18F104F3x       Rx   d 8 37 37 01 01 00 FF FF FF
 0.132300 2  18F113F3x       Rx   d 8 0E FA 0E FA 0E FA 0E FA
 0.132900 2  CFF21CAx        Rx   d 8 1F 00 44 16 3C 39 00 14
 0.133400 2  18F114F3x       Rx   d 8 0E FA 0E F9 0E FC 0E FB
 0.134400 2  18F115F3x       Rx   d 8 0E FA 0E FA 0E FA 0E F8
 0.135200 2  18F116F3x       Rx   d 8 0E FD 0E FB 0E FD 0E FF
 0.136100 2  18F117F3x       Rx   d 8 0E FA 0E FB 0E FF 0E FD
 0.137100 2  18F118F3x       Rx   d 8 00 00 00 00 00 00 00 00
 0.138000 2  18F119F3x       Rx   d 8 00 00 00 00 00 00 00 00
 0.138900 2  18F11AF3x       Rx   d 8 00 00 00 00 00 00 00 00
 0.139800 2  18F11BF3x       Rx   d 8 00 00 00 00 00 00 00 00
 0.140800 2  18F11CF3x       Rx   d 8 00 00 00 00 00 00 00 00
 0.141800 2  18F11DF3x       Rx   d 8 00 00 00 00 00 00 00 00
 0.142800 2  18F11EF3x       Rx   d 8 00 00 00 00 00 00 00 00
 0.143700 2  18F11FF3x       Rx   d 8 00 00 00 00 00 00 00 00
 0.144400 2  CFF21CAx        Rx   d 8 1F 00 46 16 3C 39 00 14
 0.145000 2  18F120F3x       Rx   d 8 00 00 00 00 00 00 00 00
 0.145900 2  18F121F3x       Rx   d 8 00 00 00 00 00 00 00 00
 0.147000 2  18F122F3x       Rx   d 8 00 00 00 00 00 00 00 00
 0.147900 2  18F123F3x       Rx   d 8 00 00 00 00 00 00 00 00
 0.148800 2  18F124F3x       Rx   d 8 00 00 00 00 00 00 00 00
 0.149700 2  18F125F3x       Rx   d 8 00 00 00 00 00 00 00 00
 0.150700 2  18F126F3x       Rx   d 8 00 00 00 00 00 00 00 00
 0.151600 2  18F127F3x       Rx   d 8 00 00 00 00 00 00 00 00
 0.152500 2  18F100D0x       Rx   d 8 0C FF FF FF FF FF FF FF
 0.153000 2  18F128F3x       Rx   d 8 00 00 00 00 00 00 00 00
 0.153900 2  18F129F3x       Rx   d 8 00 00 00 00 00 00 00 00
 0.155000 2  18F100F3x       Rx   d 8 02 FF 7E 15 B1 FA 14 00
 0.155500 2  18F102F3x       Rx   d 8 0E FF 0E F8 10 0C 00 07
 0.156900 2  CFF21CAx        Rx   d 8 1F 00 46 16 3C 39 00 14
 0.157500 2  18F106F3x       Rx   d 8 45 E0 FC FF FF FF FF FF
 0.158800 2  18F107F3x       Rx   d 8 38 A4 30 70 01 59 00 B8
 0.160700 2  18F108F3x       Rx   d 8 00 00 00 00 00 00 00 00
 0.161700 2  18F12AF3x       Rx   d 8 00 00 00 00 00 00 00 00
 0.162600 2  18F12BF3x       Rx   d 8 00 00 00 00 00 00 00 00
 0.163600 2  18F12CF3x       Rx   d 8 00 00 00 00 00 00 00 00
 0.164500 2  18F12DF3x       Rx   d 8 00 00 00 00 00 00 00 00
 0.165400 2  18F12EF3x       Rx   d 8 00 00 00 00 00 00 00 00
 0.166600 2  18F12FF3x       Rx   d 8 00 00 00 00 00 00 00 00
 0.167600 2  18F130F3x       Rx   d 8 00 00 00 00 00 00 00 00
 0.168500 2  CFF21CAx        Rx   d 8 1F 00 45 16 3C 39 00 14
 0.169100 2  18F131F3x       Rx   d 8 00 00 00 00 00 00 00 00
 0.169900 2  18F132F3x       Rx   d 8 00 00 00 00 00 00 00 00
 0.170800 2  18F133F3x       Rx   d 8 00 00 00 00 00 00 00 00
 0.171700 2  18F134F3x       Rx   d 8 00 00 00 00 00 00 00 00
 0.172600 2  18F135F3x       Rx   d 8 00 00 00 00 00 00 00 00
 0.173600 2  18F136F3x       Rx   d 8 00 00 00 00 00 00 00 00
 0.174500 2  18F137F3x       Rx   d 8 00 00 00 00 00 00 00 00
 0.175400 2  18F138F3x       Rx   d 8 00 00 00 00 00 00 00 00
 0.176200 2  18F139F3x       Rx   d 8 00 00 00 00 00 00 00 00
 0.177100 2  18F13AF3x       Rx   d 8 00 00 00 00 00 00 00 00
 0.178000 2  18F13BF3x       Rx   d 8 00 00 00 00 00 00 00 00
 0.178800 2  18F13CF3x       Rx   d 8 00 00 00 00 00 00 00 00
 0.179700 2  18F155F3x       Rx   d 8 37 37 37 37 37 37 37 00
 0.180600 2  CFF21CAx        Rx   d 8 1F 00 46 16 3C 39 00 14
 0.181100 2  18F100D0x       Rx   d 8 0C FF FF FF FF FF FF FF
 0.181700 2  18F156F3x       Rx   d 8 00 00 00 00 00 00 00 00
 0.182600 2  18F157F3x       Rx   d 8 00 00 00 00 00 00 00 00
 0.183600 2  18F158F3x       Rx   d 8 00 00 00 00 00 00 00 00
 0.184500 2  18F159F3x       Rx   d 8 00 00 00 00 00 00 00 00
 0.185400 2  18F15AF3x       Rx   d 8 00 00 00 00 00 00 00 00
 0.186200 2  18F15BF3x       Rx   d 7 00 00 00 00 00 00 00 00
 0.187000 2  18F15CF3x       Rx   d 8 00 00 00 00 00 00 00 00
 0.187900 2  18F15DF3x       Rx   d 8 00 00 00 00 00 00 00 00
 0.188700 2  18F15EF3x       Rx   d 8 00 00 00 00 00 00 00 00
 0.192600 2  CFF21CAx        Rx   d 8 1F 00 45 16 3C 39 00 14
 0.204600 2  CFF21CAx        Rx   d 8 1F 00 46 16 3C 39 00 14
 0.205200 2  18F100D0x       Rx   d 8 0C FF FF FF FF FF FF FF
 0.216600 2  CFF21CAx        Rx   d 8 1F 00 44 16 3C 39 00 14
 0.228000 2  18FF2112x       Rx   d 8 01 00 00 00 00 00 00 00
 0.228700 2  CFF21CAx        Rx   d 8 1F 00 45 16 3C 39 00 14
 0.229300 2  18F100D0x       Rx   d 8 0C FF FF FF FF FF FF FF
 0.240700 2  CFF21CAx        Rx   d 8 1F 00 45 16 3C 39 00 14
 0.252800 2  CFF21CAx        Rx   d 8 1F 00 45 16 3C 39 00 14
 0.253300 2  18F100D0x       Rx   d 8 0C FF FF FF FF FF FF FF
 0.254700 2  18F100F3x       Rx   d 8 02 FF 7E 15 B1 FA 14 00
 0.255600 2  18F102F3x       Rx   d 8 0E FF 0E F8 10 0C 00 07
 0.257200 2  18F106F3x       Rx   d 8 45 E0 FC FF FF FF FF FF
 0.258500 2  18F107F3x       Rx   d 8 38 A4 30 70 01 59 00 B8
 0.260200 2  18F108F3x       Rx   d 8 00 00 00 00 00 00 00 00
 0.261100 2  18F155F3x       Rx   d 8 37 37 37 37 37 37 37 00
 0.262000 2  18F156F3x       Rx   d 8 00 00 00 00 00 00 00 00
 0.262900 2  18F157F3x       Rx   d 8 00 00 00 00 00 00 00 00
 0.263800 2  18F158F3x       Rx   d 8 00 00 00 00 00 00 00 00
 0.264700 2  18F159F3x       Rx   d 8 00 00 00 00 00 00 00 00
 0.265200 2  CFF21CAx        Rx   d 8 1F 00 41 16 3C 39 00 14
 0.265800 2  18F15AF3x       Rx   d 8 00 00 00 00 00 00 00 00
 0.266800 2  18F15BF3x       Rx   d 7 00 00 00 00 00 00 00 00
 0.267600 2  18F15CF3x       Rx   d 8 00 00 00 00 00 00 00 00
 0.268500 2  18F15DF3x       Rx   d 8 00 00 00 00 00 00 00 00
 0.269400 2  18F15EF3x       Rx   d 8 00 00 00 00 00 00 00 00
 0.277200 2  CFF21CAx        Rx   d 8 20 00 47 16 3C 39 00 14
 0.277800 2  18F100D0x       Rx   d 8 0C FF FF FF FF FF FF FF
 0.289200 2  CFF21CAx        Rx   d 8 20 00 45 16 3C 39 00 14
 0.301200 2  CFF21CAx        Rx   d 8 20 00 46 16 3C 39 00 14
 0.301800 2  18F100D0x       Rx   d 8 0C FF FF FF FF FF FF FF
 0.312900 2  CFF21CAx        Rx   d 8 1F 00 45 16 3C 39 00 14
 0.325200 2  18FF2112x       Rx   d 8 01 00 00 00 00 00 00 00
 0.325700 2  CFF21CAx        Rx   d 8 1F 00 47 16 3C 39 00 14
 0.326300 2  18F100D0x       Rx   d 8 0C FF FF FF FF FF FF FF
 0.337000 2  CFF21CAx        Rx   d 8 1F 00 45 16 3C 39 00 14
 0.349400 2  CFF21CAx        Rx   d 8 1F 00 46 16 3C 39 00 14
 0.350000 2  18F100D0x       Rx   d 8 0C FF FF FF FF FF FF FF
 0.354600 2  18F100F3x       Rx   d 8 02 FF 7E 13 B1 FA 14 00
 0.355500 2  18F102F3x       Rx   d 8 0E FF 0E F8 10 0C 00 07
 0.357000 2  18F106F3x       Rx   d 8 45 E0 FC FF FF FF FF FF
 0.358300 2  18F107F3x       Rx   d 8 38 A4 30 70 01 59 00 B8
 0.360100 2  18F108F3x       Rx   d 8 00 00 00 00 00 00 00 00
 0.361000 2  18F155F3x       Rx   d 8 37 37 37 37 37 37 37 00
 0.361500 2  CFF21CAx        Rx   d 8 1F 00 45 16 3C 39 00 14
 0.362100 2  18F156F3x       Rx   d 8 00 00 00 00 00 00 00 00
 0.363000 2  18F157F3x       Rx   d 8 00 00 00 00 00 00 00 00
 0.363900 2  18F158F3x       Rx   d 8 00 00 00 00 00 00 00 00
 0.364700 2  18F159F3x       Rx   d 8 00 00 00 00 00 00 00 00
 0.365600 2  18F15AF3x       Rx   d 8 00 00 00 00 00 00 00 00
 0.366600 2  18F15BF3x       Rx   d 7 00 00 00 00 00 00 00 00
 0.367500 2  18F15CF3x       Rx   d 8 00 00 00 00 00 00 00 00
 0.368400 2  18F15DF3x       Rx   d 8 00 00 00 00 00 00 00 00
 0.369300 2  18F15EF3x       Rx   d 8 00 00 00 00 00 00 00 00
 0.373500 2  CFF21CAx        Rx   d 8 1E 00 47 16 3C 39 00 14
 0.377100 2  18F100D0x       Rx   d 8 0C FF FF FF FF FF FF FF
 0.385500 2  CFF21CAx        Rx   d 8 1E 00 45 16 3C 39 00 14
 0.397500 2  CFF21CAx        Rx   d 8 1D 00 46 16 3C 39 00 14
 0.401200 2  18F100D0x       Rx   d 8 0C FF FF FF FF FF FF FF
 0.409200 2  CFF21CAx        Rx   d 8 1D 00 45 16 3C 39 00 14
 0.421600 2  CFF21CAx        Rx   d 8 1D 00 46 16 3C 39 00 14
 0.422300 2  18FF2112x       Rx   d 8 01 00 00 00 00 00 00 00
 0.425200 2  18F100D0x       Rx   d 8 0C FF FF FF FF FF FF FF
 0.433200 2  CFF21CAx        Rx   d 8 1D 00 43 16 3C 39 00 14
 0.445900 2  CFF21CAx        Rx   d 8 1D 00 46 16 3C 39 00 14
 0.449300 2  18F100D0x       Rx   d 8 0C FF FF FF FF FF FF FF
 0.454500 2  18F100F3x       Rx   d 8 02 FF 7E 13 B1 FA 14 00
 0.455400 2  18F102F3x       Rx   d 8 0E FF 0E F8 10 0C 00 07
 0.456900 2  18F106F3x       Rx   d 8 45 E0 FC FF FF FF FF FF
 0.457700 2  CFF21CAx        Rx   d 8 1D 00 44 16 3C 39 00 14
 0.458300 2  18F107F3x       Rx   d 8 38 A4 30 70 01 59 00 B8
 0.460000 2  18F108F3x       Rx   d 8 00 00 00 00 00 00 00 00
 0.460900 2  18F155F3x       Rx   d 8 37 37 37 37 37 37 37 00
 0.461800 2  18F156F3x       Rx   d 8 00 00 00 00 00 00 00 00
 0.462700 2  18F157F3x       Rx   d 8 00 00 00 00 00 00 00 00
 0.463500 2  18F158F3x       Rx   d 8 00 00 00 00 00 00 00 00
 0.464400 2  18F159F3x       Rx   d 8 00 00 00 00 00 00 00 00
 0.465300 2  18F15AF3x       Rx   d 8 00 00 00 00 00 00 00 00
 0.466500 2  18F15BF3x       Rx   d 7 00 00 00 00 00 00 00 00
 0.467300 2  18F15CF3x       Rx   d 8 00 00 00 00 00 00 00 00
 0.468200 2  18F15DF3x       Rx   d 8 00 00 00 00 00 00 00 00
 0.469100 2  18F15EF3x       Rx   d 8 00 00 00 00 00 00 00 00
 0.469800 2  CFF21CAx        Rx   d 8 1D 00 44 16 3C 39 00 14
 0.473400 2  18F100D0x       Rx   d 8 0C FF FF FF FF FF FF FF
 0.481400 2  CFF21CAx        Rx   d 8 1D 00 44 16 3C 39 00 14
 0.493800 2  CFF21CAx        Rx   d 8 1D 00 44 16 3C 39 00 14
 0.497400 2  18F100D0x       Rx   d 8 0C FF FF FF FF FF FF FF
 0.505400 2  CFF21CAx        Rx   d 8 1C 00 44 16 3C 39 00 14
 0.517900 2  CFF21CAx        Rx   d 8 1C 00 44 16 3C 39 00 14
 0.519500 2  18FF2112x       Rx   d 8 01 00 00 00 00 00 00 00
 0.521500 2  18F100D0x       Rx   d 8 0C FF FF FF FF FF FF FF
 0.529500 2  CFF21CAx        Rx   d 8 1C 00 45 16 3C 39 00 14
 0.542000 2  CFF21CAx        Rx   d 8 1C 00 44 16 3C 39 00 14
 0.545600 2  18F100D0x       Rx   d 8 0C FF FF FF FF FF FF FF
 0.553600 2  CFF21CAx        Rx   d 8 1C 00 44 16 3C 39 00 14
 0.554400 2  18F100F3x       Rx   d 8 02 FF 7E 10 B1 FA 14 00
 0.555300 2  18F102F3x       Rx   d 8 0E FF 0E F8 10 0C 00 07
 0.556800 2  18F106F3x       Rx   d 8 45 E0 FC FF FF FF FF FF
 0.558100 2  18F107F3x       Rx   d 8 38 A4 30 70 01 59 00 B8
 0.559900 2  18F108F3x       Rx   d 8 00 00 00 00 00 00 00 00
 0.560700 2  18F155F3x       Rx   d 8 37 37 37 37 37 37 37 00
 0.561600 2  18F156F3x       Rx   d 8 00 00 00 00 00 00 00 00
 0.562500 2  18F157F3x       Rx   d 8 00 00 00 00 00 00 00 00
 0.563400 2  18F158F3x       Rx   d 8 00 00 00 00 00 00 00 00
 0.564300 2  18F159F3x       Rx   d 8 00 00 00 00 00 00 00 00
 0.565200 2  18F15AF3x       Rx   d 8 00 00 00 00 00 00 00 00
 0.566100 2  CFF21CAx        Rx   d 8 1C 00 43 16 3C 39 00 14
 0.566600 2  18F15BF3x       Rx   d 7 00 00 00 00 00 00 00 00
 0.567500 2  18F15CF3x       Rx   d 8 00 00 00 00 00 00 00 00
 0.568300 2  18F15DF3x       Rx   d 8 00 00 00 00 00 00 00 00
 0.569200 2  18F15EF3x       Rx   d 8 00 00 00 00 00 00 00 00
 0.574200 2  18F100D0x       Rx   d 8 0C FF FF FF FF FF FF FF
 0.577700 2  CFF21CAx        Rx   d 8 1C 00 44 16 3C 39 00 14
 0.590100 2  CFF21CAx        Rx   d 8 1C 00 43 16 3C 39 00 14
 0.598200 2  18F100D0x       Rx   d 8 0C FF FF FF FF FF FF FF
 0.601700 2  CFF21CAx        Rx   d 8 1C 00 43 16 3C 39 00 14
 0.614200 2  CFF21CAx        Rx   d 8 1C 00 42 16 3C 39 00 14
 0.616600 2  18FF2112x       Rx   d 8 01 00 00 00 00 00 00 00
 0.622200 2  18F100D0x       Rx   d 8 0C FF FF FF FF FF FF FF
 0.625800 2  CFF21CAx        Rx   d 8 1C 00 42 16 3C 39 00 14
 0.638400 2  CFF21CAx        Rx   d 8 1D 00 41 16 3C 39 00 14
 0.646300 2  18F100D0x       Rx   d 8 0C FF FF FF FF FF FF FF
 0.649800 2  CFF21CAx        Rx   d 8 1D 00 41 16 3C 39 00 14
 0.654200 2  18F100F3x       Rx   d 8 02 FF 7E 10 B1 FA 14 00
 0.655100 2  18F102F3x       Rx   d 8 0E FF 0E F8 10 0C 00 07
 0.656700 2  18F106F3x       Rx   d 8 45 E0 FC FF FF FF FF FF
 0.658000 2  18F107F3x       Rx   d 8 38 A4 30 70 01 59 00 B8
 0.659800 2  18F108F3x       Rx   d 8 00 00 00 00 00 00 00 00
 0.660600 2  18F155F3x       Rx   d 8 37 37 37 37 37 37 37 00
 0.661500 2  18F156F3x       Rx   d 8 00 00 00 00 00 00 00 00
 0.662400 2  18F157F3x       Rx   d 8 00 00 00 00 00 00 00 00
 0.662900 2  CFF21CAx        Rx   d 8 1D 00 42 16 3C 39 00 14
 0.663500 2  18F158F3x       Rx   d 8 00 00 00 00 00 00 00 00
 0.664400 2  18F159F3x       Rx   d 8 00 00 00 00 00 00 00 00
 0.665300 2  18F15AF3x       Rx   d 8 00 00 00 00 00 00 00 00
 0.666300 2  18F15BF3x       Rx   d 7 00 00 00 00 00 00 00 00
 0.667100 2  18F15CF3x       Rx   d 8 00 00 00 00 00 00 00 00
 0.668000 2  18F15DF3x       Rx   d 8 00 00 00 00 00 00 00 00
 0.668900 2  18F15EF3x       Rx   d 8 00 00 00 00 00 00 00 00
 0.670400 2  18F100D0x       Rx   d 8 0C FF FF FF FF FF FF FF
 0.674300 2  CFF21CAx        Rx   d 8 1D 00 42 16 3C 39 00 14
 0.674900 2  18FECACAx       Rx   d 8 00 00 00 00 00 00 FF FF
 0.686400 2  CFF21CAx        Rx   d 8 1D 00 42 16 3C 39 00 14
 0.698000 2  CFF21CAx        Rx   d 8 1E 00 41 16 3C 39 00 14
 0.698600 2  18F100D0x       Rx   d 8 0C FF FF FF FF FF FF FF
 0.710500 2  CFF21CAx        Rx   d 8 1E 00 42 16 3C 39 00 14
 0.713800 2  18FF2112x       Rx   d 8 01 00 00 00 00 00 00 00
 0.722100 2  CFF21CAx        Rx   d 8 1F 00 41 16 3C 39 00 14
 0.722600 2  18F100D0x       Rx   d 8 0C FF FF FF FF FF FF FF
 0.734500 2  CFF21CAx        Rx   d 8 1F 00 42 16 3C 39 00 14
 0.746100 2  CFF21CAx        Rx   d 8 1F 00 42 16 3C 39 00 14
 0.746700 2  18F100D0x       Rx   d 8 0C FF FF FF FF FF FF FF
 0.754100 2  18F100F3x       Rx   d 8 02 FF 7E 10 B1 FA 14 00
 0.755000 2  18F102F3x       Rx   d 8 0E FE 0E F8 10 0C 00 06
 0.756600 2  18F106F3x       Rx   d 8 45 E0 FC FF FF FF FF FF
 0.757900 2  18F107F3x       Rx   d 8 38 A4 30 70 01 59 00 B8
 0.758700 2  CFF21CAx        Rx   d 8 1E 00 40 16 3C 39 00 14
 0.759600 2  18F108F3x       Rx   d 8 00 00 00 00 00 00 00 00
 0.760500 2  18F155F3x       Rx   d 8 37 37 37 37 37 37 37 00
 0.761400 2  18F156F3x       Rx   d 8 00 00 00 00 00 00 00 00
 0.762300 2  18F157F3x       Rx   d 8 00 00 00 00 00 00 00 00
 0.763200 2  18F158F3x       Rx   d 8 00 00 00 00 00 00 00 00
 0.764100 2  18F159F3x       Rx   d 8 00 00 00 00 00 00 00 00
 0.765000 2  18F15AF3x       Rx   d 8 00 00 00 00 00 00 00 00
 0.766100 2  18F15BF3x       Rx   d 7 00 00 00 00 00 00 00 00
 0.767000 2  18F15CF3x       Rx   d 8 00 00 00 00 00 00 00 00
 0.767900 2  18F15DF3x       Rx   d 8 00 00 00 00 00 00 00 00
 0.768800 2  18F15EF3x       Rx   d 8 00 00 00 00 00 00 00 00
 0.770600 2  CFF21CAx        Rx   d 8 1E 00 42 16 3C 39 00 14
 0.771100 2  18F100D0x       Rx   d 8 0C FF FF FF FF FF FF FF
 0.782700 2  CFF21CAx        Rx   d 8 1E 00 43 16 3C 39 00 14
 0.794200 2  CFF21CAx        Rx   d 8 1E 00 42 16 3C 39 00 14
 0.794800 2  18F100D0x       Rx   d 8 0C FF FF FF FF FF FF FF
 0.806800 2  CFF21CAx        Rx   d 8 1E 00 41 16 3C 39 00 14
 0.810900 2  18FF2112x       Rx   d 8 01 00 00 00 00 00 00 00
 0.818400 2  CFF21CAx        Rx   d 8 1E 00 43 16 3C 39 00 14
 0.818900 2  18F100D0x       Rx   d 8 0C FF FF FF FF FF FF FF
 0.831000 2  CFF21CAx        Rx   d 8 1E 00 41 16 3C 39 00 14
 0.842400 2  CFF21CAx        Rx   d 8 1E 00 43 16 3C 39 00 14
 0.843000 2  18F100D0x       Rx   d 8 0C FF FF FF FF FF FF FF
 0.854000 2  18F100F3x       Rx   d 8 02 FF 7E 10 B1 FA 14 00
 0.854900 2  CFF21CAx        Rx   d 8 1D 00 41 16 3C 39 00 14
 0.855400 2  18F102F3x       Rx   d 8 0E FE 0E F8 10 0C 00 06
 0.856700 2  18F106F3x       Rx   d 8 45 E0 FC FF FF FF FF FF
 0.858000 2  18F107F3x       Rx   d 8 38 A4 30 70 01 59 00 B8
 0.859800 2  18F108F3x       Rx   d 8 00 00 00 00 00 00 00 00
 0.860700 2  18F155F3x       Rx   d 8 37 37 37 37 37 37 37 00
 0.861600 2  18F156F3x       Rx   d 8 00 00 00 00 00 00 00 00
 0.862500 2  18F157F3x       Rx   d 8 00 00 00 00 00 00 00 00
 0.863400 2  18F158F3x       Rx   d 8 00 00 00 00 00 00 00 00
 0.864300 2  18F159F3x       Rx   d 8 00 00 00 00 00 00 00 00
 0.865100 2  18F15AF3x       Rx   d 8 00 00 00 00 00 00 00 00
 0.866100 2  18F15BF3x       Rx   d 7 00 00 00 00 00 00 00 00
 0.866600 2  CFF21CAx        Rx   d 8 1D 00 42 16 3C 39 00 14
 0.867200 2  18F100D0x       Rx   d 8 0C FF FF FF FF FF FF FF
 0.867800 2  18F15CF3x       Rx   d 8 00 00 00 00 00 00 00 00
 0.868700 2  18F15DF3x       Rx   d 8 00 00 00 00 00 00 00 00
 0.869500 2  18F15EF3x       Rx   d 8 00 00 00 00 00 00 00 00
 0.878900 2  CFF21CAx        Rx   d 8 1D 00 41 16 3C 39 00 14
 0.890500 2  CFF21CAx        Rx   d 8 1D 00 42 16 3C 39 00 14
 0.891100 2  18F100D0x       Rx   d 8 0C FF FF FF FF FF FF FF
 0.903000 2  CFF21CAx        Rx   d 8 1D 00 44 16 3C 39 00 14
 0.908100 2  18FF2112x       Rx   d 8 01 00 00 00 00 00 00 00
 0.914600 2  CFF21CAx        Rx   d 8 1E 00 42 16 3C 39 00 14
 0.919100 2  18F100D0x       Rx   d 8 0C FF FF FF FF FF FF FF
 0.927100 2  CFF21CAx        Rx   d 8 1E 00 44 16 3C 39 00 14
 0.938700 2  CFF21CAx        Rx   d 8 1E 00 42 16 3C 39 00 14
 0.939200 2  18F100D0x       Rx   d 8 0C FF FF FF FF FF FF FF
 0.951200 2  CFF21CAx        Rx   d 8 1D 00 44 16 3C 39 00 14
 0.953900 2  18F100F3x       Rx   d 8 02 FF 7E 10 B1 FA 14 00
 0.954800 2  18F102F3x       Rx   d 8 0E FE 0E F8 10 0C 00 06
 0.956300 2  18F106F3x       Rx   d 8 45 E0 FC FF FF FF FF FF
 0.957600 2  18F107F3x       Rx   d 8 38 A4 30 70 01 59 00 B8
 0.959400 2  18F108F3x       Rx   d 8 00 00 00 00 00 00 00 00
 0.960300 2  18F155F3x       Rx   d 8 37 37 37 37 37 37 37 00
 0.961100 2  18F156F3x       Rx   d 8 00 00 00 00 00 00 00 00
 0.962000 2  18F157F3x       Rx   d 8 00 00 00 00 00 00 00 00
 0.962800 2  CFF21CAx        Rx   d 8 1D 00 42 16 3C 39 00 14
 0.963300 2  18F158F3x       Rx   d 8 00 00 00 00 00 00 00 00
 0.964200 2  18F159F3x       Rx   d 8 00 00 00 00 00 00 00 00
 0.965100 2  18F15AF3x       Rx   d 8 00 00 00 00 00 00 00 00
 0.965900 2  18F15BF3x       Rx   d 7 00 00 00 00 00 00 00 00
 0.966800 2  18F15CF3x       Rx   d 8 00 00 00 00 00 00 00 00
 0.967400 2  18F100D0x       Rx   d 8 0C FF FF FF FF FF FF FF
 0.967900 2  18F15DF3x       Rx   d 8 00 00 00 00 00 00 00 00
 0.968800 2  18F15EF3x       Rx   d 8 00 00 00 00 00 00 00 00
 0.974800 2  CFF21CAx        Rx   d 8 1D 00 44 16 3C 39 00 14
 0.986800 2  CFF21CAx        Rx   d 8 1D 00 41 16 3C 39 00 14
 0.991300 2  18F100D0x       Rx   d 8 0C FF FF FF FF FF FF FF
 0.999300 2  CFF21CAx        Rx   d 8 1D 00 44 16 3C 39 00 14
 1.005300 2  18FF2112x       Rx   d 8 01 00 00 00 00 00 00 00
 1.010900 2  CFF21CAx        Rx   d 8 1D 00 42 16 3C 39 00 14
 1.015400 2  18F100D0x       Rx   d 8 0C FF FF FF FF FF FF FF
 1.022900 2  CFF21CAx        Rx   d 8 1D 00 43 16 3C 39 00 14
 1.034900 2  CFF21CAx        Rx   d 8 1D 00 42 16 3C 39 00 14
 1.039000 2  18F100D0x       Rx   d 8 0C FF FF FF FF FF FF FF
 1.047400 2  CFF21CAx        Rx   d 8 1E 00 43 16 3C 39 00 14
 1.053800 2  18F100F3x       Rx   d 8 02 FF 7E 0E B1 FA 14 00
 1.054700 2  18F102F3x       Rx   d 8 0E FE 0E F8 10 0C 00 06
 1.056200 2  18F106F3x       Rx   d 8 45 E0 FC FF FF FF FF FF
 1.057500 2  18F107F3x       Rx   d 8 38 A4 30 70 01 59 00 B8
 1.059300 2  18F108F3x       Rx   d 8 00 00 00 00 00 00 00 00
 1.059800 2  CFF21CAx        Rx   d 8 1E 00 42 16 3C 39 00 14
 1.060400 2  18F155F3x       Rx   d 8 37 37 37 37 37 37 37 00
 1.061300 2  18F156F3x       Rx   d 8 00 00 00 00 00 00 00 00
 1.062100 2  18F157F3x       Rx   d 8 00 00 00 00 00 00 00 00
 1.063000 2  18F158F3x       Rx   d 8 00 00 00 00 00 00 00 00
 1.063600 2  18F100D0x       Rx   d 8 0C FF FF FF FF FF FF FF
 1.064200 2  18F159F3x       Rx   d 8 00 00 00 00 00 00 00 00
 1.065100 2  18F15AF3x       Rx   d 8 00 00 00 00 00 00 00 00
 1.065900 2  18F15BF3x       Rx   d 7 00 00 00 00 00 00 00 00
 1.066700 2  18F15CF3x       Rx   d 8 00 00 00 00 00 00 00 00
 1.067600 2  18F15DF3x       Rx   d 8 00 00 00 00 00 00 00 00
 1.068500 2  18F15EF3x       Rx   d 8 00 00 00 00 00 00 00 00
 1.071000 2  CFF21CAx        Rx   d 8 1E 00 42 16 3C 39 00 14
 1.083100 2  CFF21CAx        Rx   d 8 1E 00 3F 16 3C 39 00 14
 1.087100 2  18F100D0x       Rx   d 8 0C FF FF FF FF FF FF FF
 1.095100 2  CFF21CAx        Rx   d 8 1E 00 3F 16 3C 39 00 14
 1.102400 2  18FF2112x       Rx   d 8 01 00 00 00 00 00 00 00
 1.107100 2  CFF21CAx        Rx   d 8 1E 00 3F 16 3C 39 00 14
 1.111200 2  18F100D0x       Rx   d 8 0C FF FF FF FF FF FF FF
 1.119200 2  CFF21CAx        Rx   d 8 1E 00 3F 16 3C 39 00 14
 1.130200 2  18F104F3x       Rx   d 8 37 37 01 01 00 FF FF FF
 1.131000 2  18F113F3x       Rx   d 8 0E FA 0E F9 0E FA 0E FA
 1.131600 2  CFF21CAx        Rx   d 8 1E 00 3F 16 3C 39 00 14
 1.132200 2  18F114F3x       Rx   d 8 0E FA 0E F9 0E FB 0E FB
 1.133100 2  18F115F3x       Rx   d 8 0E F9 0E F9 0E F9 0E F8
 1.133900 2  18F116F3x       Rx   d 8 0E FD 0E FA 0E FD 0E FE
 1.134900 2  18F117F3x       Rx   d 8 0E FA 0E FB 0E FE 0E FD
 1.135400 2  18F100D0x       Rx   d 8 0C FF FF FF FF FF FF FF
 1.136000 2  18F118F3x       Rx   d 8 00 00 00 00 00 00 00 00
 1.136900 2  18F119F3x       Rx   d 8 00 00 00 00 00 00 00 00
 1.137800 2  18F11AF3x       Rx   d 8 00 00 00 00 00 00 00 00
 1.138700 2  18F11BF3x       Rx   d 8 00 00 00 00 00 00 00 00
 1.139700 2  18F11CF3x       Rx   d 8 00 00 00 00 00 00 00 00
 1.140700 2  18F11DF3x       Rx   d 8 00 00 00 00 00 00 00 00
 1.141600 2  18F11EF3x       Rx   d 8 00 00 00 00 00 00 00 00
 1.142500 2  18F11FF3x       Rx   d 8 00 00 00 00 00 00 00 00
 1.143200 2  CFF21CAx        Rx   d 8 1E 00 3F 16 3C 39 00 14
 1.143800 2  18F120F3x       Rx   d 8 00 00 00 00 00 00 00 00
 1.144700 2  18F121F3x       Rx   d 8 00 00 00 00 00 00 00 00
 1.145800 2  18F122F3x       Rx   d 8 00 00 00 00 00 00 00 00
 1.146700 2  18F123F3x       Rx   d 8 00 00 00 00 00 00 00 00
 1.147600 2  18F124F3x       Rx   d 8 00 00 00 00 00 00 00 00
 1.148600 2  18F125F3x       Rx   d 8 00 00 00 00 00 00 00 00
 1.149500 2  18F126F3x       Rx   d 8 00 00 00 00 00 00 00 00
 1.150400 2  18F127F3x       Rx   d 8 00 00 00 00 00 00 00 00
 1.151300 2  18F128F3x       Rx   d 8 00 00 00 00 00 00 00 00
 1.152300 2  18F129F3x       Rx   d 8 00 00 00 00 00 00 00 00
 1.153200 2  18F12AF3x       Rx   d 8 00 00 00 00 00 00 00 00
 1.154000 2  18F100F3x       Rx   d 8 02 FF 7E 0E B1 FA 14 00
 1.154900 2  18F102F3x       Rx   d 8 0E FE 0E F8 10 0C 00 06
 1.155700 2  CFF21CAx        Rx   d 8 1D 00 3F 16 3C 39 00 14
 1.156300 2  18F106F3x       Rx   d 8 45 E0 FC FF FF FF FF FF
 1.157600 2  18F107F3x       Rx   d 8 38 A4 30 70 01 59 00 B8
 1.159500 2  18F108F3x       Rx   d 8 00 00 00 00 00 00 00 00
 1.160100 2  18F100D0x       Rx   d 8 0C FF FF FF FF FF FF FF
 1.160600 2  18F12BF3x       Rx   d 8 00 00 00 00 00 00 00 00
 1.161600 2  18F12CF3x       Rx   d 8 00 00 00 00 00 00 00 00
 1.162500 2  18F12DF3x       Rx   d 8 00 00 00 00 00 00 00 00
 1.163500 2  18F12EF3x       Rx   d 8 00 00 00 00 00 00 00 00
 1.164400 2  18F12FF3x       Rx   d 8 00 00 00 00 00 00 00 00
 1.165600 2  18F130F3x       Rx   d 8 00 00 00 00 00 00 00 00
 1.166500 2  18F131F3x       Rx   d 8 00 00 00 00 00 00 00 00
 1.167300 2  CFF21CAx        Rx   d 8 1D 00 3F 16 3C 39 00 14
 1.167900 2  18F132F3x       Rx   d 8 00 00 00 00 00 00 00 00
 1.168800 2  18F133F3x       Rx   d 8 00 00 00 00 00 00 00 00
 1.169700 2  18F134F3x       Rx   d 8 00 00 00 00 00 00 00 00
 1.170500 2  18F135F3x       Rx   d 8 00 00 00 00 00 00 00 00
 1.171500 2  18F136F3x       Rx   d 8 00 00 00 00 00 00 00 00
 1.172400 2  18F137F3x       Rx   d 8 00 00 00 00 00 00 00 00
 1.173300 2  18F138F3x       Rx   d 8 00 00 00 00 00 00 00 00
 1.174200 2  18F139F3x       Rx   d 8 00 00 00 00 00 00 00 00
 1.175100 2  18F13AF3x       Rx   d 8 00 00 00 00 00 00 00 00
 1.175900 2  18F13BF3x       Rx   d 8 00 00 00 00 00 00 00 00
 1.176800 2  18F13CF3x       Rx   d 8 00 00 00 00 00 00 00 00
 1.177600 2  18F155F3x       Rx   d 8 37 37 37 37 37 37 37 00
 1.178500 2  18F156F3x       Rx   d 8 00 00 00 00 00 00 00 00
 1.179300 2  CFF21CAx        Rx   d 8 1D 00 44 16 3C 39 00 14
 1.179900 2  18F157F3x       Rx   d 8 00 00 00 00 00 00 00 00
 1.180800 2  18F158F3x       Rx   d 8 00 00 00 00 00 00 00 00
 1.181700 2  18F159F3x       Rx   d 8 00 00 00 00 00 00 00 00
 1.182500 2  18F15AF3x       Rx   d 8 00 00 00 00 00 00 00 00
 1.183400 2  18F15BF3x       Rx   d 7 00 00 00 00 00 00 00 00
 1.184300 2  18F15CF3x       Rx   d 8 00 00 00 00 00 00 00 00
 1.185500 2  18F15DF3x       Rx   d 8 00 00 00 00 00 00 00 00
 1.186400 2  18F15EF3x       Rx   d 8 00 00 00 00 00 00 00 00
 1.187400 2  18F100D0x       Rx   d 8 0C FF FF FF FF FF FF FF
 1.191400 2  CFF21CAx        Rx   d 8 1D 00 43 16 3C 39 00 14
 1.199600 2  18FF2112x       Rx   d 8 01 00 00 00 00 00 00 00
 1.203400 2  CFF21CAx        Rx   d 8 1D 00 43 16 3C 39 00 14
 1.211400 2  18F100D0x       Rx   d 8 0C FF FF FF FF FF FF FF
 1.215400 2  CFF21CAx        Rx   d 8 1D 00 44 16 3C 39 00 14
 1.227500 2  CFF21CAx        Rx   d 8 1D 00 43 16 3C 39 00 14
 1.235500 2  18F100D0x       Rx   d 8 0C FF FF FF FF FF FF FF
 1.239500 2  CFF21CAx        Rx   d 8 1D 00 43 16 3C 39 00 14
 1.251900 2  CFF21CAx        Rx   d 8 1D 00 43 16 3C 39 00 14
 1.253500 2  18F100F3x       Rx   d 8 02 FF 7E 0E B1 FA 14 00
 1.254400 2  18F102F3x       Rx   d 8 0E FE 0E F8 10 0C 00 06
 1.256000 2  18F106F3x       Rx   d 8 45 E0 FC FF FF FF FF FF
 1.257300 2  18F107F3x       Rx   d 8 38 A4 30 70 01 59 00 B8
 1.259000 2  18F108F3x       Rx   d 8 00 00 00 00 00 00 00 00
 1.259900 2  18F155F3x       Rx   d 8 37 37 37 37 37 37 37 00
 1.260500 2  18F100D0x       Rx   d 8 0C FF FF FF FF FF FF FF
 1.261100 2  18F156F3x       Rx   d 8 00 00 00 00 00 00 00 00
 1.261900 2  18F157F3x       Rx   d 8 00 00 00 00 00 00 00 00
 1.262800 2  18F158F3x       Rx   d 8 00 00 00 00 00 00 00 00
 1.263600 2  CFF21CAx        Rx   d 8 1D 00 43 16 3C 39 00 14
 1.264200 2  18F159F3x       Rx   d 8 00 00 00 00 00 00 00 00
 1.265300 2  18F15AF3x       Rx   d 8 00 00 00 00 00 00 00 00
 1.266200 2  18F15BF3x       Rx   d 7 00 00 00 00 00 00 00 00
 1.267100 2  18F15CF3x       Rx   d 8 00 00 00 00 00 00 00 00
 1.267900 2  18F15DF3x       Rx   d 8 00 00 00 00 00 00 00 00
 1.268800 2  18F15EF3x       Rx   d 8 00 00 00 00 00 00 00 00
 1.275600 2  CFF21CAx        Rx   d 8 1C 00 43 16 3C 39 00 14
 1.283700 2  18F100D0x       Rx   d 8 0C FF FF FF FF FF FF FF
 1.287600 2  CFF21CAx        Rx   d 8 1C 00 42 16 3C 39 00 14
 1.297000 2  18FF2112x       Rx   d 8 01 00 00 00 00 00 00 00
 1.299700 2  CFF21CAx        Rx   d 8 1C 00 42 16 3C 39 00 14
 1.307700 2  18F100D0x       Rx   d 8 0C FF FF FF FF FF FF FF
 1.311700 2  CFF21CAx        Rx   d 8 1C 00 42 16 3C 39 00 14
 1.323700 2  CFF21CAx        Rx   d 8 1C 00 42 16 3C 39 00 14
 1.331800 2  18F100D0x       Rx   d 8 0C FF FF FF FF FF FF FF
 1.335800 2  CFF21CAx        Rx   d 8 1D 00 42 16 3C 39 00 14
 1.348200 2  CFF21CAx        Rx   d 8 1D 00 42 16 3C 39 00 14
 1.353400 2  18F100F3x       Rx   d 8 02 FF 7E 0C B1 FA 14 00
 1.354300 2  18F102F3x       Rx   d 8 0E FE 0E F8 10 0C 00 06
 1.355900 2  18F106F3x       Rx   d 8 45 E0 FC FF FF FF FF FF
 1.356400 2  18F100D0x       Rx   d 8 0C FF FF FF FF FF FF FF
 1.357300 2  18F107F3x       Rx   d 8 38 A4 30 70 01 59 00 B8
 1.359100 2  18F108F3x       Rx   d 8 00 00 00 00 00 00 00 00
 1.360000 2  18F155F3x       Rx   d 8 37 37 37 37 37 37 37 00
 1.360600 2  CFF21CAx        Rx   d 8 1D 00 42 16 3C 39 00 14
 1.361200 2  18F156F3x       Rx   d 8 00 00 00 00 00 00 00 00
 1.362100 2  18F157F3x       Rx   d 8 00 00 00 00 00 00 00 00
 1.363000 2  18F158F3x       Rx   d 8 00 00 00 00 00 00 00 00
 1.363800 2  18F159F3x       Rx   d 8 00 00 00 00 00 00 00 00
 1.364700 2  18F15AF3x       Rx   d 8 00 00 00 00 00 00 00 00
 1.365500 2  18F15BF3x       Rx   d 7 00 00 00 00 00 00 00 00
 1.366400 2  18F15CF3x       Rx   d 8 00 00 00 00 00 00 00 00
 1.367300 2  18F15DF3x       Rx   d 8 00 00 00 00 00 00 00 00
 1.368200 2  18F15EF3x       Rx   d 8 00 00 00 00 00 00 00 00
 1.372300 2  CFF21CAx        Rx   d 8 1C 00 44 16 3C 39 00 14
 1.380300 2  18F100D0x       Rx   d 8 0C FF FF FF FF FF FF FF
 1.383900 2  CFF21CAx        Rx   d 8 1C 00 43 16 3C 39 00 14
 1.393900 2  18FF2112x       Rx   d 8 01 00 00 00 00 00 00 00
 1.396400 2  CFF21CAx        Rx   d 8 1C 00 43 16 3C 39 00 14
 1.404000 2  18F100D0x       Rx   d 8 0C FF FF FF FF FF FF FF
 1.408000 2  CFF21CAx        Rx   d 8 1C 00 43 16 3C 39 00 14
 1.420100 2  CFF21CAx        Rx   d 8 1C 00 3D 16 3C 39 00 14
 1.432100 2  CFF21CAx        Rx   d 8 1C 00 42 16 3C 39 00 14
 1.432600 2  18F100D0x       Rx   d 8 0C FF FF FF FF FF FF FF
 1.444500 2  CFF21CAx        Rx   d 8 1C 00 3D 16 3C 39 00 14
 1.452500 2  18F100D0x       Rx   d 8 0C FF FF FF FF FF FF FF
 1.453500 2  18F100F3x       Rx   d 8 02 FF 7E 0C B1 FA 14 00
 1.454300 2  18F102F3x       Rx   d 8 0E FE 0E F8 10 0C 00 06
 1.455800 2  18F106F3x       Rx   d 8 45 E0 FC FF FF FF FF FF
 1.456600 2  CFF21CAx        Rx   d 8 1C 00 42 16 3C 39 00 14
 1.457100 2  18F107F3x       Rx   d 8 38 A4 30 70 01 59 00 B8
 1.459000 2  18F108F3x       Rx   d 8 00 00 00 00 00 00 00 00
 1.459800 2  18F155F3x       Rx   d 8 37 37 37 37 37 37 37 00
 1.460700 2  18F156F3x       Rx   d 8 00 00 00 00 00 00 00 00
 1.461600 2  18F157F3x       Rx   d 8 00 00 00 00 00 00 00 00
 1.462400 2  18F158F3x       Rx   d 8 00 00 00 00 00 00 00 00
 1.463300 2  18F159F3x       Rx   d 8 00 00 00 00 00 00 00 00
 1.464200 2  18F15AF3x       Rx   d 8 00 00 00 00 00 00 00 00
 1.465300 2  18F15BF3x       Rx   d 7 00 00 00 00 00 00 00 00
 1.466200 2  18F15CF3x       Rx   d 8 00 00 00 00 00 00 00 00
 1.467100 2  18F15DF3x       Rx   d 8 00 00 00 00 00 00 00 00
 1.468000 2  18F15EF3x       Rx   d 8 00 00 00 00 00 00 00 00
 1.468800 2  CFF21CAx        Rx   d 8 1C 00 3D 16 3C 39 00 14
 1.480200 2  CFF21CAx        Rx   d 8 1C 00 41 16 3C 39 00 14
 1.480800 2  18F100D0x       Rx   d 8 0C FF FF FF FF FF FF FF
 1.491000 2  18FF2112x       Rx   d 8 01 00 00 00 00 00 00 00
 1.492600 2  CFF21CAx        Rx   d 8 1C 00 3C 16 3C 39 00 14
 1.504300 2  CFF21CAx        Rx   d 8 1C 00 41 16 3C 39 00 14
 1.504800 2  18F100D0x       Rx   d 8 0C FF FF FF FF FF FF FF
 1.516700 2  CFF21CAx        Rx   d 8 1C 00 40 16 3C 39 00 14
 1.528300 2  CFF21CAx        Rx   d 8 1C 00 3E 16 3C 39 00 14
 1.528900 2  18F100D0x       Rx   d 8 0C FF FF FF FF FF FF FF
 1.540800 2  CFF21CAx        Rx   d 8 1C 00 3B 16 3C 39 00 14
 1.552400 2  CFF21CAx        Rx   d 8 1C 00 3F 16 3C 39 00 14
 1.553000 2  18F100D0x       Rx   d 8 0C FF FF FF FF FF FF FF
 1.553500 2  18F100F3x       Rx   d 8 02 FF 7E 0A B1 FA 14 00
 1.554400 2  18F102F3x       Rx   d 8 0E FE 0E F8 10 0C 00 06
 1.555700 2  18F106F3x       Rx   d 8 45 E0 FC FF FF FF FF FF
 1.556900 2  18F107F3x       Rx   d 8 38 A4 30 70 01 59 00 B8
 1.558700 2  18F108F3x       Rx   d 8 00 00 00 00 00 00 00 00
 1.559600 2  18F155F3x       Rx   d 8 37 37 37 37 37 37 37 00
 1.560500 2  18F156F3x       Rx   d 8 00 00 00 00 00 00 00 00
 1.561300 2  18F157F3x       Rx   d 8 00 00 00 00 00 00 00 00
 1.562200 2  18F158F3x       Rx   d 8 00 00 00 00 00 00 00 00
 1.563100 2  18F159F3x       Rx   d 8 00 00 00 00 00 00 00 00
 1.564000 2  18F15AF3x       Rx   d 8 00 00 00 00 00 00 00 00
 1.564900 2  CFF21CAx        Rx   d 8 1C 00 40 16 3C 39 00 14
 1.565400 2  18F15BF3x       Rx   d 7 00 00 00 00 00 00 00 00
 1.566300 2  18F15CF3x       Rx   d 8 00 00 00 00 00 00 00 00
 1.567100 2  18F15DF3x       Rx   d 8 00 00 00 00 00 00 00 00
 1.568000 2  18F15EF3x       Rx   d 8 00 00 00 00 00 00 00 00
 1.576500 2  CFF21CAx        Rx   d 8 1C 00 3E 16 3C 39 00 14
 1.577100 2  18F100D0x       Rx   d 8 0C FF FF FF FF FF FF FF
 1.588200 2  18FF2112x       Rx   d 8 01 00 00 00 00 00 00 00
 1.589000 2  CFF21CAx        Rx   d 8 1D 00 3F 16 3C 39 00 14
 1.600500 2  CFF21CAx        Rx   d 8 1D 00 3E 16 3C 39 00 14
 1.601100 2  18F100D0x       Rx   d 8 0C FF FF FF FF FF FF FF
 1.613000 2  CFF21CAx        Rx   d 8 1D 00 40 16 3C 39 00 14
 1.624600 2  CFF21CAx        Rx   d 8 1C 00 3E 16 3C 39 00 14
 1.625200 2  18F100D0x       Rx   d 8 0C FF FF FF FF FF FF FF
 1.637100 2  CFF21CAx        Rx   d 8 1C 00 3F 16 3C 39 00 14
 1.648700 2  CFF21CAx        Rx   d 8 1C 00 3E 16 3C 39 00 14
 1.649300 2  18F100D0x       Rx   d 8 0C FF FF FF FF FF FF FF
 1.653100 2  18F100F3x       Rx   d 8 02 FF 7E 0A B1 FA 14 00
 1.653900 2  18F102F3x       Rx   d 8 0E FE 0E F8 10 0C 00 06
 1.655500 2  18F106F3x       Rx   d 8 45 E0 FC FF FF FF FF FF
 1.656800 2  18F107F3x       Rx   d 8 38 A4 30 70 01 59 00 B8
 1.658600 2  18F108F3x       Rx   d 8 00 00 00 00 00 00 00 00
 1.659400 2  18F155F3x       Rx   d 8 37 37 37 37 37 37 37 00
 1.660300 2  18F156F3x       Rx   d 8 00 00 00 00 00 00 00 00
 1.661200 2  18F157F3x       Rx   d 8 00 00 00 00 00 00 00 00
 1.661800 2  CFF21CAx        Rx   d 8 1C 00 3D 16 3C 39 00 14
 1.662300 2  18F158F3x       Rx   d 8 00 00 00 00 00 00 00 00
 1.663200 2  18F159F3x       Rx   d 8 00 00 00 00 00 00 00 00
 1.664100 2  18F15AF3x       Rx   d 8 00 00 00 00 00 00 00 00
 1.665100 2  18F15BF3x       Rx   d 7 00 00 00 00 00 00 00 00
 1.666000 2  18F15CF3x       Rx   d 8 00 00 00 00 00 00 00 00
 1.666900 2  18F15DF3x       Rx   d 8 00 00 00 00 00 00 00 00
 1.667800 2  18F15EF3x       Rx   d 8 00 00 00 00 00 00 00 00
 1.672700 2  CFF21CAx        Rx   d 8 1C 00 40 16 3C 39 00 14
 1.673300 2  18F100D0x       Rx   d 8 0C FF FF FF FF FF FF FF
 1.685300 2  CFF21CAx        Rx   d 8 1D 00 3C 16 3C 39 00 14
 1.685800 2  18FF2112x       Rx   d 8 01 00 00 00 00 00 00 00
 1.688800 2  18FECACAx       Rx   d 8 00 00 00 00 00 00 FF FF
 1.696800 2  CFF21CAx        Rx   d 8 1D 00 41 16 3C 39 00 14
 1.701300 2  18F100D0x       Rx   d 8 0C FF FF FF FF FF FF FF
 1.709200 2  CFF21CAx        Rx   d 8 1D 00 3D 16 3C 39 00 14
 1.720900 2  CFF21CAx        Rx   d 8 1C 00 41 16 3C 39 00 14
 1.725500 2  18F100D0x       Rx   d 8 0C FF FF FF FF FF FF FF
 1.733400 2  CFF21CAx        Rx   d 8 1C 00 3D 16 3C 39 00 14
 1.744900 2  CFF21CAx        Rx   d 8 1C 00 3D 16 3C 39 00 14
 1.749400 2  18F100D0x       Rx   d 8 0C FF FF FF FF FF FF FF
 1.752900 2  18F100F3x       Rx   d 8 02 FF 7E 0A B1 FA 14 00
 1.753800 2  18F102F3x       Rx   d 8 0E FE 0E F8 10 0C 00 06
 1.755400 2  18F106F3x       Rx   d 8 45 E0 FC FF FF FF FF FF
 1.756700 2  18F107F3x       Rx   d 8 38 A4 30 70 01 59 00 B8
 1.757500 2  CFF21CAx        Rx   d 8 1C 00 3D 16 3C 39 00 14
 1.758500 2  18F108F3x       Rx   d 8 00 00 00 00 00 00 00 00
 1.759300 2  18F155F3x       Rx   d 8 37 37 37 37 37 37 37 00
 1.760200 2  18F156F3x       Rx   d 8 00 00 00 00 00 00 00 00
 1.761100 2  18F157F3x       Rx   d 8 00 00 00 00 00 00 00 00
 1.762000 2  18F158F3x       Rx   d 8 00 00 00 00 00 00 00 00
 1.762900 2  18F159F3x       Rx   d 8 00 00 00 00 00 00 00 00
 1.763800 2  18F15AF3x       Rx   d 8 00 00 00 00 00 00 00 00
 1.764900 2  18F15BF3x       Rx   d 7 00 00 00 00 00 00 00 00
 1.765800 2  18F15CF3x       Rx   d 8 00 00 00 00 00 00 00 00
 1.766700 2  18F15DF3x       Rx   d 8 00 00 00 00 00 00 00 00
 1.767600 2  18F15EF3x       Rx   d 8 00 00 00 00 00 00 00 00
 1.769000 2  CFF21CAx        Rx   d 8 1C 00 3D 16 3C 39 00 14
 1.773400 2  18F100D0x       Rx   d 8 0C FF FF FF FF FF FF FF
 1.781500 2  CFF21CAx        Rx   d 8 1C 00 41 16 3C 39 00 14
 1.782500 2  18FF2112x       Rx   d 8 01 00 00 00 00 00 00 00
 1.793100 2  CFF21CAx        Rx   d 8 1D 00 41 16 3C 39 00 14
 1.797600 2  18F100D0x       Rx   d 8 0C FF FF FF FF FF FF FF
 1.805500 2  CFF21CAx        Rx   d 8 1D 00 43 16 3C 39 00 14
 1.817200 2  CFF21CAx        Rx   d 8 1D 00 3E 16 3C 39 00 14
 1.821600 2  18F100D0x       Rx   d 8 0C FF FF FF FF FF FF FF
 1.829700 2  CFF21CAx        Rx   d 8 1D 00 43 16 3C 39 00 14
 1.841200 2  CFF21CAx        Rx   d 8 1D 00 41 16 3C 39 00 14
 1.845700 2  18F100D0x       Rx   d 8 0C FF FF FF FF FF FF FF
 1.852800 2  18F100F3x       Rx   d 8 02 FF 7E 0C B1 FA 14 00
 1.853700 2  18F102F3x       Rx   d 8 0E FE 0E F8 10 0C 00 06
 1.854300 2  CFF21CAx        Rx   d 8 1C 00 43 16 3C 39 00 14
 1.855300 2  18F106F3x       Rx   d 8 45 E0 FC FF FF FF FF FF
 1.856600 2  18F107F3x       Rx   d 8 38 A4 30 70 01 59 00 B8
 1.858300 2  18F108F3x       Rx   d 8 00 00 00 00 00 00 00 00
 1.859200 2  18F155F3x       Rx   d 8 37 37 37 37 37 37 37 00
 1.860100 2  18F156F3x       Rx   d 8 00 00 00 00 00 00 00 00
 1.861000 2  18F157F3x       Rx   d 8 00 00 00 00 00 00 00 00
 1.861800 2  18F158F3x       Rx   d 8 00 00 00 00 00 00 00 00
 1.862700 2  18F159F3x       Rx   d 8 00 00 00 00 00 00 00 00
 1.863600 2  18F15AF3x       Rx   d 8 00 00 00 00 00 00 00 00
 1.864800 2  18F15BF3x       Rx   d 7 00 00 00 00 00 00 00 00
 1.865300 2  CFF21CAx        Rx   d 8 1C 00 40 16 3C 39 00 14
 1.865900 2  18F15CF3x       Rx   d 8 00 00 00 00 00 00 00 00
 1.866800 2  18F15DF3x       Rx   d 8 00 00 00 00 00 00 00 00
 1.867700 2  18F15EF3x       Rx   d 8 00 00 00 00 00 00 00 00
 1.869700 2  18F100D0x       Rx   d 8 0C FF FF FF FF FF FF FF
 1.877800 2  CFF21CAx        Rx   d 8 1C 00 42 16 3C 39 00 14
 1.879700 2  18FF2112x       Rx   d 8 01 00 00 00 00 00 00 00
 1.889400 2  CFF21CAx        Rx   d 8 1D 00 3F 16 3C 39 00 14
 1.897400 2  18F100D0x       Rx   d 8 0C FF FF FF FF FF FF FF
 1.901800 2  CFF21CAx        Rx   d 8 1D 00 42 16 3C 39 00 14
 1.913400 2  CFF21CAx        Rx   d 8 1C 00 3F 16 3C 39 00 14
 1.918000 2  18F100D0x       Rx   d 8 0C FF FF FF FF FF FF FF
 1.925900 2  CFF21CAx        Rx   d 8 1C 00 42 16 3C 39 00 14
 1.937500 2  CFF21CAx        Rx   d 8 1C 00 3F 16 3C 39 00 14
 1.945500 2  18F100D0x       Rx   d 8 0C FF FF FF FF FF FF FF
 1.950000 2  CFF21CAx        Rx   d 8 1C 00 42 16 3C 39 00 14
 1.952700 2  18F100F3x       Rx   d 8 02 FF 7E 0C B1 FA 14 00
 1.953600 2  18F102F3x       Rx   d 8 0E FE 0E F8 10 0C 00 06
 1.955200 2  18F106F3x       Rx   d 8 45 E0 FC FF FF FF FF FF
 1.956500 2  18F107F3x       Rx   d 8 38 A4 30 70 01 59 00 B8
 1.958200 2  18F108F3x       Rx   d 8 00 00 00 00 00 00 00 00
 1.959100 2  18F155F3x       Rx   d 8 37 37 37 37 37 37 37 00
 1.960000 2  18F156F3x       Rx   d 8 00 00 00 00 00 00 00 00
 1.960800 2  18F157F3x       Rx   d 8 00 00 00 00 00 00 00 00
 1.961600 2  CFF21CAx        Rx   d 8 1C 00 3E 16 3C 39 00 14
 1.962100 2  18F158F3x       Rx   d 8 00 00 00 00 00 00 00 00
 1.963000 2  18F159F3x       Rx   d 8 00 00 00 00 00 00 00 00
 1.963900 2  18F15AF3x       Rx   d 8 00 00 00 00 00 00 00 00
 1.964800 2  18F15BF3x       Rx   d 7 00 00 00 00 00 00 00 00
 1.965600 2  18F15CF3x       Rx   d 8 00 00 00 00 00 00 00 00
 1.966500 2  18F15DF3x       Rx   d 8 00 00 00 00 00 00 00 00
 1.967400 2  18F15EF3x       Rx   d 8 00 00 00 00 00 00 00 00
 1.969600 2  18F100D0x       Rx   d 8 0C FF FF FF FF FF FF FF
 1.974100 2  CFF21CAx        Rx   d 8 1C 00 41 16 3C 39 00 14
 1.976800 2  18FF2112x       Rx   d 8 01 00 00 00 00 00 00 00
 1.985600 2  CFF21CAx        Rx   d 8 1D 00 3D 16 3C 39 00 14
 1.993700 2  18F100D0x       Rx   d 8 0C FF FF FF FF FF FF FF
 1.997700 2  CFF21CAx        Rx   d 8 1D 00 3E 16 3C 39 00 14
 2.009700 2  CFF21CAx        Rx   d 8 1D 00 3D 16 3C 39 00 14
 2.017700 2  18F100D0x       Rx   d 8 0C FF FF FF FF FF FF FF
 2.022200 2  CFF21CAx        Rx   d 8 1D 00 3F 16 3C 39 00 14
 2.033800 2  CFF21CAx        Rx   d 8 1D 00 3F 16 3C 39 00 14
 2.041800 2  18F100D0x       Rx   d 8 0C FF FF FF FF FF FF FF
 2.045800 2  CFF21CAx        Rx   d 8 1C 00 3F 16 3C 39 00 14
 2.052600 2  18F100F3x       Rx   d 8 02 FF 7E 09 B1 FA 14 00
 2.053500 2  18F102F3x       Rx   d 8 0E FE 0E F8 10 0C 00 06
 2.055000 2  18F106F3x       Rx   d 8 45 E0 FC FF FF FF FF FF
 2.056300 2  18F107F3x       Rx   d 8 38 A4 30 70 01 59 00 B8
 2.058100 2  18F108F3x       Rx   d 8 00 00 00 00 00 00 00 00
 2.058700 2  CFF21CAx        Rx   d 8 1C 00 3E 16 3C 39 00 14
 2.059200 2  18F155F3x       Rx   d 8 37 37 37 37 37 37 37 00
 2.060100 2  18F156F3x       Rx   d 8 00 00 00 00 00 00 00 00
 2.061000 2  18F157F3x       Rx   d 8 00 00 00 00 00 00 00 00
 2.061800 2  18F158F3x       Rx   d 8 00 00 00 00 00 00 00 00
 2.062700 2  18F159F3x       Rx   d 8 00 00 00 00 00 00 00 00
 2.063600 2  18F15AF3x       Rx   d 8 00 00 00 00 00 00 00 00
 2.064600 2  18F15BF3x       Rx   d 7 00 00 00 00 00 00 00 00
 2.065500 2  18F15CF3x       Rx   d 8 00 00 00 00 00 00 00 00
 2.066400 2  18F15DF3x       Rx   d 8 00 00 00 00 00 00 00 00
 2.067300 2  18F15EF3x       Rx   d 8 00 00 00 00 00 00 00 00
 2.069900 2  CFF21CAx        Rx   d 8 1D 00 3D 16 3C 39 00 14
 2.070400 2  18F100D0x       Rx   d 8 0C FF FF FF FF FF FF FF
 2.074000 2  18FF2112x       Rx   d 8 01 00 00 00 00 00 00 00
 2.081900 2  CFF21CAx        Rx   d 8 1D 00 3F 16 3C 39 00 14
 2.093900 2  CFF21CAx        Rx   d 8 1D 00 3F 16 3C 39 00 14
 2.094500 2  18F100D0x       Rx   d 8 0C FF FF FF FF FF FF FF
 2.106000 2  CFF21CAx        Rx   d 8 1D 00 3F 16 3C 39 00 14
 2.118100 2  CFF21CAx        Rx   d 8 1D 00 3C 16 3C 39 00 14
 2.118600 2  18F100D0x       Rx   d 8 0C FF FF FF FF FF FF FF
 2.129000 2  18F104F3x       Rx   d 8 37 37 01 01 00 FF FF FF
 2.129900 2  18F113F3x       Rx   d 8 0E FA 0E F9 0E FA 0E FA
 2.130400 2  CFF21CAx        Rx   d 8 1D 00 40 16 3C 39 00 14
 2.131000 2  18F114F3x       Rx   d 8 0E FA 0E F9 0E FB 0E FB
 2.131900 2  18F115F3x       Rx   d 8 0E F9 0E F9 0E F9 0E F8
 2.132800 2  18F116F3x       Rx   d 8 0E FD 0E FA 0E FD 0E FE
 2.133700 2  18F117F3x       Rx   d 8 0E FA 0E FB 0E FE 0E FD
 2.134600 2  18F118F3x       Rx   d 8 00 00 00 00 00 00 00 00
 2.135600 2  18F119F3x       Rx   d 8 00 00 00 00 00 00 00 00
 2.136500 2  18F11AF3x       Rx   d 8 00 00 00 00 00 00 00 00
 2.137500 2  18F11BF3x       Rx   d 8 00 00 00 00 00 00 00 00
 2.138400 2  18F11CF3x       Rx   d 8 00 00 00 00 00 00 00 00
 2.139400 2  18F11DF3x       Rx   d 8 00 00 00 00 00 00 00 00
 2.140400 2  18F11EF3x       Rx   d 8 00 00 00 00 00 00 00 00
 2.141300 2  18F11FF3x       Rx   d 8 00 00 00 00 00 00 00 00
 2.142100 2  CFF21CAx        Rx   d 8 1D 00 3C 16 3C 39 00 14
 2.142700 2  18F100D0x       Rx   d 8 0C FF FF FF FF FF FF FF
 2.143200 2  18F120F3x       Rx   d 8 00 00 00 00 00 00 00 00
 2.144500 2  18F121F3x       Rx   d 8 00 00 00 00 00 00 00 00
 2.145500 2  18F122F3x       Rx   d 8 00 00 00 00 00 00 00 00
 2.146400 2  18F123F3x       Rx   d 8 00 00 00 00 00 00 00 00
 2.147300 2  18F124F3x       Rx   d 8 00 00 00 00 00 00 00 00
 2.148300 2  18F125F3x       Rx   d 8 00 00 00 00 00 00 00 00
 2.149200 2  18F126F3x       Rx   d 8 00 00 00 00 00 00 00 00
 2.150200 2  18F127F3x       Rx   d 8 00 00 00 00 00 00 00 00
 2.151100 2  18F128F3x       Rx   d 8 00 00 00 00 00 00 00 00
 2.152000 2  18F129F3x       Rx   d 8 00 00 00 00 00 00 00 00
 2.152900 2  18F100F3x       Rx   d 8 02 FF 7E 09 B1 FA 14 00
 2.153800 2  18F102F3x       Rx   d 8 0E FE 0E F8 10 0C 00 06
 2.154600 2  CFF21CAx        Rx   d 8 1D 00 3F 16 3C 39 00 14
 2.155100 2  18F106F3x       Rx   d 8 45 E0 FC FF FF FF FF FF
 2.156500 2  18F107F3x       Rx   d 8 38 A4 30 70 01 59 00 B8
 2.158300 2  18F108F3x       Rx   d 8 00 00 00 00 00 00 00 00
 2.159200 2  18F12AF3x       Rx   d 8 00 00 00 00 00 00 00 00
 2.160200 2  18F12BF3x       Rx   d 8 00 00 00 00 00 00 00 00
 2.161100 2  18F12CF3x       Rx   d 8 00 00 00 00 00 00 00 00
 2.162100 2  18F12DF3x       Rx   d 8 00 00 00 00 00 00 00 00
 2.163000 2  18F12EF3x       Rx   d 8 00 00 00 00 00 00 00 00
 2.163900 2  18F12FF3x       Rx   d 8 00 00 00 00 00 00 00 00
 2.164800 2  18F130F3x       Rx   d 8 00 00 00 00 00 00 00 00
 2.165600 2  18F131F3x       Rx   d 8 00 00 00 00 00 00 00 00
 2.166200 2  CFF21CAx        Rx   d 8 1D 00 3C 16 3C 39 00 14
 2.166800 2  18F100D0x       Rx   d 8 0C FF FF FF FF FF FF FF
 2.167400 2  18F132F3x       Rx   d 8 00 00 00 00 00 00 00 00
 2.168300 2  18F133F3x       Rx   d 8 00 00 00 00 00 00 00 00
 2.169200 2  18F134F3x       Rx   d 8 00 00 00 00 00 00 00 00
 2.170200 2  18F135F3x       Rx   d 8 00 00 00 00 00 00 00 00
 2.171100 2  18F136F3x       Rx   d 8 00 00 00 00 00 00 00 00
 2.171700 2  18FF2112x       Rx   d 8 01 00 00 00 00 00 00 00
 2.172200 2  18F137F3x       Rx   d 8 00 00 00 00 00 00 00 00
 2.173200 2  18F138F3x       Rx   d 8 00 00 00 00 00 00 00 00
 2.174400 2  18F139F3x       Rx   d 8 00 00 00 00 00 00 00 00
 2.175300 2  18F13AF3x       Rx   d 8 00 00 00 00 00 00 00 00
 2.176200 2  18F13BF3x       Rx   d 8 00 00 00 00 00 00 00 00
 2.177100 2  18F13CF3x       Rx   d 8 00 00 00 00 00 00 00 00
 2.177900 2  18F155F3x       Rx   d 8 37 37 37 37 37 37 37 00
 2.178500 2  CFF21CAx        Rx   d 8 1D 00 3F 16 3C 39 00 14
 2.179100 2  18F156F3x       Rx   d 8 00 00 00 00 00 00 00 00
 2.179900 2  18F157F3x       Rx   d 8 00 00 00 00 00 00 00 00
 2.180800 2  18F158F3x       Rx   d 8 00 00 00 00 00 00 00 00
 2.181700 2  18F159F3x       Rx   d 8 00 00 00 00 00 00 00 00
 2.182600 2  18F15AF3x       Rx   d 8 00 00 00 00 00 00 00 00
 2.183400 2  18F15BF3x       Rx   d 7 00 00 00 00 00 00 00 00
 2.184500 2  18F15CF3x       Rx   d 8 00 00 00 00 00 00 00 00
 2.185400 2  18F15DF3x       Rx   d 8 00 00 00 00 00 00 00 00
 2.186300 2  18F15EF3x       Rx   d 8 00 00 00 00 00 00 00 00
 2.190200 2  CFF21CAx        Rx   d 8 1D 00 3B 16 3C 39 00 14
 2.190800 2  18F100D0x       Rx   d 8 0C FF FF FF FF FF FF FF
 2.202200 2  CFF21CAx        Rx   d 8 1D 00 3E 16 3C 39 00 14
 2.214700 2  CFF21CAx        Rx   d 8 1D 00 3E 16 3C 39 00 14
 2.215200 2  18F100D0x       Rx   d 8 0C FF FF FF FF FF FF FF
 2.226300 2  CFF21CAx        Rx   d 8 1D 00 3C 16 3C 39 00 14
 2.238300 2  CFF21CAx        Rx   d 8 1D 00 3D 16 3C 39 00 14
 2.238900 2  18F100D0x       Rx   d 8 0C FF FF FF FF FF FF FF
 2.250400 2  CFF21CAx        Rx   d 8 1D 00 3D 16 3C 39 00 14
 2.252400 2  18F100F3x       Rx   d 8 02 FF 7E 09 B1 FA 14 00
 2.253200 2  18F102F3x       Rx   d 8 0E FE 0E F8 10 0C 00 06
 2.254800 2  18F106F3x       Rx   d 8 45 E0 FC FF FF FF FF FF
 2.256100 2  18F107F3x       Rx   d 8 38 A4 30 70 01 59 00 B8
 2.257900 2  18F108F3x       Rx   d 8 00 00 00 00 00 00 00 00
 2.258700 2  18F155F3x       Rx   d 8 37 37 37 37 37 37 37 00
 2.259600 2  18F156F3x       Rx   d 8 00 00 00 00 00 00 00 00
 2.260500 2  18F157F3x       Rx   d 8 00 00 00 00 00 00 00 00
 2.261400 2  18F158F3x       Rx   d 8 00 00 00 00 00 00 00 00
 2.262300 2  18F159F3x       Rx   d 8 00 00 00 00 00 00 00 00
 2.262800 2  CFF21CAx        Rx   d 8 1E 00 3D 16 3C 39 00 14
 2.263400 2  18F100D0x       Rx   d 8 0C FF FF FF FF FF FF FF
 2.264000 2  18F15AF3x       Rx   d 8 00 00 00 00 00 00 00 00
 2.264800 2  18F15BF3x       Rx   d 7 00 00 00 00 00 00 00 00
 2.265700 2  18F15CF3x       Rx   d 8 00 00 00 00 00 00 00 00
 2.266500 2  18F15DF3x       Rx   d 8 00 00 00 00 00 00 00 00
 2.267300 2  18F15EF3x       Rx   d 8 00 00 00 00 00 00 00 00
 2.268300 2  18FF2112x       Rx   d 8 01 00 00 00 00 00 00 00
 2.274500 2  CFF21CAx        Rx   d 8 1E 00 3E 16 3C 39 00 14
 2.286500 2  CFF21CAx        Rx   d 8 1E 00 3D 16 3C 39 00 14
 2.287100 2  18F100D0x       Rx   d 8 0C FF FF FF FF FF FF FF
 2.298600 2  CFF21CAx        Rx   d 8 1E 00 3E 16 3C 39 00 14
 2.310600 2  CFF21CAx        Rx   d 8 1E 00 39 16 3C 39 00 14
 2.311200 2  18F100D0x       Rx   d 8 0C FF FF FF FF FF FF FF
 2.322600 2  CFF21CAx        Rx   d 8 1E 00 3F 16 3C 39 00 14
 2.334600 2  CFF21CAx        Rx   d 8 1E 00 3A 16 3C 39 00 14
 2.335200 2  18F100D0x       Rx   d 8 0C FF FF FF FF FF FF FF
 2.347000 2  CFF21CAx        Rx   d 8 1E 00 40 16 3C 39 00 14
 2.352200 2  18F100F3x       Rx   d 8 02 FF 7E 0A B1 FA 14 00
 2.353100 2  18F102F3x       Rx   d 8 0E FE 0E F8 10 0C 00 06
 2.354700 2  18F106F3x       Rx   d 8 45 E0 FC FF FF FF FF FF
 2.356000 2  18F107F3x       Rx   d 8 38 A4 30 70 01 59 00 B8
 2.357700 2  18F108F3x       Rx   d 8 00 00 00 00 00 00 00 00
 2.358600 2  18F155F3x       Rx   d 8 37 37 37 37 37 37 37 00
 2.359200 2  CFF21CAx        Rx   d 8 1E 00 3B 16 3C 39 00 14
 2.359700 2  18F100D0x       Rx   d 8 0C FF FF FF FF FF FF FF
 2.360300 2  18F156F3x       Rx   d 8 00 00 00 00 00 00 00 00
 2.361200 2  18F157F3x       Rx   d 8 00 00 00 00 00 00 00 00
 2.362100 2  18F158F3x       Rx   d 8 00 00 00 00 00 00 00 00
 2.363000 2  18F159F3x       Rx   d 8 00 00 00 00 00 00 00 00
 2.364200 2  18F15AF3x       Rx   d 8 00 00 00 00 00 00 00 00
 2.365100 2  18F15BF3x       Rx   d 7 00 00 00 00 00 00 00 00
 2.365700 2  18FF2112x       Rx   d 8 01 00 00 00 00 00 00 00
 2.366200 2  18F15CF3x       Rx   d 8 00 00 00 00 00 00 00 00
 2.367100 2  18F15DF3x       Rx   d 8 00 00 00 00 00 00 00 00
 2.368000 2  18F15EF3x       Rx   d 8 00 00 00 00 00 00 00 00
 2.371100 2  CFF21CAx        Rx   d 8 1E 00 40 16 3C 39 00 14
 2.382700 2  CFF21CAx        Rx   d 8 1E 00 3B 16 3C 39 00 14
 2.383300 2  18F100D0x       Rx   d 8 0C FF FF FF FF FF FF FF
 2.395200 2  CFF21CAx        Rx   d 8 1E 00 40 16 3C 39 00 14
 2.406900 2  CFF21CAx        Rx   d 8 1E 00 3B 16 3C 39 00 14
 2.410900 2  18F100D0x       Rx   d 8 0C FF FF FF FF FF FF FF
 2.419300 2  CFF21CAx        Rx   d 8 1D 00 40 16 3C 39 00 14
 2.430900 2  CFF21CAx        Rx   d 8 1D 00 3B 16 3C 39 00 14
 2.435300 2  18F100D0x       Rx   d 8 0C FF FF FF FF FF FF FF
 2.443400 2  CFF21CAx        Rx   d 8 1D 00 3D 16 3C 39 00 14
 2.452100 2  18F100F3x       Rx   d 8 02 FF 7E 0A B1 FA 14 00
 2.453000 2  18F102F3x       Rx   d 8 0E FE 0E F8 10 0C 00 06
 2.454600 2  18F106F3x       Rx   d 8 45 E0 FC FF FF FF FF FF
 2.455400 2  CFF21CAx        Rx   d 8 1E 00 3F 16 3C 39 00 14
 2.456000 2  18F107F3x       Rx   d 8 38 A4 30 70 01 59 00 B8
 2.457800 2  18F108F3x       Rx   d 8 00 00 00 00 00 00 00 00
 2.458700 2  18F155F3x       Rx   d 8 37 37 37 37 37 37 37 00
 2.459500 2  18F100D0x       Rx   d 8 0C FF FF FF FF FF FF FF
 2.460000 2  18F156F3x       Rx   d 8 00 00 00 00 00 00 00 00
 2.461000 2  18F157F3x       Rx   d 8 00 00 00 00 00 00 00 00
 2.461900 2  18F158F3x       Rx   d 8 00 00 00 00 00 00 00 00
 2.462600 2  18FF2112x       Rx   d 8 01 00 00 00 00 00 00 00
 2.463200 2  18F159F3x       Rx   d 8 00 00 00 00 00 00 00 00
 2.464200 2  18F15AF3x       Rx   d 8 00 00 00 00 00 00 00 00
 2.465000 2  18F15BF3x       Rx   d 7 00 00 00 00 00 00 00 00
 2.465900 2  18F15CF3x       Rx   d 8 00 00 00 00 00 00 00 00
 2.466800 2  18F15DF3x       Rx   d 8 00 00 00 00 00 00 00 00
 2.467400 2  CFF21CAx        Rx   d 8 1E 00 3F 16 3C 39 00 14
 2.468000 2  18F15EF3x       Rx   d 8 00 00 00 00 00 00 00 00
 2.479000 2  CFF21CAx        Rx   d 8 1E 00 3F 16 3C 39 00 14
 2.483500 2  18F100D0x       Rx   d 8 0C FF FF FF FF FF FF FF
 2.491700 2  CFF21CAx        Rx   d 8 1E 00 3F 16 3C 39 00 14
 2.503100 2  CFF21CAx        Rx   d 8 1D 00 42 16 3C 39 00 14
 2.507500 2  18F100D0x       Rx   d 8 0C FF FF FF FF FF FF FF
 2.515500 2  CFF21CAx        Rx   d 8 1D 00 3C 16 3C 39 00 14
 2.527200 2  CFF21CAx        Rx   d 8 1D 00 3D 16 3C 39 00 14
 2.531600 2  18F100D0x       Rx   d 8 0C FF FF FF FF FF FF FF
 2.539600 2  CFF21CAx        Rx   d 8 1D 00 3D 16 3C 39 00 14
 2.551200 2  CFF21CAx        Rx   d 8 1D 00 42 16 3C 39 00 14
 2.552000 2  18F100F3x       Rx   d 8 02 FF 7E 0A B1 FA 14 00
 2.552900 2  18F102F3x       Rx   d 8 0E FE 0E F8 10 0C 00 06
 2.554400 2  18F106F3x       Rx   d 8 45 E0 FC FF FF FF FF FF
 2.555700 2  18F107F3x       Rx   d 8 38 A4 30 70 01 59 00 B8
 2.556300 2  18F100D0x       Rx   d 8 0C FF FF FF FF FF FF FF
 2.557700 2  18F108F3x       Rx   d 8 00 00 00 00 00 00 00 00
 2.558600 2  18F155F3x       Rx   d 8 37 37 37 37 37 37 37 00
 2.559500 2  18F156F3x       Rx   d 8 00 00 00 00 00 00 00 00
 2.560100 2  18FF2112x       Rx   d 8 01 00 00 00 00 00 00 00
 2.560700 2  18F157F3x       Rx   d 8 00 00 00 00 00 00 00 00
 2.561500 2  18F158F3x       Rx   d 8 00 00 00 00 00 00 00 00
 2.562400 2  18F159F3x       Rx   d 8 00 00 00 00 00 00 00 00
 2.563300 2  18F15AF3x       Rx   d 8 00 00 00 00 00 00 00 00
 2.563800 2  CFF21CAx        Rx   d 8 1D 00 3C 16 3C 39 00 14
 2.564400 2  18F15BF3x       Rx   d 7 00 00 00 00 00 00 00 00
 2.565200 2  18F15CF3x       Rx   d 8 00 00 00 00 00 00 00 00
 2.566100 2  18F15DF3x       Rx   d 8 00 00 00 00 00 00 00 00
 2.566900 2  18F15EF3x       Rx   d 8 00 00 00 00 00 00 00 00
 2.575300 2  CFF21CAx        Rx   d 8 1D 00 3D 16 3C 39 00 14
 2.583300 2  18F100D0x       Rx   d 8 0C FF FF FF FF FF FF FF
 2.587800 2  CFF21CAx        Rx   d 8 1D 00 3D 16 3C 39 00 14
 2.599400 2  CFF21CAx        Rx   d 8 1D 00 3D 16 3C 39 00 14
 2.607400 2  18F100D0x       Rx   d 8 0C FF FF FF FF FF FF FF
 2.611900 2  CFF21CAx        Rx   d 8 1D 00 3C 16 3C 39 00 14
 2.623400 2  CFF21CAx        Rx   d 8 1E 00 3D 16 3C 39 00 14
 2.631500 2  18F100D0x       Rx   d 8 0C FF FF FF FF FF FF FF
 2.635900 2  CFF21CAx        Rx   d 8 1E 00 3C 16 3C 39 00 14
 2.647500 2  CFF21CAx        Rx   d 8 1E 00 3C 16 3C 39 00 14
 2.651900 2  18F100F3x       Rx   d 8 02 FF 7E 0A B1 FA 14 00
 2.652800 2  18F102F3x       Rx   d 8 0E FE 0E F8 10 0C 00 06
 2.654300 2  18F106F3x       Rx   d 8 45 E0 FC FF FF FF FF FF
 2.655600 2  18F107F3x       Rx   d 8 38 A4 30 70 01 59 00 B8
 2.656200 2  18F100D0x       Rx   d 8 0C FF FF FF FF FF FF FF
 2.656900 2  18FF2112x       Rx   d 8 01 00 00 00 00 00 00 00
 2.657600 2  18F108F3x       Rx   d 8 00 00 00 00 00 00 00 00
 2.658500 2  18F155F3x       Rx   d 8 37 37 37 37 37 37 37 00
 2.659400 2  18F156F3x       Rx   d 8 00 00 00 00 00 00 00 00
 2.660100 2  CFF21CAx        Rx   d 8 1E 00 3D 16 3C 39 00 14
 2.660700 2  18F157F3x       Rx   d 8 00 00 00 00 00 00 00 00
 2.661600 2  18F158F3x       Rx   d 8 00 00 00 00 00 00 00 00
 2.662600 2  18F159F3x       Rx   d 8 00 00 00 00 00 00 00 00
 2.663700 2  18F15AF3x       Rx   d 8 00 00 00 00 00 00 00 00
 2.664600 2  18F15BF3x       Rx   d 7 00 00 00 00 00 00 00 00
 2.665500 2  18F15CF3x       Rx   d 8 00 00 00 00 00 00 00 00
 2.666400 2  18F15DF3x       Rx   d 8 00 00 00 00 00 00 00 00
 2.667200 2  18F15EF3x       Rx   d 8 00 00 00 00 00 00 00 00
 2.671600 2  CFF21CAx        Rx   d 8 1E 00 3D 16 3C 39 00 14
 2.679600 2  18F100D0x       Rx   d 8 0C FF FF FF FF FF FF FF
 2.684200 2  CFF21CAx        Rx   d 8 1E 00 3E 16 3C 39 00 14
 2.695700 2  CFF21CAx        Rx   d 8 1E 00 3E 16 3C 39 00 14
 2.703700 2  18F100D0x       Rx   d 8 0C FF FF FF FF FF FF FF
 2.704300 2  18FECACAx       Rx   d 8 00 00 00 00 00 00 FF FF
 2.708100 2  CFF21CAx        Rx   d 8 1E 00 3E 16 3C 39 00 14
 2.719700 2  CFF21CAx        Rx   d 8 1D 00 3D 16 3C 39 00 14
 2.732100 2  CFF21CAx        Rx   d 8 1D 00 3E 16 3C 39 00 14
 2.732700 2  18F100D0x       Rx   d 8 0C FF FF FF FF FF FF FF
 2.743800 2  CFF21CAx        Rx   d 8 1D 00 3E 16 3C 39 00 14
 2.751800 2  18F100F3x       Rx   d 8 02 FF 7E 0A B1 FA 14 00
 2.752700 2  18F102F3x       Rx   d 8 0E FE 0E F8 10 02 00 06
 2.754100 2  18FF2112x       Rx   d 8 01 00 00 00 00 00 00 00
 2.754600 2  18F106F3x       Rx   d 8 45 E0 FC FF FF FF FF FF
 2.755900 2  18F107F3x       Rx   d 8 38 A4 30 70 01 59 00 B8
 2.756500 2  CFF21CAx        Rx   d 8 1D 00 3D 16 3C 39 00 14
 2.757100 2  18F100D0x       Rx   d 8 0C FF FF FF FF FF FF FF
 2.757900 2  18F108F3x       Rx   d 8 00 00 00 00 00 00 00 00
 2.758700 2  18F155F3x       Rx   d 8 37 37 37 37 37 37 37 00
 2.759700 2  18F156F3x       Rx   d 8 00 00 00 00 00 00 00 00
 2.760600 2  18F157F3x       Rx   d 8 00 00 00 00 00 00 00 00
 2.761600 2  18F158F3x       Rx   d 8 00 00 00 00 00 00 00 00
 2.762500 2  18F159F3x       Rx   d 8 00 00 00 00 00 00 00 00
 2.763700 2  18F15AF3x       Rx   d 8 00 00 00 00 00 00 00 00
 2.764500 2  18F15BF3x       Rx   d 7 00 00 00 00 00 00 00 00
 2.765400 2  18F15CF3x       Rx   d 8 00 00 00 00 00 00 00 00
 2.766300 2  18F15DF3x       Rx   d 8 00 00 00 00 00 00 00 00
 2.767100 2  18F15EF3x       Rx   d 8 00 00 00 00 00 00 00 00
 2.767800 2  CFF21CAx        Rx   d 8 1D 00 3D 16 3C 39 00 14
 2.780300 2  CFF21CAx        Rx   d 8 1D 00 3D 16 3C 39 00 14
 2.780900 2  18F100D0x       Rx   d 8 0C FF FF FF FF FF FF FF
 2.792000 2  CFF21CAx        Rx   d 8 1D 00 3E 16 3C 39 00 14
 2.804400 2  CFF21CAx        Rx   d 8 1D 00 3D 16 3C 39 00 14
 2.805000 2  18F100D0x       Rx   d 8 0C FF FF FF FF FF FF FF
 2.816000 2  CFF21CAx        Rx   d 8 1E 00 3E 16 3C 39 00 14
 2.828500 2  CFF21CAx        Rx   d 8 1E 00 3D 16 3C 39 00 14
 2.829000 2  18F100D0x       Rx   d 8 0C FF FF FF FF FF FF FF
 2.840100 2  CFF21CAx        Rx   d 8 1D 00 3D 16 3C 39 00 14
 2.851200 2  18FF2112x       Rx   d 8 01 00 00 00 00 00 00 00
 2.851800 2  18F100F3x       Rx   d 8 02 FF 7E 0C B1 FA 14 00
 2.852600 2  CFF21CAx        Rx   d 8 1D 00 3D 16 3C 39 00 14
 2.853100 2  18F100D0x       Rx   d 8 0C FF FF FF FF FF FF FF
 2.853700 2  18F102F3x       Rx   d 8 0E FE 0E F8 10 02 00 06
 2.855000 2  18F106F3x       Rx   d 8 45 E0 FC FF FF FF FF FF
 2.856200 2  18F107F3x       Rx   d 8 38 A4 30 70 01 59 00 B8
 2.858000 2  18F108F3x       Rx   d 8 00 00 00 00 00 00 00 00
 2.858900 2  18F155F3x       Rx   d 8 37 37 37 37 37 37 37 00
 2.859800 2  18F156F3x       Rx   d 8 00 00 00 00 00 00 00 00
 2.860600 2  18F157F3x       Rx   d 8 00 00 00 00 00 00 00 00
 2.861500 2  18F158F3x       Rx   d 8 00 00 00 00 00 00 00 00
 2.862500 2  18F159F3x       Rx   d 8 00 00 00 00 00 00 00 00
 2.863600 2  18F15AF3x       Rx   d 8 00 00 00 00 00 00 00 00
 2.864200 2  CFF21CAx        Rx   d 8 1D 00 3D 16 3C 39 00 14
 2.864700 2  18F15BF3x       Rx   d 7 00 00 00 00 00 00 00 00
 2.865600 2  18F15CF3x       Rx   d 8 00 00 00 00 00 00 00 00
 2.866500 2  18F15DF3x       Rx   d 8 00 00 00 00 00 00 00 00
 2.867400 2  18F15EF3x       Rx   d 8 00 00 00 00 00 00 00 00
 2.876700 2  CFF21CAx        Rx   d 8 1D 00 3D 16 3C 39 00 14
 2.877300 2  18F100D0x       Rx   d 8 0C FF FF FF FF FF FF FF
 2.888200 2  CFF21CAx        Rx   d 8 1D 00 3D 16 3C 39 00 14
 2.900700 2  CFF21CAx        Rx   d 8 1D 00 3D 16 3C 39 00 14
 2.901300 2  18F100D0x       Rx   d 8 0C FF FF FF FF FF FF FF
 2.912200 2  CFF21CAx        Rx   d 8 1D 00 3A 16 3C 39 00 14
 2.924700 2  CFF21CAx        Rx   d 8 1D 00 3F 16 3C 39 00 14
 2.925300 2  18F100D0x       Rx   d 8 0C FF FF FF FF FF FF FF
 2.936300 2  CFF21CAx        Rx   d 8 1D 00 3B 16 3C 39 00 14
 2.948400 2  18FF2112x       Rx   d 8 01 00 00 00 00 00 00 00
 2.948900 2  CFF21CAx        Rx   d 8 1D 00 40 16 3C 39 00 14
 2.949500 2  18F100D0x       Rx   d 8 0C FF FF FF FF FF FF FF
 2.951500 2  18F100F3x       Rx   d 8 02 FF 7E 0C B1 FA 14 00
 2.952400 2  18F102F3x       Rx   d 8 0E FE 0E F8 10 02 00 06
 2.954000 2  18F106F3x       Rx   d 8 45 E0 FC FF FF FF FF FF
 2.955300 2  18F107F3x       Rx   d 8 38 A4 30 70 01 59 00 B8
 2.957000 2  18F108F3x       Rx   d 8 00 00 00 00 00 00 00 00
 2.957900 2  18F155F3x       Rx   d 8 37 37 37 37 37 37 37 00
 2.958800 2  18F156F3x       Rx   d 8 00 00 00 00 00 00 00 00
 2.959700 2  18F157F3x       Rx   d 8 00 00 00 00 00 00 00 00
 2.960400 2  CFF21CAx        Rx   d 8 1D 00 3B 16 3C 39 00 14
 2.961000 2  18F158F3x       Rx   d 8 00 00 00 00 00 00 00 00
 2.961800 2  18F159F3x       Rx   d 8 00 00 00 00 00 00 00 00
 2.962700 2  18F15AF3x       Rx   d 8 00 00 00 00 00 00 00 00
 2.963600 2  18F15BF3x       Rx   d 7 00 00 00 00 00 00 00 00
 2.964400 2  18F15CF3x       Rx   d 8 00 00 00 00 00 00 00 00
 2.965300 2  18F15DF3x       Rx   d 8 00 00 00 00 00 00 00 00
 2.966200 2  18F15EF3x       Rx   d 8 00 00 00 00 00 00 00 00
 2.972900 2  CFF21CAx        Rx   d 8 1C 00 40 16 3C 39 00 14
 2.976500 2  18F100D0x       Rx   d 8 0C FF FF FF FF FF FF FF
 2.984500 2  CFF21CAx        Rx   d 8 1C 00 3A 16 3C 39 00 14
 2.997000 2  CFF21CAx        Rx   d 8 1C 00 3C 16 3C 39 00 14
 3.000500 2  18F100D0x       Rx   d 8 0C FF FF FF FF FF FF FF
 3.008500 2  CFF21CAx        Rx   d 8 1C 00 3E 16 3C 39 00 14
 3.020600 2  CFF21CAx        Rx   d 8 1C 00 3B 16 3C 39 00 14
 3.024600 2  18F100D0x       Rx   d 8 0C FF FF FF FF FF FF FF
 3.032600 2  CFF21CAx        Rx   d 8 1C 00 3D 16 3C 39 00 14
 3.045100 2  CFF21CAx        Rx   d 8 1C 00 3B 16 3C 39 00 14
 3.045700 2  18FF2112x       Rx   d 8 01 00 00 00 00 00 00 00
 3.048700 2  18F100D0x       Rx   d 8 0C FF FF FF FF FF FF FF
 3.051400 2  18F100F3x       Rx   d 8 02 FF 7E 09 B1 FA 14 00
 3.052300 2  18F102F3x       Rx   d 8 0E FE 0E F8 10 02 00 06
 3.053900 2  18F106F3x       Rx   d 8 45 E0 FC FF FF FF FF FF
 3.055200 2  18F107F3x       Rx   d 8 38 A4 30 70 01 59 00 B8
 3.056900 2  18F108F3x       Rx   d 8 00 00 00 00 00 00 00 00
 3.057500 2  CFF21CAx        Rx   d 8 1C 00 3E 16 3C 39 00 14
 3.058000 2  18F155F3x       Rx   d 8 37 37 37 37 37 37 37 00
 3.058900 2  18F156F3x       Rx   d 8 00 00 00 00 00 00 00 00
 3.059800 2  18F157F3x       Rx   d 8 00 00 00 00 00 00 00 00
 3.060700 2  18F158F3x       Rx   d 8 00 00 00 00 00 00 00 00
 3.061500 2  18F159F3x       Rx   d 8 00 00 00 00 00 00 00 00
 3.062400 2  18F15AF3x       Rx   d 8 00 00 00 00 00 00 00 00
 3.063400 2  18F15BF3x       Rx   d 7 00 00 00 00 00 00 00 00
 3.064300 2  18F15CF3x       Rx   d 8 00 00 00 00 00 00 00 00
 3.065200 2  18F15DF3x       Rx   d 8 00 00 00 00 00 00 00 00
 3.066100 2  18F15EF3x       Rx   d 8 00 00 00 00 00 00 00 00
 3.068700 2  CFF21CAx        Rx   d 8 1C 00 3E 16 3C 39 00 14
 3.072700 2  18F100D0x       Rx   d 8 0C FF FF FF FF FF FF FF
 3.080800 2  CFF21CAx        Rx   d 8 1D 00 3D 16 3C 39 00 14
 3.092800 2  CFF21CAx        Rx   d 8 1D 00 3D 16 3C 39 00 14
 3.096800 2  18F100D0x       Rx   d 8 0C FF FF FF FF FF FF FF
 3.104800 2  CFF21CAx        Rx   d 8 1D 00 3E 16 3C 39 00 14
 3.116800 2  CFF21CAx        Rx   d 8 1D 00 3E 16 3C 39 00 14
 3.120900 2  18F100D0x       Rx   d 8 0C FF FF FF FF FF FF FF
 3.127800 2  18F104F3x       Rx   d 8 37 37 01 01 00 FF FF FF
 3.128700 2  18F113F3x       Rx   d 8 0E F9 0E F8 0E FA 0E FA
 3.129200 2  CFF21CAx        Rx   d 8 1D 00 3E 16 3C 39 00 14
 3.129800 2  18F114F3x       Rx   d 8 0E FA 0E F8 0E FB 0E FA
 3.130700 2  18F115F3x       Rx   d 8 0E F8 0E F8 0E F9 0E F8
 3.131600 2  18F116F3x       Rx   d 8 0E FC 0E FA 0E FC 0E FE
 3.132600 2  18F117F3x       Rx   d 8 0E FA 0E FB 0E FE 0E FD
 3.133500 2  18F118F3x       Rx   d 8 00 00 00 00 00 00 00 00
 3.134400 2  18F119F3x       Rx   d 8 00 00 00 00 00 00 00 00
 3.135300 2  18F11AF3x       Rx   d 8 00 00 00 00 00 00 00 00
 3.136300 2  18F11BF3x       Rx   d 8 00 00 00 00 00 00 00 00
 3.137200 2  18F11CF3x       Rx   d 8 00 00 00 00 00 00 00 00
 3.138200 2  18F11DF3x       Rx   d 8 00 00 00 00 00 00 00 00
 3.139200 2  18F11EF3x       Rx   d 8 00 00 00 00 00 00 00 00
 3.140100 2  18F11FF3x       Rx   d 8 00 00 00 00 00 00 00 00
 3.140900 2  CFF21CAx        Rx   d 8 1D 00 3A 16 3C 39 00 14
 3.141500 2  18F120F3x       Rx   d 8 00 00 00 00 00 00 00 00
 3.142400 2  18F121F3x       Rx   d 8 00 00 00 00 00 00 00 00
 3.143000 2  18FF2112x       Rx   d 8 01 00 00 00 00 00 00 00
 3.143500 2  18F122F3x       Rx   d 8 00 00 00 00 00 00 00 00
 3.144400 2  18F123F3x       Rx   d 8 00 00 00 00 00 00 00 00
 3.145000 2  18F100D0x       Rx   d 8 0C FF FF FF FF FF FF FF
 3.145600 2  18F124F3x       Rx   d 8 00 00 00 00 00 00 00 00
 3.146500 2  18F125F3x       Rx   d 8 00 00 00 00 00 00 00 00
 3.147400 2  18F126F3x       Rx   d 8 00 00 00 00 00 00 00 00
 3.148300 2  18F127F3x       Rx   d 8 00 00 00 00 00 00 00 00
 3.149200 2  18F128F3x       Rx   d 8 00 00 00 00 00 00 00 00
 3.150100 2  18F129F3x       Rx   d 8 00 00 00 00 00 00 00 00
 3.151000 2  18F12AF3x       Rx   d 8 00 00 00 00 00 00 00 00
 3.152000 2  18F100F3x       Rx   d 8 02 FF 7E 09 B1 FA 14 00
 3.153200 2  18F102F3x       Rx   d 8 0E FE 0E F8 10 02 00 06
 3.153700 2  CFF21CAx        Rx   d 8 1D 00 39 16 3C 39 00 14
 3.154500 2  18F106F3x       Rx   d 8 45 E0 FC FF FF FF FF FF
 3.155800 2  18F107F3x       Rx   d 8 38 A4 30 70 01 59 00 B8
 3.157600 2  18F108F3x       Rx   d 8 00 00 00 00 00 00 00 00
 3.158500 2  18F12BF3x       Rx   d 8 00 00 00 00 00 00 00 00
 3.159400 2  18F12CF3x       Rx   d 8 00 00 00 00 00 00 00 00
 3.160300 2  18F12DF3x       Rx   d 8 00 00 00 00 00 00 00 00
 3.161200 2  18F12EF3x       Rx   d 8 00 00 00 00 00 00 00 00
 3.162100 2  18F12FF3x       Rx   d 8 00 00 00 00 00 00 00 00
 3.163300 2  18F130F3x       Rx   d 8 00 00 00 00 00 00 00 00
 3.164200 2  18F131F3x       Rx   d 8 00 00 00 00 00 00 00 00
 3.165000 2  CFF21CAx        Rx   d 8 1D 00 39 16 3C 39 00 14
 3.165500 2  18F132F3x       Rx   d 8 00 00 00 00 00 00 00 00
 3.166400 2  18F133F3x       Rx   d 8 00 00 00 00 00 00 00 00
 3.167300 2  18F134F3x       Rx   d 8 00 00 00 00 00 00 00 00
 3.168200 2  18F135F3x       Rx   d 8 00 00 00 00 00 00 00 00
 3.169000 2  18F100D0x       Rx   d 8 0C FF FF FF FF FF FF FF
 3.169600 2  18F136F3x       Rx   d 8 00 00 00 00 00 00 00 00
 3.170500 2  18F137F3x       Rx   d 8 00 00 00 00 00 00 00 00
 3.171300 2  18F138F3x       Rx   d 8 00 00 00 00 00 00 00 00
 3.172200 2  18F139F3x       Rx   d 8 00 00 00 00 00 00 00 00
 3.173400 2  18F13AF3x       Rx   d 8 00 00 00 00 00 00 00 00
 3.174200 2  18F13BF3x       Rx   d 8 00 00 00 00 00 00 00 00
 3.175100 2  18F13CF3x       Rx   d 8 00 00 00 00 00 00 00 00
 3.176000 2  18F155F3x       Rx   d 8 37 37 37 37 37 37 37 00
 3.177000 2  18F156F3x       Rx   d 8 00 00 00 00 00 00 00 00
 3.177500 2  CFF21CAx        Rx   d 8 1D 00 3F 16 3C 39 00 14
 3.178100 2  18F157F3x       Rx   d 8 00 00 00 00 00 00 00 00
 3.179000 2  18F158F3x       Rx   d 8 00 00 00 00 00 00 00 00
 3.179900 2  18F159F3x       Rx   d 8 00 00 00 00 00 00 00 00
 3.180800 2  18F15AF3x       Rx   d 8 00 00 00 00 00 00 00 00
 3.181600 2  18F15BF3x       Rx   d 7 00 00 00 00 00 00 00 00
 3.182500 2  18F15CF3x       Rx   d 8 00 00 00 00 00 00 00 00
 3.183400 2  18F15DF3x       Rx   d 8 00 00 00 00 00 00 00 00
 3.184200 2  18F15EF3x       Rx   d 8 00 00 00 00 00 00 00 00
 3.189000 2  CFF21CAx        Rx   d 8 1D 00 3B 16 3C 39 00 14
 3.193100 2  18F100D0x       Rx   d 8 0C FF FF FF FF FF FF FF
 3.201100 2  CFF21CAx        Rx   d 8 1E 00 3F 16 3C 39 00 14
 3.213100 2  CFF21CAx        Rx   d 8 1E 00 3E 16 3C 39 00 14
 3.217100 2  18F100D0x       Rx   d 8 0C FF FF FF FF FF FF FF
 3.225100 2  CFF21CAx        Rx   d 8 1E 00 3E 16 3C 39 00 14
 3.237200 2  CFF21CAx        Rx   d 8 1E 00 3E 16 3C 39 00 14
 3.239900 2  18FF2112x       Rx   d 8 01 00 00 00 00 00 00 00
 3.245200 2  18F100D0x       Rx   d 8 0C FF FF FF FF FF FF FF
 3.249200 2  CFF21CAx        Rx   d 8 1E 00 3D 16 3C 39 00 14
 3.251200 2  18F100F3x       Rx   d 8 02 FF 7E 09 B1 FA 14 00
 3.252100 2  18F102F3x       Rx   d 8 0E FE 0E F8 10 02 00 06
 3.253600 2  18F106F3x       Rx   d 8 45 E0 FC FF FF FF FF FF
 3.254900 2  18F107F3x       Rx   d 8 38 A4 30 70 01 59 00 B8
 3.256700 2  18F108F3x       Rx   d 8 00 00 00 00 00 00 00 00
 3.257500 2  18F155F3x       Rx   d 8 37 37 37 37 37 37 37 00
 3.258400 2  18F156F3x       Rx   d 8 00 00 00 00 00 00 00 00
 3.259300 2  18F157F3x       Rx   d 8 00 00 00 00 00 00 00 00
 3.260200 2  18F158F3x       Rx   d 8 00 00 00 00 00 00 00 00
 3.261100 2  18F159F3x       Rx   d 8 00 00 00 00 00 00 00 00
 3.261600 2  CFF21CAx        Rx   d 8 1E 00 3E 16 3C 39 00 14
 3.262200 2  18F15AF3x       Rx   d 8 00 00 00 00 00 00 00 00
 3.263200 2  18F15BF3x       Rx   d 7 00 00 00 00 00 00 00 00
 3.264100 2  18F15CF3x       Rx   d 8 00 00 00 00 00 00 00 00
 3.265000 2  18F15DF3x       Rx   d 8 00 00 00 00 00 00 00 00
 3.265900 2  18F15EF3x       Rx   d 8 00 00 00 00 00 00 00 00
 3.269300 2  18F100D0x       Rx   d 8 0C FF FF FF FF FF FF FF
 3.273700 2  CFF21CAx        Rx   d 8 1E 00 3E 16 3C 39 00 14
 3.285300 2  CFF21CAx        Rx   d 8 1E 00 3C 16 3C 39 00 14
 3.293400 2  18F100D0x       Rx   d 8 0C FF FF FF FF FF FF FF
 3.297400 2  CFF21CAx        Rx   d 8 1E 00 3D 16 3C 39 00 14
 3.309400 2  CFF21CAx        Rx   d 8 1E 00 3D 16 3C 39 00 14
 3.317400 2  18F100D0x       Rx   d 8 0C FF FF FF FF FF FF FF
 3.321500 2  CFF21CAx        Rx   d 8 1E 00 3D 16 3C 39 00 14
 3.333500 2  CFF21CAx        Rx   d 8 1D 00 3D 16 3C 39 00 14
 3.337000 2  18FF2112x       Rx   d 8 01 00 00 00 00 00 00 00
 3.341500 2  18F100D0x       Rx   d 8 0C FF FF FF FF FF FF FF
 3.345500 2  CFF21CAx        Rx   d 8 1D 00 3D 16 3C 39 00 14
 3.351100 2  18F100F3x       Rx   d 8 02 FF 7E 06 B1 FA 14 00
 3.351900 2  18F102F3x       Rx   d 8 0E FE 0E F7 10 0C 00 07
 3.353500 2  18F106F3x       Rx   d 8 45 E0 FC FF FF FF FF FF
 3.354800 2  18F107F3x       Rx   d 8 38 A4 30 70 01 59 00 B8
 3.356600 2  18F108F3x       Rx   d 8 00 00 00 00 00 00 00 00
 3.357400 2  18F155F3x       Rx   d 8 37 37 37 37 37 37 37 00
 3.358000 2  CFF21CAx        Rx   d 8 1E 00 3C 16 3C 39 00 14
 3.358600 2  18F156F3x       Rx   d 8 00 00 00 00 00 00 00 00
 3.359400 2  18F157F3x       Rx   d 8 00 00 00 00 00 00 00 00
 3.360300 2  18F158F3x       Rx   d 8 00 00 00 00 00 00 00 00
 3.361200 2  18F159F3x       Rx   d 8 00 00 00 00 00 00 00 00
 3.362100 2  18F15AF3x       Rx   d 8 00 00 00 00 00 00 00 00
 3.363100 2  18F15BF3x       Rx   d 7 00 00 00 00 00 00 00 00
 3.364000 2  18F15CF3x       Rx   d 8 00 00 00 00 00 00 00 00
 3.364900 2  18F15DF3x       Rx   d 8 00 00 00 00 00 00 00 00
 3.365700 2  18F15EF3x       Rx   d 8 00 00 00 00 00 00 00 00
 3.370000 2  CFF21CAx        Rx   d 8 1E 00 3D 16 3C 39 00 14
 3.370500 2  18F100D0x       Rx   d 8 0C FF FF FF FF FF FF FF
 3.381600 2  CFF21CAx        Rx   d 8 1E 00 3D 16 3C 39 00 14
 3.393700 2  CFF21CAx        Rx   d 8 1D 00 3C 16 3C 39 00 14
 3.394300 2  18F100D0x       Rx   d 8 0C FF FF FF FF FF FF FF
 3.405700 2  CFF21CAx        Rx   d 8 1D 00 3D 16 3C 39 00 14
 3.418100 2  CFF21CAx        Rx   d 8 1D 00 3D 16 3C 39 00 14
 3.418700 2  18F100D0x       Rx   d 8 0C FF FF FF FF FF FF FF
 3.429700 2  CFF21CAx        Rx   d 8 1D 00 3D 16 3C 39 00 14
 3.434200 2  18FF2112x       Rx   d 8 01 00 00 00 00 00 00 00
 3.442200 2  CFF21CAx        Rx   d 8 1D 00 40 16 3C 39 00 14
 3.442700 2  18F100D0x       Rx   d 8 0C FF FF FF FF FF FF FF
 3.450900 2  18F100F3x       Rx   d 8 02 FF 7E 06 B1 FA 14 00
 3.451800 2  18F102F3x       Rx   d 8 0E FE 0E F7 10 0C 00 07
 3.453400 2  18F106F3x       Rx   d 8 45 E0 FC FF FF FF FF FF
 3.454200 2  CFF21CAx        Rx   d 8 1D 00 3C 16 3C 39 00 14
 3.454800 2  18F107F3x       Rx   d 8 38 A4 30 70 01 59 00 B8
 3.456600 2  18F108F3x       Rx   d 8 00 00 00 00 00 00 00 00
 3.457500 2  18F155F3x       Rx   d 8 37 37 37 37 37 37 37 00
 3.458400 2  18F156F3x       Rx   d 8 00 00 00 00 00 00 00 00
 3.459300 2  18F157F3x       Rx   d 8 00 00 00 00 00 00 00 00
 3.460200 2  18F158F3x       Rx   d 8 00 00 00 00 00 00 00 00
 3.461000 2  18F159F3x       Rx   d 8 00 00 00 00 00 00 00 00
 3.461900 2  18F15AF3x       Rx   d 8 00 00 00 00 00 00 00 00
 3.463000 2  18F15BF3x       Rx   d 7 00 00 00 00 00 00 00 00
 3.463800 2  18F15CF3x       Rx   d 8 00 00 00 00 00 00 00 00
 3.464700 2  18F15DF3x       Rx   d 8 00 00 00 00 00 00 00 00
 3.465600 2  18F15EF3x       Rx   d 8 00 00 00 00 00 00 00 00
 3.466300 2  CFF21CAx        Rx   d 8 1D 00 40 16 3C 39 00 14
 3.466900 2  18F100D0x       Rx   d 8 0C FF FF FF FF FF FF FF
 3.477900 2  CFF21CAx        Rx   d 8 1D 00 3C 16 3C 39 00 14
 3.490300 2  CFF21CAx        Rx   d 8 1E 00 40 16 3C 39 00 14
 3.490900 2  18F100D0x       Rx   d 8 0C FF FF FF FF FF FF FF
 3.501900 2  CFF21CAx        Rx   d 8 1E 00 3B 16 3C 39 00 14
 3.514600 2  CFF21CAx        Rx   d 8 1E 00 3C 16 3C 39 00 14
 3.515100 2  18F100D0x       Rx   d 8 0C FF FF FF FF FF FF FF
 3.526000 2  CFF21CAx        Rx   d 8 1E 00 3B 16 3C 39 00 14
 3.531300 2  18FF2112x       Rx   d 8 01 00 00 00 00 00 00 00
 3.538400 2  CFF21CAx        Rx   d 8 1E 00 3C 16 3C 39 00 14
 3.539000 2  18F100D0x       Rx   d 8 0C FF FF FF FF FF FF FF
 3.550100 2  CFF21CAx        Rx   d 8 1E 00 3B 16 3C 39 00 14
 3.550800 2  18F100F3x       Rx   d 8 02 FF 7E 06 B1 FA 14 00
 3.551700 2  18F102F3x       Rx   d 8 0E FE 0E F7 10 0C 00 07
 3.553300 2  18F106F3x       Rx   d 8 45 E0 FC FF FF FF FF FF
 3.554600 2  18F107F3x       Rx   d 8 38 A4 30 70 01 59 00 B8
 3.556300 2  18F108F3x       Rx   d 8 00 00 00 00 00 00 00 00
 3.557200 2  18F155F3x       Rx   d 8 37 37 37 37 37 37 37 00
 3.558100 2  18F156F3x       Rx   d 8 00 00 00 00 00 00 00 00
 3.558900 2  18F157F3x       Rx   d 8 00 00 00 00 00 00 00 00
 3.559800 2  18F158F3x       Rx   d 8 00 00 00 00 00 00 00 00
 3.560700 2  18F159F3x       Rx   d 8 00 00 00 00 00 00 00 00
 3.561600 2  18F15AF3x       Rx   d 8 00 00 00 00 00 00 00 00
 3.562600 2  CFF21CAx        Rx   d 8 1E 00 3D 16 3C 39 00 14
 3.563100 2  18F100D0x       Rx   d 8 0C FF FF FF FF FF FF FF
 3.563700 2  18F15BF3x       Rx   d 7 00 00 00 00 00 00 00 00
 3.564600 2  18F15CF3x       Rx   d 8 00 00 00 00 00 00 00 00
 3.565500 2  18F15DF3x       Rx   d 8 00 00 00 00 00 00 00 00
 3.566300 2  18F15EF3x       Rx   d 8 00 00 00 00 00 00 00 00
 3.574100 2  CFF21CAx        Rx   d 8 1E 00 3C 16 3C 39 00 14
 3.586200 2  CFF21CAx        Rx   d 8 1E 00 3D 16 3C 39 00 14
 3.586800 2  18F100D0x       Rx   d 8 0C FF FF FF FF FF FF FF
 3.598200 2  CFF21CAx        Rx   d 8 1E 00 3B 16 3C 39 00 14
 3.610700 2  CFF21CAx        Rx   d 8 1E 00 3D 16 3C 39 00 14
 3.611300 2  18F100D0x       Rx   d 8 0C FF FF FF FF FF FF FF
 3.622300 2  CFF21CAx        Rx   d 8 1E 00 3C 16 3C 39 00 14
 3.628500 2  18FF2112x       Rx   d 8 01 00 00 00 00 00 00 00
 3.634800 2  CFF21CAx        Rx   d 8 1E 00 3B 16 3C 39 00 14
 3.635300 2  18F100D0x       Rx   d 8 0C FF FF FF FF FF FF FF
 3.646300 2  CFF21CAx        Rx   d 8 1E 00 3D 16 3C 39 00 14
 3.650700 2  18F100F3x       Rx   d 8 02 FF 7E 06 B1 FA 14 00
