date Tue May 26 08:59:25.081 PM 2026
base hex  timestamps absolute
internal events logged
// version 8.0.0
Begin Triggerblock Tue May 26 08:59:25.081 PM 2026
   0.000000 Start of measurement
   0.000000 1  CFF21CAx        Rx   d 8 03 00 80 0C 48 40 00 10
   0.012000 1  CFF21CAx        Rx   d 8 03 00 80 0C 48 40 00 10
   0.013000 1  18F100D0x       Rx   d 8 0C FF FF FF FF FF FF FF
   0.024000 1  CFF21CAx        Rx   d 8 03 00 80 0C 48 40 00 10
   0.027000 1  18FF2112x       Rx   d 8 01 00 00 00 00 00 00 00
   0.030000 1  18F100F3x       Rx   d 8 02 D9 7D AB 7E FA 14 00
   0.031000 1  18F102F3x       Rx   d 8 0E 3F 0E 3B 0F 02 00 04
   0.033000 1  18F106F3x       Rx   d 8 45 E0 FC FF FF FF FF FF
   0.034000 1  18F107F3x       Rx   d 8 38 A4 30 70 01 48 00 AF
   0.036000 1  18F108F3x       Rx   d 8 00 00 00 00 00 00 00 00
   0.037000 1  18F155F3x       Rx   d 8 36 35 36 36 35 36 36 00
   0.038000 1  18F156F3x       Rx   d 8 00 00 00 00 00 00 00 00
   0.079000 1  CFF21CAx        Rx   d 8 02 00 80 0C 48 40 00 10
   0.081000 1  18F100D0x       Rx   d 8 0C FF FF FF FF FF FF FF
   0.083000 1  18F157F3x       Rx   d 8 00 00 00 00 00 00 00 00
   0.084000 1  18F158F3x       Rx   d 8 00 00 00 00 00 00 00 00
   0.086000 1  18F159F3x       Rx   d 8 00 00 00 00 00 00 00 00
   0.088000 1  18F15AF3x       Rx   d 8 00 00 00 00 00 00 00 00
   0.090000 1  18F15BF3x       Rx   d 7 00 00 00 00 00 00 00
   0.092000 1  18F15CF3x       Rx   d 8 00 00 00 00 00 00 00 00
   0.093000 1  18F15DF3x       Rx   d 8 00 00 00 00 00 00 00 00
   0.095000 1  18F15EF3x       Rx   d 8 00 00 00 00 00 00 00 00
   0.097000 1  CFF21CAx        Rx   d 8 02 00 80 0C 48 40 00 10
   0.099000 1  CFF21CAx        Rx   d 8 02 00 80 0C 48 40 00 10
   0.100000 1  18F100D0x       Rx   d 8 0C FF FF FF FF FF FF FF
   0.102000 1  CFF21CAx        Rx   d 8 02 00 80 0C 48 40 00 10
   0.103000 1  CFF21CAx        Rx   d 8 02 00 80 0C 48 40 00 10
   0.105000 1  18F100D0x       Rx   d 8 0C FF FF FF FF FF FF FF
   0.107000 1  CFF21CAx        Rx   d 8 02 00 80 0C 48 40 00 10
   0.108000 1  CFF21CAx        Rx   d 8 02 00 80 0C 48 40 00 10
   0.113000 1  18F100D0x       Rx   d 8 0C FF FF FF FF FF FF FF
   0.121000 1  CFF21CAx        Rx   d 8 02 00 80 0C 48 40 00 10
   0.124000 1  18FF2112x       Rx   d 8 01 00 00 00 00 00 00 00
   0.129000 1  18F100F3x       Rx   d 8 02 D9 7D AB 7E FA 14 00
   0.130000 1  18F102F3x       Rx   d 8 0E 3F 0E 3B 0F 02 00 04
   0.132000 1  18F106F3x       Rx   d 8 45 E0 FC FF FF FF FF FF
   0.133000 1  18F107F3x       Rx   d 8 38 A4 30 70 01 48 00 AF
   0.134000 1  CFF21CAx        Rx   d 8 02 00 80 0C 48 40 00 10
   0.136000 1  18F108F3x       Rx   d 8 00 00 00 00 00 00 00 00
   0.166000 1  18F155F3x       Rx   d 8 36 35 36 36 35 36 36 00
   0.184000 1  18F156F3x       Rx   d 8 00 00 00 00 00 00 00 00
   0.185000 1  18F100D0x       Rx   d 8 0C FF FF FF FF FF FF FF
   0.187000 1  18F157F3x       Rx   d 8 00 00 00 00 00 00 00 00
   0.189000 1  18F158F3x       Rx   d 8 00 00 00 00 00 00 00 00
   0.191000 1  18F159F3x       Rx   d 8 00 00 00 00 00 00 00 00
   0.193000 1  18F15AF3x       Rx   d 8 00 00 00 00 00 00 00 00
   0.194000 1  18F15BF3x       Rx   d 7 00 00 00 00 00 00 00
   0.196000 1  18F15CF3x       Rx   d 8 00 00 00 00 00 00 00 00
   0.198000 1  18F15DF3x       Rx   d 8 00 00 00 00 00 00 00 00
   0.200000 1  18F15EF3x       Rx   d 8 00 00 00 00 00 00 00 00
   0.202000 1  CFF21CAx        Rx   d 8 02 00 80 0C 48 40 00 10
   0.204000 1  CFF21CAx        Rx   d 8 03 00 80 0C 48 40 00 10
   0.206000 1  18F100D0x       Rx   d 8 0C FF FF FF FF FF FF FF
   0.207000 1  CFF21CAx        Rx   d 8 03 00 80 0C 48 40 00 10
   0.209000 1  CFF21CAx        Rx   d 8 03 00 80 0C 48 40 00 10
   0.211000 1  18F100D0x       Rx   d 8 0C FF FF FF FF FF FF FF
   0.213000 1  CFF21CAx        Rx   d 8 03 00 80 0C 48 40 00 10
   0.215000 1  CFF21CAx        Rx   d 8 03 00 80 0C 48 40 00 10
   0.217000 1  18F100D0x       Rx   d 8 0C FF FF FF FF FF FF FF
   0.219000 1  CFF21CAx        Rx   d 8 02 00 80 0C 48 40 00 10
   0.222000 1  18FF2112x       Rx   d 8 01 00 00 00 00 00 00 00
   0.229000 1  18F100F3x       Rx   d 8 02 D9 7D AB 7E FA 14 00
   0.230000 1  CFF21CAx        Rx   d 8 02 00 80 0C 48 40 00 10
   0.232000 1  18F102F3x       Rx   d 8 0E 3F 0E 3B 0F 02 00 04
   0.233000 1  18F106F3x       Rx   d 8 45 E0 FC FF FF FF FF FF
   0.235000 1  18F107F3x       Rx   d 8 38 A4 30 70 01 48 00 AF
   0.236000 1  18F108F3x       Rx   d 8 00 00 00 00 00 00 00 00
   0.237000 1  18F155F3x       Rx   d 8 36 35 36 36 35 36 36 00
   0.239000 1  18F156F3x       Rx   d 8 00 00 00 00 00 00 00 00
   0.286000 1  18F100D0x       Rx   d 8 0C FF FF FF FF FF FF FF
   0.288000 1  18F157F3x       Rx   d 8 00 00 00 00 00 00 00 00
   0.290000 1  18F158F3x       Rx   d 8 00 00 00 00 00 00 00 00
   0.292000 1  18F159F3x       Rx   d 8 00 00 00 00 00 00 00 00
   0.293000 1  18F15AF3x       Rx   d 8 00 00 00 00 00 00 00 00
   0.295000 1  CFF21CAx        Rx   d 8 02 00 80 0C 48 40 00 10
   0.297000 1  18F15BF3x       Rx   d 7 00 00 00 00 00 00 00
   0.299000 1  18F15CF3x       Rx   d 8 00 00 00 00 00 00 00 00
   0.301000 1  18F15DF3x       Rx   d 8 00 00 00 00 00 00 00 00
   0.302000 1  18F15EF3x       Rx   d 8 00 00 00 00 00 00 00 00
   0.303000 1  CFF21CAx        Rx   d 8 02 00 80 0C 48 40 00 10
   0.305000 1  18F100D0x       Rx   d 8 0C FF FF FF FF FF FF FF
   0.306000 1  CFF21CAx        Rx   d 8 02 00 80 0C 48 40 00 10
   0.307000 1  CFF21CAx        Rx   d 8 02 00 80 0C 48 40 00 10
   0.318000 1  18F100D0x       Rx   d 8 0C FF FF FF FF FF FF FF
   0.320000 1  CFF21CAx        Rx   d 8 02 00 80 0C 48 40 00 10
   0.322000 1  CFF21CAx        Rx   d 8 02 00 80 0C 48 40 00 10
   0.324000 1  18F100D0x       Rx   d 8 0C FF FF FF FF FF FF FF
   0.326000 1  CFF21CAx        Rx   d 8 02 00 80 0C 48 40 00 10
   0.327000 1  18FF2112x       Rx   d 8 01 00 00 00 00 00 00 00
   0.329000 1  CFF21CAx        Rx   d 8 02 00 80 0C 48 40 00 10
   0.330000 1  18F100F3x       Rx   d 8 02 D9 7D AB 7E FA 14 00
   0.332000 1  18F102F3x       Rx   d 8 0E 3F 0E 3B 0F 02 00 04
   0.333000 1  18F106F3x       Rx   d 8 45 E0 FC FF FF FF FF FF
   0.335000 1  18F107F3x       Rx   d 8 38 A4 30 70 01 48 00 AF
   0.336000 1  18F100D0x       Rx   d 8 0C FF FF FF FF FF FF FF
   0.389000 1  18F108F3x       Rx   d 8 00 00 00 00 00 00 00 00
   0.390000 1  18F155F3x       Rx   d 8 36 35 36 36 35 36 36 00
   0.391000 1  18F156F3x       Rx   d 8 00 00 00 00 00 00 00 00
   0.393000 1  18F157F3x       Rx   d 8 00 00 00 00 00 00 00 00
   0.394000 1  CFF21CAx        Rx   d 8 02 00 80 0C 48 40 00 10
   0.396000 1  18F158F3x       Rx   d 8 00 00 00 00 00 00 00 00
   0.397000 1  18F159F3x       Rx   d 8 00 00 00 00 00 00 00 00
   0.398000 1  18F15AF3x       Rx   d 8 00 00 00 00 00 00 00 00
   0.428000 1  18F15BF3x       Rx   d 7 00 00 00 00 00 00 00
   0.434000 1  18F15CF3x       Rx   d 8 00 00 00 00 00 00 00 00
   0.436000 1  18F15DF3x       Rx   d 8 00 00 00 00 00 00 00 00
   0.437000 1  18F15EF3x       Rx   d 8 00 00 00 00 00 00 00 00
   0.438000 1  CFF21CAx        Rx   d 8 02 00 80 0C 48 40 00 10
   0.440000 1  CFF21CAx        Rx   d 8 02 00 80 0C 48 40 00 10
   0.441000 1  18F100D0x       Rx   d 8 0C FF FF FF FF FF FF FF
   0.442000 1  CFF21CAx        Rx   d 8 02 00 80 0C 48 40 00 10
   0.492000 1  CFF21CAx        Rx   d 8 02 00 80 0C 48 40 00 10
   0.498000 1  18F100D0x       Rx   d 8 0C FF FF FF FF FF FF FF
   0.499000 1  CFF21CAx        Rx   d 8 02 00 80 0C 48 40 00 10
   0.501000 1  CFF21CAx        Rx   d 8 02 00 80 0C 48 40 00 10
   0.502000 1  18F100D0x       Rx   d 8 0C FF FF FF FF FF FF FF
   0.503000 1  18FF2112x       Rx   d 8 01 00 00 00 00 00 00 00
   0.505000 1  CFF21CAx        Rx   d 8 02 00 80 0C 48 40 00 10
   0.506000 1  18F100F3x       Rx   d 8 02 D9 7D AB 7E FA 14 00
   0.507000 1  18F102F3x       Rx   d 8 0E 3F 0E 3B 0F 02 00 04
   0.522000 1  18F106F3x       Rx   d 8 45 E0 FC FF FF FF FF FF
   0.524000 1  18F107F3x       Rx   d 8 38 A4 30 70 01 48 00 AF
   0.553000 1  CFF21CAx        Rx   d 8 02 00 80 0C 48 40 00 10
   0.554000 1  18F100D0x       Rx   d 8 0C FF FF FF FF FF FF FF
   0.556000 1  18F108F3x       Rx   d 8 00 00 00 00 00 00 00 00
   0.557000 1  18F155F3x       Rx   d 8 36 35 36 36 35 36 36 00
   0.559000 1  18F156F3x       Rx   d 8 00 00 00 00 00 00 00 00
   0.560000 1  18F157F3x       Rx   d 8 00 00 00 00 00 00 00 00
   0.591000 1  18F158F3x       Rx   d 8 00 00 00 00 00 00 00 00
   0.593000 1  18F159F3x       Rx   d 8 00 00 00 00 00 00 00 00
   0.594000 1  18F15AF3x       Rx   d 8 00 00 00 00 00 00 00 00
   0.596000 1  18F15BF3x       Rx   d 7 00 00 00 00 00 00 00
   0.598000 1  18F15CF3x       Rx   d 8 00 00 00 00 00 00 00 00
   0.600000 1  18F15DF3x       Rx   d 8 00 00 00 00 00 00 00 00
   0.602000 1  18F15EF3x       Rx   d 8 00 00 00 00 00 00 00 00
   0.604000 1  CFF21CAx        Rx   d 8 02 00 80 0C 48 40 00 10
   0.606000 1  CFF21CAx        Rx   d 8 02 00 80 0C 48 40 00 10
   0.608000 1  18F100D0x       Rx   d 8 0C FF FF FF FF FF FF FF
   0.610000 1  CFF21CAx        Rx   d 8 02 00 80 0C 48 40 00 10
   0.612000 1  CFF21CAx        Rx   d 8 02 00 80 0C 48 40 00 10
   0.614000 1  18F100D0x       Rx   d 8 0C FF FF FF FF FF FF FF
   0.616000 1  CFF21CAx        Rx   d 8 02 00 80 0C 48 40 00 10
   0.617000 1  CFF21CAx        Rx   d 8 02 00 80 0C 48 40 00 10
   0.619000 1  18F100D0x       Rx   d 8 0C FF FF FF FF FF FF FF
   0.621000 1  18FF2112x       Rx   d 8 01 00 00 00 00 00 00 00
   0.623000 1  CFF21CAx        Rx   d 8 02 00 80 0C 48 40 00 10
   0.625000 1  18F100F3x       Rx   d 8 02 D9 7D AB 7E FA 14 00
   0.626000 1  18F102F3x       Rx   d 8 0E 3F 0E 3B 0F 02 00 04
   0.628000 1  CFF21CAx        Rx   d 8 02 00 80 0C 48 40 00 10
   0.630000 1  18F100D0x       Rx   d 8 0C FF FF FF FF FF FF FF
   0.631000 1  18F106F3x       Rx   d 8 45 E0 FC FF FF FF FF FF
   0.633000 1  18F107F3x       Rx   d 8 38 A4 30 70 01 48 00 AF
   0.635000 1  18F108F3x       Rx   d 8 00 00 00 00 00 00 00 00
   0.636000 1  18F104F3x       Rx   d 8 36 35 01 02 01 FF FF FF
   0.638000 1  18F113F3x       Rx   d 8 0E 3C 0E 3B 0E 3C 0E 3E
   0.640000 1  18F114F3x       Rx   d 8 0E 3D 0E 3D 0E 3E 0E 3C
   0.641000 1  18F115F3x       Rx   d 8 0E 3C 0E 3C 0E 3E 0E 3C
   0.694000 1  18F116F3x       Rx   d 8 0E 3E 0E 3D 0E 3F 0E 3E
   0.696000 1  18F117F3x       Rx   d 8 0E 3E 0E 3F 0E 3F 0E 3F
   0.697000 1  18F118F3x       Rx   d 8 00 00 00 00 00 00 00 00
   0.699000 1  18F119F3x       Rx   d 8 00 00 00 00 00 00 00 00
   0.701000 1  CFF21CAx        Rx   d 8 02 00 80 0C 48 40 00 10
   0.703000 1  18F11AF3x       Rx   d 8 00 00 00 00 00 00 00 00
   0.705000 1  18F11BF3x       Rx   d 8 00 00 00 00 00 00 00 00
   0.707000 1  18F11CF3x       Rx   d 8 00 00 00 00 00 00 00 00
   0.709000 1  18F11DF3x       Rx   d 8 00 00 00 00 00 00 00 00
   0.711000 1  18F11EF3x       Rx   d 8 00 00 00 00 00 00 00 00
   0.713000 1  18F11FF3x       Rx   d 8 00 00 00 00 00 00 00 00
   0.715000 1  18F120F3x       Rx   d 8 00 00 00 00 00 00 00 00
   0.716000 1  18F121F3x       Rx   d 8 00 00 00 00 00 00 00 00
   0.718000 1  18F100D0x       Rx   d 8 0C FF FF FF FF FF FF FF
   0.720000 1  18F122F3x       Rx   d 8 00 00 00 00 00 00 00 00
   0.722000 1  18F123F3x       Rx   d 8 00 00 00 00 00 00 00 00
   0.723000 1  18F124F3x       Rx   d 8 00 00 00 00 00 00 00 00
   0.725000 1  18F125F3x       Rx   d 8 00 00 00 00 00 00 00 00
   0.726000 1  CFF21CAx        Rx   d 8 02 00 80 0C 48 40 00 10
   0.727000 1  18F126F3x       Rx   d 8 00 00 00 00 00 00 00 00
   0.729000 1  18F127F3x       Rx   d 8 00 00 00 00 00 00 00 00
   0.730000 1  18F128F3x       Rx   d 8 00 00 00 00 00 00 00 00
   0.740000 1  18F129F3x       Rx   d 8 00 00 00 00 00 00 00 00
   0.741000 1  18F12AF3x       Rx   d 8 00 00 00 00 00 00 00 00
   0.802000 1  18F12BF3x       Rx   d 8 00 00 00 00 00 00 00 00
   0.804000 1  18F12CF3x       Rx   d 8 00 00 00 00 00 00 00 00
   0.805000 1  18F12DF3x       Rx   d 8 00 00 00 00 00 00 00 00
   0.807000 1  18F12EF3x       Rx   d 8 00 00 00 00 00 00 00 00
   0.809000 1  18F12FF3x       Rx   d 8 00 00 00 00 00 00 00 00
   0.811000 1  18F130F3x       Rx   d 8 00 00 00 00 00 00 00 00
   0.813000 1  18F131F3x       Rx   d 8 00 00 00 00 00 00 00 00
   0.815000 1  CFF21CAx        Rx   d 8 03 00 80 0C 48 40 00 10
   0.817000 1  18F132F3x       Rx   d 8 00 00 00 00 00 00 00 00
   0.819000 1  18F133F3x       Rx   d 8 00 00 00 00 00 00 00 00
   0.821000 1  18F134F3x       Rx   d 8 00 00 00 00 00 00 00 00
   0.823000 1  18F135F3x       Rx   d 8 00 00 00 00 00 00 00 00
   0.824000 1  18F136F3x       Rx   d 8 00 00 00 00 00 00 00 00
   0.826000 1  18F137F3x       Rx   d 8 00 00 00 00 00 00 00 00
   0.828000 1  18F138F3x       Rx   d 8 00 00 00 00 00 00 00 00
   0.830000 1  18F139F3x       Rx   d 8 00 00 00 00 00 00 00 00
   0.832000 1  18F13AF3x       Rx   d 8 00 00 00 00 00 00 00 00
   0.834000 1  18F13BF3x       Rx   d 8 00 00 00 00 00 00 00 00
   0.836000 1  18F13CF3x       Rx   d 8 00 00 00 00 00 00 00 00
   0.837000 1  18F155F3x       Rx   d 8 36 35 36 36 35 36 36 00
   0.839000 1  18F156F3x       Rx   d 8 00 00 00 00 00 00 00 00
   0.841000 1  CFF21CAx        Rx   d 8 03 00 80 0C 48 40 00 10
   0.843000 1  18F100D0x       Rx   d 8 0C FF FF FF FF FF FF FF
   0.844000 1  18F157F3x       Rx   d 8 00 00 00 00 00 00 00 00
   0.846000 1  18F158F3x       Rx   d 8 00 00 00 00 00 00 00 00
   0.847000 1  18F159F3x       Rx   d 8 00 00 00 00 00 00 00 00
   0.848000 1  18F15AF3x       Rx   d 8 00 00 00 00 00 00 00 00
   0.850000 1  18F15BF3x       Rx   d 7 00 00 00 00 00 00 00
   0.901000 1  18F15CF3x       Rx   d 8 00 00 00 00 00 00 00 00
   0.902000 1  18F15DF3x       Rx   d 8 00 00 00 00 00 00 00 00
   0.905000 1  18F15EF3x       Rx   d 8 00 00 00 00 00 00 00 00
   0.906000 1  CFF21CAx        Rx   d 8 03 00 80 0C 48 40 00 10
   0.908000 1  18F100D0x       Rx   d 8 0C FF FF FF FF FF FF FF
   0.910000 1  CFF21CAx        Rx   d 8 02 00 80 0C 48 40 00 10
   0.912000 1  18FF2112x       Rx   d 8 01 00 00 00 00 00 00 00
   0.914000 1  CFF21CAx        Rx   d 8 02 00 80 0C 48 40 00 10
   0.916000 1  CFF21CAx        Rx   d 8 02 00 80 0C 48 40 00 10
   0.917000 1  18F100D0x       Rx   d 8 0C FF FF FF FF FF FF FF
   0.919000 1  18F100F3x       Rx   d 8 02 D9 7D AB 7E FA 14 00
   0.921000 1  18F102F3x       Rx   d 8 0E 3F 0E 3B 0F 02 00 04
   0.923000 1  18F106F3x       Rx   d 8 45 E0 FC FF FF FF FF FF
   0.925000 1  18F107F3x       Rx   d 8 38 A4 30 70 01 48 00 AF
   0.927000 1  18F108F3x       Rx   d 8 00 00 00 00 00 00 00 00
   0.929000 1  18F155F3x       Rx   d 8 36 35 36 36 35 36 36 00
   0.931000 1  18F156F3x       Rx   d 8 00 00 00 00 00 00 00 00
   0.933000 1  18F157F3x       Rx   d 8 00 00 00 00 00 00 00 00
   0.934000 1  18F158F3x       Rx   d 8 00 00 00 00 00 00 00 00
   0.936000 1  CFF21CAx        Rx   d 8 02 00 80 0C 48 40 00 10
   0.938000 1  18F159F3x       Rx   d 8 00 00 00 00 00 00 00 00
   0.940000 1  18F15AF3x       Rx   d 8 00 00 00 00 00 00 00 00
   0.941000 1  18F15BF3x       Rx   d 7 00 00 00 00 00 00 00
   0.943000 1  18F15CF3x       Rx   d 8 00 00 00 00 00 00 00 00
   0.944000 1  18F15DF3x       Rx   d 8 00 00 00 00 00 00 00 00
   0.946000 1  18F15EF3x       Rx   d 8 00 00 00 00 00 00 00 00
   0.948000 1  CFF21CAx        Rx   d 8 02 00 80 0C 48 40 00 10
   0.949000 1  18F100D0x       Rx   d 8 0C FF FF FF FF FF FF FF
   1.005000 1  CFF21CAx        Rx   d 8 02 00 80 0C 48 40 00 10
   1.006000 1  CFF21CAx        Rx   d 8 02 00 80 0C 48 40 00 10
   1.009000 1  18F100D0x       Rx   d 8 0C FF FF FF FF FF FF FF
   1.010000 1  CFF21CAx        Rx   d 8 02 00 80 0C 48 40 00 10
   1.012000 1  CFF21CAx        Rx   d 8 02 00 80 0C 48 40 00 10
   1.014000 1  18F100D0x       Rx   d 8 0C FF FF FF FF FF FF FF
   1.016000 1  18FF2112x       Rx   d 8 01 00 00 00 00 00 00 00
   1.018000 1  CFF21CAx        Rx   d 8 02 00 80 0C 48 40 00 10
   1.020000 1  CFF21CAx        Rx   d 8 02 00 80 0C 48 40 00 10
   1.022000 1  18F100D0x       Rx   d 8 0C FF FF FF FF FF FF FF
   1.024000 1  18F100F3x       Rx   d 8 02 D9 7D AB 7E FA 14 00
   1.026000 1  18F102F3x       Rx   d 8 0E 3F 0E 3B 0F 02 00 04
   1.028000 1  18F106F3x       Rx   d 8 45 E0 FC FF FF FF FF FF
   1.029000 1  18F107F3x       Rx   d 8 38 A4 30 70 01 48 00 AF
   1.031000 1  18F108F3x       Rx   d 8 00 00 00 00 00 00 00 00
   1.034000 1  CFF21CAx        Rx   d 8 03 00 80 0C 48 40 00 10
   1.035000 1  18F155F3x       Rx   d 8 36 35 36 36 35 36 36 00
   1.038000 1  18F156F3x       Rx   d 8 00 00 00 00 00 00 00 00
   1.039000 1  18F157F3x       Rx   d 8 00 00 00 00 00 00 00 00
   1.042000 1  18F158F3x       Rx   d 8 00 00 00 00 00 00 00 00
   1.044000 1  18F159F3x       Rx   d 8 00 00 00 00 00 00 00 00
   1.045000 1  18F15AF3x       Rx   d 8 00 00 00 00 00 00 00 00
   1.047000 1  18F15BF3x       Rx   d 7 00 00 00 00 00 00 00
   1.048000 1  18F15CF3x       Rx   d 8 00 00 00 00 00 00 00 00
   1.050000 1  18F15DF3x       Rx   d 8 00 00 00 00 00 00 00 00
   1.051000 1  18F15EF3x       Rx   d 8 00 00 00 00 00 00 00 00
   1.053000 1  CFF21CAx        Rx   d 8 03 00 80 0C 48 40 00 10
   1.054000 1  18F100D0x       Rx   d 8 0C FF FF FF FF FF FF FF
   1.105000 1  CFF21CAx        Rx   d 8 03 00 80 0C 48 40 00 10
   1.107000 1  CFF21CAx        Rx   d 8 03 00 80 0C 48 40 00 10
   1.109000 1  18F100D0x       Rx   d 8 0C FF FF FF FF FF FF FF
   1.110000 1  CFF21CAx        Rx   d 8 03 00 80 0C 48 40 00 10
   1.112000 1  CFF21CAx        Rx   d 8 03 00 80 0C 48 40 00 10
   1.114000 1  18F100D0x       Rx   d 8 0C FF FF FF FF FF FF FF
   1.116000 1  18FF2112x       Rx   d 8 01 00 00 00 00 00 00 00
   1.118000 1  CFF21CAx        Rx   d 8 03 00 80 0C 48 40 00 10
   1.120000 1  CFF21CAx        Rx   d 8 03 00 80 0C 48 40 00 10
   1.121000 1  18F100D0x       Rx   d 8 0C FF FF FF FF FF FF FF
   1.123000 1  18F100F3x       Rx   d 8 02 D9 7D AA 7E FA 14 00
   1.124000 1  18F102F3x       Rx   d 8 0E 3F 0E 3B 0F 02 00 04
   1.126000 1  18F106F3x       Rx   d 8 45 E0 FC FF FF FF FF FF
   1.127000 1  CFF21CAx        Rx   d 8 03 00 80 0C 48 40 00 10
   1.161000 1  18F107F3x       Rx   d 8 38 A4 30 70 01 48 00 AF
   1.163000 1  18F108F3x       Rx   d 8 00 00 00 00 00 00 00 00
   1.164000 1  18F155F3x       Rx   d 8 36 35 36 36 35 36 36 00
   1.165000 1  18F156F3x       Rx   d 8 00 00 00 00 00 00 00 00
   1.167000 1  18F157F3x       Rx   d 8 00 00 00 00 00 00 00 00
   1.168000 1  18F158F3x       Rx   d 8 00 00 00 00 00 00 00 00
   1.224000 1  18F159F3x       Rx   d 8 00 00 00 00 00 00 00 00
   1.226000 1  18FECACAx       Rx   d 8 00 00 00 00 00 00 FF FF
   1.230000 1  18F15AF3x       Rx   d 8 00 00 00 00 00 00 00 00
   1.232000 1  18F15BF3x       Rx   d 7 00 00 00 00 00 00 00
   1.233000 1  18F15CF3x       Rx   d 8 00 00 00 00 00 00 00 00
   1.235000 1  18F15DF3x       Rx   d 8 00 00 00 00 00 00 00 00
   1.237000 1  CFF21CAx        Rx   d 8 03 00 80 0C 48 40 00 10
   1.239000 1  18F15EF3x       Rx   d 8 00 00 00 00 00 00 00 00
   1.241000 1  18F100D0x       Rx   d 8 0C FF FF FF FF FF FF FF
   1.243000 1  CFF21CAx        Rx   d 8 03 00 80 0C 48 40 00 10
   1.245000 1  CFF21CAx        Rx   d 8 03 00 80 0C 48 40 00 10
   1.247000 1  18F100D0x       Rx   d 8 0C FF FF FF FF FF FF FF
   1.248000 1  CFF21CAx        Rx   d 8 03 00 80 0C 48 40 00 10
   1.250000 1  CFF21CAx        Rx   d 8 03 00 80 0C 48 40 00 10
   1.251000 1  18F100D0x       Rx   d 8 0C FF FF FF FF FF FF FF
   1.252000 1  18FF2112x       Rx   d 8 01 00 00 00 00 00 00 00
   1.254000 1  CFF21CAx        Rx   d 8 03 00 80 0C 48 40 00 10
   1.255000 1  CFF21CAx        Rx   d 8 03 00 80 0C 48 40 00 10
   1.284000 1  18F100D0x       Rx   d 8 0C FF FF FF FF FF FF FF
   1.309000 1  CFF21CAx        Rx   d 8 03 00 80 0C 48 40 00 10
   1.310000 1  18F100F3x       Rx   d 8 02 D9 7D AA 7E FA 14 00
   1.312000 1  18F102F3x       Rx   d 8 0E 3F 0E 3B 0F 02 00 04
   1.315000 1  18F106F3x       Rx   d 8 45 E0 FC FF FF FF FF FF
   1.316000 1  18F107F3x       Rx   d 8 38 A4 30 70 01 48 00 AF
   1.318000 1  18F108F3x       Rx   d 8 00 00 00 00 00 00 00 00
   1.320000 1  18F155F3x       Rx   d 8 36 35 36 36 35 36 36 00
   1.322000 1  18F156F3x       Rx   d 8 00 00 00 00 00 00 00 00
   1.324000 1  18F157F3x       Rx   d 8 00 00 00 00 00 00 00 00
   1.326000 1  18F158F3x       Rx   d 8 00 00 00 00 00 00 00 00
   1.328000 1  18F159F3x       Rx   d 8 00 00 00 00 00 00 00 00
   1.329000 1  18F15AF3x       Rx   d 8 00 00 00 00 00 00 00 00
   1.331000 1  CFF21CAx        Rx   d 8 03 00 80 0C 48 40 00 10
   1.333000 1  18F15BF3x       Rx   d 7 00 00 00 00 00 00 00
   1.335000 1  18F15CF3x       Rx   d 8 00 00 00 00 00 00 00 00
   1.336000 1  18F15DF3x       Rx   d 8 00 00 00 00 00 00 00 00
   1.338000 1  18F15EF3x       Rx   d 8 00 00 00 00 00 00 00 00
   1.341000 1  18F100D0x       Rx   d 8 0C FF FF FF FF FF FF FF
   1.342000 1  CFF21CAx        Rx   d 8 03 00 80 0C 48 40 00 10
   1.344000 1  CFF21CAx        Rx   d 8 03 00 80 0C 48 40 00 10
   1.346000 1  18F100D0x       Rx   d 8 0C FF FF FF FF FF FF FF
   1.348000 1  CFF21CAx        Rx   d 8 03 00 80 0C 48 40 00 10
   1.350000 1  CFF21CAx        Rx   d 8 03 00 80 0C 48 40 00 10
   1.351000 1  18F100D0x       Rx   d 8 0C FF FF FF FF FF FF FF
   1.353000 1  18FF2112x       Rx   d 8 01 00 00 00 00 00 00 00
   1.354000 1  CFF21CAx        Rx   d 8 03 00 80 0C 48 40 00 10
   1.356000 1  CFF21CAx        Rx   d 8 03 00 80 0C 48 40 00 10
   1.357000 1  18F100D0x       Rx   d 8 0C FF FF FF FF FF FF FF
   1.358000 1  CFF21CAx        Rx   d 8 03 00 80 0C 48 40 00 10
   1.360000 1  18F100F3x       Rx   d 8 02 D9 7D AA 7E FA 14 00
   1.411000 1  18F102F3x       Rx   d 8 0E 3F 0E 3B 0F 02 00 04
   1.413000 1  18F106F3x       Rx   d 8 45 E0 FC FF FF FF FF FF
   1.415000 1  18F107F3x       Rx   d 8 38 A4 30 70 01 48 00 AF
   1.416000 1  18F108F3x       Rx   d 8 00 00 00 00 00 00 00 00
   1.418000 1  18F155F3x       Rx   d 8 36 35 36 36 35 36 36 00
   1.420000 1  18F156F3x       Rx   d 8 00 00 00 00 00 00 00 00
   1.423000 1  CFF21CAx        Rx   d 8 03 00 80 0C 48 40 00 10
   1.424000 1  18F157F3x       Rx   d 8 00 00 00 00 00 00 00 00
   1.427000 1  18F158F3x       Rx   d 8 00 00 00 00 00 00 00 00
   1.428000 1  18F159F3x       Rx   d 8 00 00 00 00 00 00 00 00
   1.430000 1  18F15AF3x       Rx   d 8 00 00 00 00 00 00 00 00
   1.432000 1  18F100D0x       Rx   d 8 0C FF FF FF FF FF FF FF
   1.434000 1  18F15BF3x       Rx   d 7 00 00 00 00 00 00 00
   1.436000 1  18F15CF3x       Rx   d 8 00 00 00 00 00 00 00 00
   1.437000 1  18F15DF3x       Rx   d 8 00 00 00 00 00 00 00 00
   1.438000 1  18F15EF3x       Rx   d 8 00 00 00 00 00 00 00 00
   1.440000 1  CFF21CAx        Rx   d 8 03 00 80 0C 48 40 00 10
   1.441000 1  CFF21CAx        Rx   d 8 03 00 80 0C 48 40 00 10
   1.443000 1  18F100D0x       Rx   d 8 0C FF FF FF FF FF FF FF
   1.449000 1  CFF21CAx        Rx   d 8 03 00 80 0C 48 40 00 10
   1.450000 1  CFF21CAx        Rx   d 8 03 00 80 0C 48 40 00 10
   1.453000 1  18F100D0x       Rx   d 8 0C FF FF FF FF FF FF FF
   1.454000 1  CFF21CAx        Rx   d 8 03 00 80 0C 48 40 00 10
   1.456000 1  18FF2112x       Rx   d 8 01 00 00 00 00 00 00 00
   1.457000 1  CFF21CAx        Rx   d 8 03 00 80 0C 48 40 00 10
   1.459000 1  18F100D0x       Rx   d 8 0C FF FF FF FF FF FF FF
   1.460000 1  CFF21CAx        Rx   d 8 03 00 80 0C 48 40 00 10
   1.461000 1  18F100F3x       Rx   d 8 02 D9 7D AB 7E FA 14 00
   1.463000 1  18F102F3x       Rx   d 8 0E 3F 0E 3B 0F 02 00 04
   1.537000 1  18F106F3x       Rx   d 8 45 E0 FC FF FF FF FF FF
   1.539000 1  18F107F3x       Rx   d 8 38 A4 30 70 01 48 00 AF
   1.541000 1  CFF21CAx        Rx   d 8 03 00 80 0C 48 40 00 10
   1.543000 1  18F108F3x       Rx   d 8 00 00 00 00 00 00 00 00
   1.545000 1  18F155F3x       Rx   d 8 36 35 36 36 35 36 36 00
   1.547000 1  18F156F3x       Rx   d 8 00 00 00 00 00 00 00 00
   1.549000 1  18F157F3x       Rx   d 8 00 00 00 00 00 00 00 00
   1.551000 1  18F158F3x       Rx   d 8 00 00 00 00 00 00 00 00
   1.553000 1  18F159F3x       Rx   d 8 00 00 00 00 00 00 00 00
   1.555000 1  18F15AF3x       Rx   d 8 00 00 00 00 00 00 00 00
   1.557000 1  18F15BF3x       Rx   d 7 00 00 00 00 00 00 00
   1.558000 1  18F100D0x       Rx   d 8 0C FF FF FF FF FF FF FF
   1.560000 1  18F15CF3x       Rx   d 8 00 00 00 00 00 00 00 00
   1.561000 1  18F15DF3x       Rx   d 8 00 00 00 00 00 00 00 00
   1.563000 1  18F15EF3x       Rx   d 8 00 00 00 00 00 00 00 00
   1.564000 1  CFF21CAx        Rx   d 8 03 00 80 0C 48 40 00 10
   1.566000 1  CFF21CAx        Rx   d 8 03 00 80 0C 48 40 00 10
   1.623000 1  18F100D0x       Rx   d 8 0C FF FF FF FF FF FF FF
   1.625000 1  CFF21CAx        Rx   d 8 03 00 80 0C 48 40 00 10
   1.626000 1  CFF21CAx        Rx   d 8 03 00 80 0C 48 40 00 10
   1.628000 1  18F100D0x       Rx   d 8 0C FF FF FF FF FF FF FF
   1.630000 1  CFF21CAx        Rx   d 8 03 00 80 0C 48 40 00 10
   1.633000 1  18FF2112x       Rx   d 8 01 00 00 00 00 00 00 00
   1.635000 1  CFF21CAx        Rx   d 8 03 00 80 0C 48 40 00 10
   1.636000 1  18F100D0x       Rx   d 8 0C FF FF FF FF FF FF FF
   1.638000 1  CFF21CAx        Rx   d 8 03 00 80 0C 48 40 00 10
   1.640000 1  CFF21CAx        Rx   d 8 03 00 80 0C 48 40 00 10
   1.642000 1  18F100F3x       Rx   d 8 02 D9 7D AB 7E FA 14 00
   1.645000 1  18F102F3x       Rx   d 8 0E 3F 0E 3B 0F 02 00 04
   1.646000 1  18F106F3x       Rx   d 8 45 E0 FC FF FF FF FF FF
   1.648000 1  18F107F3x       Rx   d 8 38 A4 30 70 01 48 00 AF
   1.650000 1  18F108F3x       Rx   d 8 00 00 00 00 00 00 00 00
   1.652000 1  18F155F3x       Rx   d 8 36 35 36 36 35 36 36 00
   1.653000 1  18F156F3x       Rx   d 8 00 00 00 00 00 00 00 00
   1.655000 1  18F100D0x       Rx   d 8 0C FF FF FF FF FF FF FF
   1.658000 1  18F157F3x       Rx   d 8 00 00 00 00 00 00 00 00
   1.659000 1  18F158F3x       Rx   d 8 00 00 00 00 00 00 00 00
   1.660000 1  18F159F3x       Rx   d 8 00 00 00 00 00 00 00 00
   1.662000 1  18F15AF3x       Rx   d 8 00 00 00 00 00 00 00 00
   1.663000 1  CFF21CAx        Rx   d 8 03 00 80 0C 48 40 00 10
   1.665000 1  18F15BF3x       Rx   d 7 00 00 00 00 00 00 00
   1.666000 1  18F15CF3x       Rx   d 8 00 00 00 00 00 00 00 00
   1.667000 1  18F15DF3x       Rx   d 8 00 00 00 00 00 00 00 00
   1.718000 1  18F15EF3x       Rx   d 8 00 00 00 00 00 00 00 00
   1.726000 1  CFF21CAx        Rx   d 8 03 00 80 0C 48 40 00 10
   1.728000 1  18F100D0x       Rx   d 8 0C FF FF FF FF FF FF FF
   1.730000 1  CFF21CAx        Rx   d 8 03 00 80 0C 48 40 00 10
   1.731000 1  CFF21CAx        Rx   d 8 03 00 80 0C 48 40 00 10
   1.733000 1  18F100D0x       Rx   d 8 0C FF FF FF FF FF FF FF
   1.735000 1  CFF21CAx        Rx   d 8 03 00 80 0C 48 40 00 10
   1.737000 1  18FF2112x       Rx   d 8 01 00 00 00 00 00 00 00
   1.739000 1  CFF21CAx        Rx   d 8 03 00 80 0C 48 40 00 10
   1.742000 1  18F100D0x       Rx   d 8 0C FF FF FF FF FF FF FF
   1.743000 1  CFF21CAx        Rx   d 8 03 00 80 0C 48 40 00 10
   1.746000 1  CFF21CAx        Rx   d 8 03 00 80 0C 48 40 00 10
   1.748000 1  18F100F3x       Rx   d 8 02 D9 7D AA 7E FA 14 00
   1.749000 1  18F100D0x       Rx   d 8 0C FF FF FF FF FF FF FF
   1.752000 1  18F102F3x       Rx   d 8 0E 3F 0E 3B 0F 02 00 04
   1.754000 1  18F106F3x       Rx   d 8 45 E0 FC FF FF FF FF FF
   1.756000 1  18F107F3x       Rx   d 8 38 A4 30 70 01 48 00 AF
   1.758000 1  18F108F3x       Rx   d 8 00 00 00 00 00 00 00 00
   1.760000 1  18F155F3x       Rx   d 8 36 35 36 36 35 36 36 00
   1.761000 1  18F156F3x       Rx   d 8 00 00 00 00 00 00 00 00
   1.763000 1  CFF21CAx        Rx   d 8 03 00 80 0C 48 40 00 10
   1.764000 1  18F157F3x       Rx   d 8 00 00 00 00 00 00 00 00
   1.766000 1  18F158F3x       Rx   d 8 00 00 00 00 00 00 00 00
   1.767000 1  18F159F3x       Rx   d 8 00 00 00 00 00 00 00 00
   1.768000 1  18F15AF3x       Rx   d 8 00 00 00 00 00 00 00 00
   1.770000 1  18F15BF3x       Rx   d 7 00 00 00 00 00 00 00
   1.823000 1  18F15CF3x       Rx   d 8 00 00 00 00 00 00 00 00
   1.824000 1  18F15DF3x       Rx   d 8 00 00 00 00 00 00 00 00
   1.826000 1  18F15EF3x       Rx   d 8 00 00 00 00 00 00 00 00
   1.828000 1  CFF21CAx        Rx   d 8 03 00 80 0C 48 40 00 10
   1.830000 1  18F100D0x       Rx   d 8 0C FF FF FF FF FF FF FF
   1.832000 1  CFF21CAx        Rx   d 8 03 00 80 0C 48 40 00 10
   1.834000 1  CFF21CAx        Rx   d 8 03 00 80 0C 48 40 00 10
   1.836000 1  18F100D0x       Rx   d 8 0C FF FF FF FF FF FF FF
   1.838000 1  CFF21CAx        Rx   d 8 03 00 80 0C 48 40 00 10
   1.840000 1  18FF2112x       Rx   d 8 01 00 00 00 00 00 00 00
   1.842000 1  CFF21CAx        Rx   d 8 03 00 80 0C 48 40 00 10
   1.843000 1  18F100D0x       Rx   d 8 0C FF FF FF FF FF FF FF
   1.845000 1  CFF21CAx        Rx   d 8 03 00 80 0C 48 40 00 10
   1.847000 1  CFF21CAx        Rx   d 8 03 00 80 0C 48 40 00 10
   1.849000 1  18F100F3x       Rx   d 8 02 D9 7D AA 7E FA 14 00
   1.851000 1  18F102F3x       Rx   d 8 0E 3F 0E 3B 0F 02 00 04
   1.853000 1  18F100D0x       Rx   d 8 0C FF FF FF FF FF FF FF
   1.854000 1  18F106F3x       Rx   d 8 45 E0 FC FF FF FF FF FF
   1.856000 1  18F107F3x       Rx   d 8 38 A4 30 70 01 48 00 AF
   1.858000 1  CFF21CAx        Rx   d 8 03 00 80 0C 48 40 00 10
   1.859000 1  18F108F3x       Rx   d 8 00 00 00 00 00 00 00 00
   1.861000 1  18F155F3x       Rx   d 8 36 35 36 36 35 36 36 00
   1.862000 1  18F156F3x       Rx   d 8 00 00 00 00 00 00 00 00
   1.863000 1  18F157F3x       Rx   d 8 00 00 00 00 00 00 00 00
   1.865000 1  18F158F3x       Rx   d 8 00 00 00 00 00 00 00 00
   1.866000 1  18F159F3x       Rx   d 8 00 00 00 00 00 00 00 00
   1.880000 1  18F15AF3x       Rx   d 8 00 00 00 00 00 00 00 00
   1.923000 1  18F15BF3x       Rx   d 7 00 00 00 00 00 00 00
   1.945000 1  18F15CF3x       Rx   d 8 00 00 00 00 00 00 00 00
   1.946000 1  18F15DF3x       Rx   d 8 00 00 00 00 00 00 00 00
   1.947000 1  18F15EF3x       Rx   d 8 00 00 00 00 00 00 00 00
   1.948000 1  CFF21CAx        Rx   d 8 03 00 80 0C 48 40 00 10
   1.950000 1  18F100D0x       Rx   d 8 0C FF FF FF FF FF FF FF
   1.951000 1  CFF21CAx        Rx   d 8 03 00 80 0C 48 40 00 10
   1.952000 1  CFF21CAx        Rx   d 8 04 00 80 0C 48 40 00 10
   1.954000 1  18F100D0x       Rx   d 8 0C FF FF FF FF FF FF FF
   1.966000 1  CFF21CAx        Rx   d 8 04 00 80 0C 48 40 00 10
   1.967000 1  18FF2112x       Rx   d 8 01 00 00 00 00 00 00 00
   1.969000 1  CFF21CAx        Rx   d 8 04 00 80 0C 48 40 00 10
   1.970000 1  18F100D0x       Rx   d 8 0C FF FF FF FF FF FF FF
   1.971000 1  CFF21CAx        Rx   d 8 03 00 80 0C 48 40 00 10
   1.973000 1  CFF21CAx        Rx   d 8 03 00 80 0C 48 40 00 10
   1.974000 1  18F100D0x       Rx   d 8 0C FF FF FF FF FF FF FF
   1.976000 1  18F100F3x       Rx   d 8 02 D9 7D AA 7E FA 14 00
   2.026000 1  18F102F3x       Rx   d 8 0E 3F 0E 3B 0F 02 00 04
   2.035000 1  CFF21CAx        Rx   d 8 03 00 80 0C 48 40 00 10
   2.037000 1  18F106F3x       Rx   d 8 45 E0 FC FF FF FF FF FF
   2.038000 1  18F107F3x       Rx   d 8 38 A4 30 70 01 48 00 AF
   2.041000 1  18F108F3x       Rx   d 8 00 00 00 00 00 00 00 00
   2.043000 1  18F104F3x       Rx   d 8 36 35 01 02 01 FF FF FF
   2.045000 1  18F113F3x       Rx   d 8 0E 3C 0E 3B 0E 3C 0E 3E
   2.046000 1  18F114F3x       Rx   d 8 0E 3D 0E 3D 0E 3E 0E 3D
   2.049000 1  18F115F3x       Rx   d 8 0E 3C 0E 3C 0E 3E 0E 3C
   2.050000 1  18F116F3x       Rx   d 8 0E 3E 0E 3D 0E 3F 0E 3E
   2.052000 1  18F117F3x       Rx   d 8 0E 3E 0E 3F 0E 3F 0E 3F
   2.054000 1  18F118F3x       Rx   d 8 00 00 00 00 00 00 00 00
   2.055000 1  18F119F3x       Rx   d 8 00 00 00 00 00 00 00 00
   2.056000 1  CFF21CAx        Rx   d 8 03 00 80 0C 48 40 00 10
   2.057000 1  18F11AF3x       Rx   d 8 00 00 00 00 00 00 00 00
   2.059000 1  18F11BF3x       Rx   d 8 00 00 00 00 00 00 00 00
   2.060000 1  18F11CF3x       Rx   d 8 00 00 00 00 00 00 00 00
   2.070000 1  18F11DF3x       Rx   d 8 00 00 00 00 00 00 00 00
   2.129000 1  18F11EF3x       Rx   d 8 00 00 00 00 00 00 00 00
   2.131000 1  18F11FF3x       Rx   d 8 00 00 00 00 00 00 00 00
   2.132000 1  18F120F3x       Rx   d 8 00 00 00 00 00 00 00 00
   2.135000 1  18F121F3x       Rx   d 8 00 00 00 00 00 00 00 00
   2.137000 1  18F123F3x       Rx   d 8 00 00 00 00 00 00 00 00
   2.138000 1  18F125F3x       Rx   d 8 00 00 00 00 00 00 00 00
   2.140000 1  18F127F3x       Rx   d 8 00 00 00 00 00 00 00 00
   2.142000 1  18F129F3x       Rx   d 8 00 00 00 00 00 00 00 00
   2.144000 1  18F12AF3x       Rx   d 8 00 00 00 00 00 00 00 00
   2.146000 1  18F12CF3x       Rx   d 8 00 00 00 00 00 00 00 00
   2.148000 1  18F12EF3x       Rx   d 8 00 00 00 00 00 00 00 00
   2.150000 1  18F12FF3x       Rx   d 8 00 00 00 00 00 00 00 00
   2.152000 1  18F130F3x       Rx   d 8 00 00 00 00 00 00 00 00
   2.153000 1  CFF21CAx        Rx   d 8 03 00 80 0C 48 40 00 10
   2.155000 1  CFF21CAx        Rx   d 8 03 00 80 0C 48 40 00 10
   2.156000 1  18F100D0x       Rx   d 8 0C FF FF FF FF FF FF FF
   2.157000 1  18F100F3x       Rx   d 8 02 D9 7D AB 7E FA 14 00
   2.159000 1  18F102F3x       Rx   d 8 0E 3F 0E 3B 0F 02 00 04
   2.160000 1  18F106F3x       Rx   d 8 45 E0 FC FF FF FF FF FF
   2.161000 1  18F108F3x       Rx   d 8 00 00 00 00 00 00 00 00
   2.177000 1  18F156F3x       Rx   d 8 00 00 00 00 00 00 00 00
   2.232000 1  18F158F3x       Rx   d 8 00 00 00 00 00 00 00 00
   2.235000 1  CFF21CAx        Rx   d 8 03 00 80 0C 48 40 00 10
   2.237000 1  18F15CF3x       Rx   d 8 00 00 00 00 00 00 00 00
   2.239000 1  18F15DF3x       Rx   d 8 00 00 00 00 00 00 00 00
   2.241000 1  CFF21CAx        Rx   d 8 03 00 80 0C 48 40 00 10
   2.243000 1  18F100D0x       Rx   d 8 0C FF FF FF FF FF FF FF
   2.245000 1  CFF21CAx        Rx   d 8 03 00 80 0C 48 40 00 10
   2.247000 1  CFF21CAx        Rx   d 8 03 00 80 0C 48 40 00 10
   2.248000 1  18F100D0x       Rx   d 8 0C FF FF FF FF FF FF FF
   2.250000 1  18FF2112x       Rx   d 8 01 00 00 00 00 00 00 00
   2.251000 1  CFF21CAx        Rx   d 8 03 00 80 0C 48 40 00 10
   2.252000 1  CFF21CAx        Rx   d 8 02 00 80 0C 48 40 00 10
   2.254000 1  18F100D0x       Rx   d 8 0C FF FF FF FF FF FF FF
   2.256000 1  CFF21CAx        Rx   d 8 02 00 80 0C 48 40 00 10
   2.258000 1  CFF21CAx        Rx   d 8 03 00 80 0C 48 40 00 10
   2.262000 1  18F100D0x       Rx   d 8 0C FF FF FF FF FF FF FF
   2.264000 1  18F100F3x       Rx   d 8 02 D9 7D AB 7E FA 14 00
   2.266000 1  18F102F3x       Rx   d 8 0E 3F 0E 3B 0F 02 00 04
   2.268000 1  18F106F3x       Rx   d 8 45 E0 FC FF FF FF FF FF
   2.270000 1  18F107F3x       Rx   d 8 38 A4 30 70 01 48 00 AF
   2.272000 1  18F108F3x       Rx   d 8 00 00 00 00 00 00 00 00
   2.273000 1  CFF21CAx        Rx   d 8 03 00 80 0C 48 40 00 10
   2.275000 1  18F155F3x       Rx   d 8 36 35 36 36 35 36 36 00
   2.277000 1  18F156F3x       Rx   d 8 00 00 00 00 00 00 00 00
   2.278000 1  18F157F3x       Rx   d 8 00 00 00 00 00 00 00 00
   2.279000 1  18F158F3x       Rx   d 8 00 00 00 00 00 00 00 00
   2.281000 1  18F159F3x       Rx   d 8 00 00 00 00 00 00 00 00
   2.282000 1  18F15AF3x       Rx   d 8 00 00 00 00 00 00 00 00
   2.334000 1  18F15DF3x       Rx   d 8 00 00 00 00 00 00 00 00
   2.336000 1  18F15EF3x       Rx   d 8 00 00 00 00 00 00 00 00
   2.338000 1  CFF21CAx        Rx   d 8 03 00 80 0C 48 40 00 10
   2.340000 1  18F100D0x       Rx   d 8 0C FF FF FF FF FF FF FF
   2.342000 1  CFF21CAx        Rx   d 8 02 00 80 0C 48 40 00 10
   2.344000 1  CFF21CAx        Rx   d 8 02 00 80 0C 48 40 00 10
   2.346000 1  18FF2112x       Rx   d 8 01 00 00 00 00 00 00 00
   2.348000 1  18F100D0x       Rx   d 8 0C FF FF FF FF FF FF FF
   2.349000 1  CFF21CAx        Rx   d 8 02 00 80 0C 48 40 00 10
   2.351000 1  CFF21CAx        Rx   d 8 02 00 80 0C 48 40 00 10
   2.353000 1  18F100D0x       Rx   d 8 0C FF FF FF FF FF FF FF
   2.354000 1  CFF21CAx        Rx   d 8 02 00 80 0C 48 40 00 10
   2.356000 1  CFF21CAx        Rx   d 8 02 00 80 0C 48 40 00 10
   2.359000 1  18F100D0x       Rx   d 8 0C FF FF FF FF FF FF FF
   2.360000 1  18F100F3x       Rx   d 8 02 D9 7D AC 7E FA 14 00
   2.362000 1  18F102F3x       Rx   d 8 0E 40 0E 3B 13 02 00 05
   2.363000 1  18F106F3x       Rx   d 8 45 E0 FC FF FF FF FF FF
   2.366000 1  CFF21CAx        Rx   d 8 02 00 80 0C 48 40 00 10
   2.367000 1  18F107F3x       Rx   d 8 38 A4 30 70 01 48 00 AF
   2.369000 1  18F108F3x       Rx   d 8 00 00 00 00 00 00 00 00
   2.371000 1  18F155F3x       Rx   d 8 36 35 36 36 35 36 36 00
   2.373000 1  18F156F3x       Rx   d 8 00 00 00 00 00 00 00 00
   2.375000 1  18F157F3x       Rx   d 8 00 00 00 00 00 00 00 00
   2.377000 1  18F158F3x       Rx   d 8 00 00 00 00 00 00 00 00
   2.378000 1  18F159F3x       Rx   d 8 00 00 00 00 00 00 00 00
   2.379000 1  18F15AF3x       Rx   d 8 00 00 00 00 00 00 00 00
   2.381000 1  18F15BF3x       Rx   d 7 00 00 00 00 00 00 00
   2.382000 1  18F15DF3x       Rx   d 8 00 00 00 00 00 00 00 00
   2.384000 1  18F100D0x       Rx   d 8 0C FF FF FF FF FF FF FF
   2.385000 1  18FECACAx       Rx   d 8 00 00 00 00 00 00 FF FF
   2.437000 1  CFF21CAx        Rx   d 8 02 00 80 0C 48 40 00 10
   2.438000 1  CFF21CAx        Rx   d 8 03 00 80 0C 48 40 00 10
   2.440000 1  18FF2112x       Rx   d 8 01 00 00 00 00 00 00 00
   2.442000 1  18F100D0x       Rx   d 8 0C FF FF FF FF FF FF FF
   2.443000 1  CFF21CAx        Rx   d 8 03 00 80 0C 48 40 00 10
   2.445000 1  CFF21CAx        Rx   d 8 02 00 80 0C 48 40 00 10
   2.447000 1  CFF21CAx        Rx   d 8 02 00 80 0C 48 40 00 10
   2.449000 1  18F100D0x       Rx   d 8 0C FF FF FF FF FF FF FF
   2.451000 1  CFF21CAx        Rx   d 8 02 00 80 0C 48 40 00 10
   2.453000 1  CFF21CAx        Rx   d 8 02 00 80 0C 48 40 00 10
   2.454000 1  18F100D0x       Rx   d 8 0C FF FF FF FF FF FF FF
   2.456000 1  18F100F3x       Rx   d 8 02 D9 7D AC 7E FA 14 00
   2.458000 1  18F102F3x       Rx   d 8 0E 40 0E 3B 13 02 00 05
   2.460000 1  18F106F3x       Rx   d 8 45 E0 FC FF FF FF FF FF
   2.462000 1  18F107F3x       Rx   d 8 38 A4 30 70 01 48 00 AF
   2.464000 1  CFF21CAx        Rx   d 8 02 00 80 0C 48 40 00 10
   2.466000 1  18F100D0x       Rx   d 8 0C FF FF FF FF FF FF FF
   2.468000 1  CFF21CAx        Rx   d 8 02 00 80 0C 48 40 00 10
   2.470000 1  18FF2112x       Rx   d 8 01 00 00 00 00 00 00 00
   2.472000 1  CFF21CAx        Rx   d 8 02 00 80 0C 48 40 00 10
   2.474000 1  18F100D0x       Rx   d 8 0C FF FF FF FF FF FF FF
   2.476000 1  CFF21CAx        Rx   d 8 02 00 80 0C 48 40 00 10
   2.478000 1  CFF21CAx        Rx   d 8 02 00 80 0C 48 40 00 10
   2.479000 1  18F100D0x       Rx   d 8 0C FF FF FF FF FF FF FF
   2.481000 1  CFF21CAx        Rx   d 8 02 00 80 0C 48 40 00 10
   2.482000 1  CFF21CAx        Rx   d 8 02 00 80 0C 48 40 00 10
   2.483000 1  18F100D0x       Rx   d 8 0C FF FF FF FF FF FF FF
   2.485000 1  18F100F3x       Rx   d 8 02 D9 7D AC 7E FA 14 00
   2.486000 1  18F102F3x       Rx   d 8 0E 40 0E 3B 13 02 00 05
   2.544000 1  18F106F3x       Rx   d 8 45 E0 FC FF FF FF FF FF
   2.545000 1  18F107F3x       Rx   d 8 38 A4 30 70 01 48 00 AF
   2.547000 1  18F108F3x       Rx   d 8 00 00 00 00 00 00 00 00
   2.550000 1  CFF21CAx        Rx   d 8 02 00 80 0C 48 40 00 10
   2.551000 1  18F157F3x       Rx   d 8 00 00 00 00 00 00 00 00
   2.553000 1  18F159F3x       Rx   d 8 00 00 00 00 00 00 00 00
   2.555000 1  18F15BF3x       Rx   d 7 00 00 00 00 00 00 00
   2.557000 1  18F15DF3x       Rx   d 8 00 00 00 00 00 00 00 00
   2.559000 1  CFF21CAx        Rx   d 8 02 00 80 0C 48 40 00 10
   2.561000 1  18F100D0x       Rx   d 8 0C FF FF FF FF FF FF FF
   2.563000 1  CFF21CAx        Rx   d 8 02 00 80 0C 48 40 00 10
   2.565000 1  18FF2112x       Rx   d 8 01 00 00 00 00 00 00 00
   2.567000 1  CFF21CAx        Rx   d 8 02 00 80 0C 48 40 00 10
   2.569000 1  18F100D0x       Rx   d 8 0C FF FF FF FF FF FF FF
   2.571000 1  CFF21CAx        Rx   d 8 03 00 80 0C 48 40 00 10
   2.573000 1  CFF21CAx        Rx   d 8 03 00 80 0C 48 40 00 10
   2.575000 1  18F100D0x       Rx   d 8 0C FF FF FF FF FF FF FF
   2.577000 1  CFF21CAx        Rx   d 8 03 00 80 0C 48 40 00 10
   2.579000 1  CFF21CAx        Rx   d 8 03 00 80 0C 48 40 00 10
   2.580000 1  18F100D0x       Rx   d 8 0C FF FF FF FF FF FF FF
   2.582000 1  18F102F3x       Rx   d 8 0E 40 0E 3B 13 02 00 05
   2.583000 1  18F107F3x       Rx   d 8 38 A4 30 70 01 48 00 AF
   2.585000 1  CFF21CAx        Rx   d 8 03 00 80 0C 48 40 00 10
   2.586000 1  18F155F3x       Rx   d 8 36 35 36 36 35 36 36 00
   2.588000 1  18F158F3x       Rx   d 8 00 00 00 00 00 00 00 00
   2.589000 1  18F15AF3x       Rx   d 8 00 00 00 00 00 00 00 00
   2.640000 1  18F15CF3x       Rx   d 8 00 00 00 00 00 00 00 00
   2.642000 1  18F15EF3x       Rx   d 8 00 00 00 00 00 00 00 00
   2.644000 1  18F100D0x       Rx   d 8 0C FF FF FF FF FF FF FF
   2.646000 1  CFF21CAx        Rx   d 8 03 00 80 0C 48 40 00 10
   2.648000 1  18FF2112x       Rx   d 8 01 00 00 00 00 00 00 00
   2.649000 1  CFF21CAx        Rx   d 8 03 00 80 0C 48 40 00 10
   2.652000 1  18F100D0x       Rx   d 8 0C FF FF FF FF FF FF FF
   2.653000 1  CFF21CAx        Rx   d 8 03 00 80 0C 48 40 00 10
   2.654000 1  CFF21CAx        Rx   d 8 03 00 80 0C 48 40 00 10
   2.656000 1  18F100D0x       Rx   d 8 0C FF FF FF FF FF FF FF
   2.657000 1  CFF21CAx        Rx   d 8 03 00 80 0C 48 40 00 10
   2.658000 1  CFF21CAx        Rx   d 8 03 00 80 0C 48 40 00 10
   2.660000 1  18F100D0x       Rx   d 8 0C FF FF FF FF FF FF FF
   2.661000 1  CFF21CAx        Rx   d 8 03 00 80 0C 48 40 00 10
   2.676000 1  18F100F3x       Rx   d 8 02 D9 7D AB 7E FA 14 00
   2.696000 1  18F107F3x       Rx   d 8 38 A4 30 70 01 48 00 AF
   2.697000 1  18F155F3x       Rx   d 8 36 35 36 36 35 36 36 00
   2.699000 1  18F157F3x       Rx   d 8 00 00 00 00 00 00 00 00
   2.700000 1  18F15AF3x       Rx   d 8 00 00 00 00 00 00 00 00
   2.701000 1  18F15CF3x       Rx   d 8 00 00 00 00 00 00 00 00
   2.703000 1  18F15EF3x       Rx   d 8 00 00 00 00 00 00 00 00
   2.704000 1  18F100D0x       Rx   d 8 0C FF FF FF FF FF FF FF
   2.759000 1  CFF21CAx        Rx   d 8 02 00 80 0C 48 40 00 10
   2.767000 1  18FF2112x       Rx   d 8 01 00 00 00 00 00 00 00
   2.769000 1  CFF21CAx        Rx   d 8 02 00 80 0C 48 40 00 10
   2.771000 1  18F100D0x       Rx   d 8 0C FF FF FF FF FF FF FF
   2.772000 1  CFF21CAx        Rx   d 8 02 00 80 0C 48 40 00 10
   2.774000 1  CFF21CAx        Rx   d 8 02 00 80 0C 48 40 00 10
   2.776000 1  CFF21CAx        Rx   d 8 02 00 80 0C 48 40 00 10
   2.778000 1  18F100D0x       Rx   d 8 0C FF FF FF FF FF FF FF
   2.780000 1  CFF21CAx        Rx   d 8 02 00 80 0C 48 40 00 10
   2.782000 1  CFF21CAx        Rx   d 8 02 00 80 0C 48 40 00 10
   2.784000 1  18F100D0x       Rx   d 8 0C FF FF FF FF FF FF FF
   2.786000 1  18F100F3x       Rx   d 8 02 D9 7D AB 7E FA 14 00
   2.787000 1  18F102F3x       Rx   d 8 0E 40 0E 3B 13 02 00 05
   2.789000 1  18F106F3x       Rx   d 8 45 E0 FC FF FF FF FF FF
   2.790000 1  18F107F3x       Rx   d 8 38 A4 30 70 01 48 00 AF
   2.791000 1  18F108F3x       Rx   d 8 00 00 00 00 00 00 00 00
   2.793000 1  18F155F3x       Rx   d 8 36 35 36 36 35 36 36 00
   2.794000 1  18F156F3x       Rx   d 8 00 00 00 00 00 00 00 00
   2.854000 1  18F157F3x       Rx   d 8 00 00 00 00 00 00 00 00
   2.859000 1  CFF21CAx        Rx   d 8 02 00 80 0C 48 40 00 10
   2.862000 1  18F158F3x       Rx   d 8 00 00 00 00 00 00 00 00
   2.864000 1  18F159F3x       Rx   d 8 00 00 00 00 00 00 00 00
   2.865000 1  18F15AF3x       Rx   d 8 00 00 00 00 00 00 00 00
   2.867000 1  18F15BF3x       Rx   d 7 00 00 00 00 00 00 00
   2.869000 1  18F15CF3x       Rx   d 8 00 00 00 00 00 00 00 00
   2.871000 1  18F15DF3x       Rx   d 8 00 00 00 00 00 00 00 00
   2.873000 1  CFF21CAx        Rx   d 8 03 00 80 0C 48 40 00 10
   2.874000 1  18F100D0x       Rx   d 8 0C FF FF FF FF FF FF FF
   2.876000 1  18FF2112x       Rx   d 8 01 00 00 00 00 00 00 00
   2.877000 1  CFF21CAx        Rx   d 8 03 00 80 0C 48 40 00 10
   2.879000 1  CFF21CAx        Rx   d 8 02 00 80 0C 48 40 00 10
   2.881000 1  18F100D0x       Rx   d 8 0C FF FF FF FF FF FF FF
   2.882000 1  CFF21CAx        Rx   d 8 02 00 80 0C 48 40 00 10
   2.884000 1  CFF21CAx        Rx   d 8 02 00 80 0C 48 40 00 10
   2.886000 1  18F100D0x       Rx   d 8 0C FF FF FF FF FF FF FF
   2.892000 1  CFF21CAx        Rx   d 8 02 00 80 0C 48 40 00 10
   2.893000 1  CFF21CAx        Rx   d 8 02 00 80 0C 48 40 00 10
   2.895000 1  18F100D0x       Rx   d 8 0C FF FF FF FF FF FF FF
   2.896000 1  18F100F3x       Rx   d 8 02 D9 7D AB 7E FA 14 00
   2.948000 1  18F102F3x       Rx   d 8 0E 40 0E 3B 13 02 00 05
   2.950000 1  18F106F3x       Rx   d 8 45 E0 FC FF FF FF FF FF
   2.952000 1  18F107F3x       Rx   d 8 38 A4 30 70 01 48 00 AF
   2.954000 1  CFF21CAx        Rx   d 8 03 00 80 0C 48 40 00 10
   2.956000 1  18F108F3x       Rx   d 8 00 00 00 00 00 00 00 00
   2.957000 1  18F155F3x       Rx   d 8 36 35 36 36 35 36 36 00
   2.959000 1  18F156F3x       Rx   d 8 00 00 00 00 00 00 00 00
   2.961000 1  18F157F3x       Rx   d 8 00 00 00 00 00 00 00 00
   2.964000 1  18F158F3x       Rx   d 8 00 00 00 00 00 00 00 00
   2.965000 1  18F159F3x       Rx   d 8 00 00 00 00 00 00 00 00
   2.968000 1  18F15AF3x       Rx   d 8 00 00 00 00 00 00 00 00
   2.969000 1  18F15BF3x       Rx   d 7 00 00 00 00 00 00 00
   2.972000 1  18F15CF3x       Rx   d 8 00 00 00 00 00 00 00 00
   2.973000 1  18F15DF3x       Rx   d 8 00 00 00 00 00 00 00 00
   2.976000 1  18F15EF3x       Rx   d 8 00 00 00 00 00 00 00 00
   2.977000 1  CFF21CAx        Rx   d 8 03 00 80 0C 48 40 00 10
   2.980000 1  18F100D0x       Rx   d 8 0C FF FF FF FF FF FF FF
   2.981000 1  CFF21CAx        Rx   d 8 03 00 80 0C 48 40 00 10
   2.982000 1  18FF2112x       Rx   d 8 01 00 00 00 00 00 00 00
   2.984000 1  CFF21CAx        Rx   d 8 03 00 80 0C 48 40 00 10
   2.986000 1  18F100D0x       Rx   d 8 0C FF FF FF FF FF FF FF
   2.988000 1  CFF21CAx        Rx   d 8 03 00 80 0C 48 40 00 10
   2.990000 1  CFF21CAx        Rx   d 8 03 00 80 0C 48 40 00 10
   2.992000 1  18F100D0x       Rx   d 8 0C FF FF FF FF FF FF FF
   2.993000 1  CFF21CAx        Rx   d 8 03 00 80 0C 48 40 00 10
   2.994000 1  CFF21CAx        Rx   d 8 03 00 80 0C 48 40 00 10
   2.996000 1  18F100D0x       Rx   d 8 0C FF FF FF FF FF FF FF
   2.997000 1  18F100F3x       Rx   d 8 02 D9 7D AB 7E FA 14 00
   2.999000 1  18F102F3x       Rx   d 8 0E 40 0E 3B 13 02 00 05
   3.051000 1  CFF21CAx        Rx   d 8 03 00 80 0C 48 40 00 10
   3.052000 1  18F106F3x       Rx   d 8 45 E0 FC FF FF FF FF FF
   3.054000 1  18F107F3x       Rx   d 8 38 A4 30 70 01 48 00 AF
   3.056000 1  18F108F3x       Rx   d 8 00 00 00 00 00 00 00 00
   3.058000 1  18F104F3x       Rx   d 8 36 35 01 02 01 FF FF FF
   3.060000 1  18F113F3x       Rx   d 8 0E 3D 0E 3B 0E 3D 0E 3E
   3.062000 1  18F114F3x       Rx   d 8 0E 3D 0E 3D 0E 3E 0E 3E
   3.064000 1  18F115F3x       Rx   d 8 0E 3C 0E 3D 0E 3E 0E 3C
   3.066000 1  18F116F3x       Rx   d 8 0E 3E 0E 3D 0E 3F 0E 3F
   3.067000 1  18F117F3x       Rx   d 8 0E 3E 0E 3F 0E 40 0E 3F
   3.069000 1  18F118F3x       Rx   d 8 00 00 00 00 00 00 00 00
   3.072000 1  18F119F3x       Rx   d 8 00 00 00 00 00 00 00 00
   3.073000 1  18F11BF3x       Rx   d 8 00 00 00 00 00 00 00 00
   3.074000 1  18F11DF3x       Rx   d 8 00 00 00 00 00 00 00 00
   3.077000 1  18F11FF3x       Rx   d 8 00 00 00 00 00 00 00 00
   3.078000 1  18F121F3x       Rx   d 8 00 00 00 00 00 00 00 00
   3.080000 1  18F123F3x       Rx   d 8 00 00 00 00 00 00 00 00
   3.082000 1  18F125F3x       Rx   d 8 00 00 00 00 00 00 00 00
   3.084000 1  18FF2112x       Rx   d 8 01 00 00 00 00 00 00 00
   3.086000 1  18F128F3x       Rx   d 8 00 00 00 00 00 00 00 00
   3.087000 1  18F12BF3x       Rx   d 8 00 00 00 00 00 00 00 00
   3.090000 1  18F12DF3x       Rx   d 8 00 00 00 00 00 00 00 00
   3.091000 1  18F12EF3x       Rx   d 8 00 00 00 00 00 00 00 00
   3.093000 1  18F131F3x       Rx   d 8 00 00 00 00 00 00 00 00
   3.094000 1  18F132F3x       Rx   d 8 00 00 00 00 00 00 00 00
   3.096000 1  18F134F3x       Rx   d 8 00 00 00 00 00 00 00 00
   3.097000 1  18F136F3x       Rx   d 8 00 00 00 00 00 00 00 00
   3.099000 1  18F138F3x       Rx   d 8 00 00 00 00 00 00 00 00
   3.100000 1  18F13BF3x       Rx   d 8 00 00 00 00 00 00 00 00
   3.101000 1  18F155F3x       Rx   d 8 36 35 36 36 35 36 36 00
   3.151000 1  18F157F3x       Rx   d 8 00 00 00 00 00 00 00 00
   3.153000 1  18F159F3x       Rx   d 8 00 00 00 00 00 00 00 00
   3.155000 1  18F15AF3x       Rx   d 8 00 00 00 00 00 00 00 00
   3.157000 1  18F15CF3x       Rx   d 8 00 00 00 00 00 00 00 00
   3.159000 1  18F15DF3x       Rx   d 8 00 00 00 00 00 00 00 00
   3.161000 1  CFF21CAx        Rx   d 8 02 00 80 0C 48 40 00 10
   3.163000 1  18F100D0x       Rx   d 8 0C FF FF FF FF FF FF FF
   3.165000 1  CFF21CAx        Rx   d 8 02 00 80 0C 48 40 00 10
   3.166000 1  18F15AF3x       Rx   d 8 00 00 00 00 00 00 00 00
   3.167000 1  18F15DF3x       Rx   d 8 00 00 00 00 00 00 00 00
   3.170000 1  CFF21CAx        Rx   d 8 02 00 80 0C 48 40 00 10
   3.171000 1  18FF2112x       Rx   d 8 01 00 00 00 00 00 00 00
   3.173000 1  CFF21CAx        Rx   d 8 02 00 80 0C 48 40 00 10
   3.175000 1  18F100D0x       Rx   d 8 0C FF FF FF FF FF FF FF
   3.177000 1  CFF21CAx        Rx   d 8 02 00 80 0C 48 40 00 10
   3.179000 1  CFF21CAx        Rx   d 8 01 00 80 0C 48 40 00 10
   3.181000 1  18F100D0x       Rx   d 8 0C FF FF FF FF FF FF FF
   3.182000 1  CFF21CAx        Rx   d 8 01 00 80 0C 48 40 00 10
   3.184000 1  CFF21CAx        Rx   d 8 01 00 80 0C 48 40 00 10
   3.186000 1  18F100D0x       Rx   d 8 0C FF FF FF FF FF FF FF
   3.188000 1  CFF21CAx        Rx   d 8 02 00 80 0C 48 40 00 10
   3.191000 1  18F100F3x       Rx   d 8 02 D9 7D AB 7E FA 14 00
   3.192000 1  18F102F3x       Rx   d 8 0E 40 0E 3B 13 02 00 05
   3.194000 1  18F106F3x       Rx   d 8 45 E0 FC FF FF FF FF FF
   3.196000 1  18F107F3x       Rx   d 8 38 A4 30 70 01 48 00 AF
   3.197000 1  18F108F3x       Rx   d 8 00 00 00 00 00 00 00 00
   3.199000 1  CFF21CAx        Rx   d 8 02 00 80 0C 48 40 00 10
   3.200000 1  18F155F3x       Rx   d 8 36 35 36 36 35 36 36 00
   3.201000 1  18F156F3x       Rx   d 8 00 00 00 00 00 00 00 00
   3.203000 1  18F157F3x       Rx   d 8 00 00 00 00 00 00 00 00
   3.204000 1  18F100D0x       Rx   d 8 0C FF FF FF FF FF FF FF
