date Sat Jun 06 06:17:19.784 PM 2026
base hex  timestamps absolute
internal events logged
// version 8.0.0
Begin Triggerblock Sat Jun 06 06:17:19.784 PM 2026
   0.000000 Start of measurement
   0.000000 1  18F130F3x       Rx   d 8 00 00 00 00 00 00 00 00
   0.001000 1  1806E5F4x       Rx   d 8 03 4E 01 86 00 FF FF FF
   0.003000 1  18F131F3x       Rx   d 8 00 00 00 00 00 00 00 00
   0.005000 1  18F132F3x       Rx   d 8 00 00 00 00 00 00 00 00
   0.007000 1  18F133F3x       Rx   d 8 00 00 00 00 00 00 00 00
   0.009000 1  18F134F3x       Rx   d 8 00 00 00 00 00 00 00 00
   0.010000 1  18F135F3x       Rx   d 8 00 00 00 00 00 00 00 00
   0.012000 1  18F136F3x       Rx   d 8 00 00 00 00 00 00 00 00
   0.014000 1  18F137F3x       Rx   d 8 00 00 00 00 00 00 00 00
   0.016000 1  18F138F3x       Rx   d 8 00 00 00 00 00 00 00 00
   0.017000 1  18F139F3x       Rx   d 8 00 00 00 00 00 00 00 00
   0.019000 1  18F13AF3x       Rx   d 8 00 00 00 00 00 00 00 00
   0.021000 1  18F13BF3x       Rx   d 8 00 00 00 00 00 00 00 00
   0.023000 1  18F13CF3x       Rx   d 8 00 00 00 00 00 00 00 00
   0.024000 1  18F155F3x       Rx   d 8 39 39 39 38 38 3A 3A 00
   0.026000 1  18F156F3x       Rx   d 8 00 00 00 00 00 00 00 00
   0.028000 1  18F157F3x       Rx   d 8 00 00 00 00 00 00 00 00
   0.029000 1  18F158F3x       Rx   d 8 00 00 00 00 00 00 00 00
   0.031000 1  18F159F3x       Rx   d 8 00 00 00 00 00 00 00 00
   0.033000 1  18F15AF3x       Rx   d 8 00 00 00 00 00 00 00 00
   0.034000 1  18F15BF3x       Rx   d 7 00 00 00 00 00 00 00
   0.036000 1  18F15CF3x       Rx   d 8 00 00 00 00 00 00 00 00
   0.038000 1  18F15DF3x       Rx   d 8 00 00 00 00 00 00 00 00
   0.039000 1  18F15EF3x       Rx   d 8 00 00 00 00 00 00 00 00
   0.047000 1  1806E5F4x       Rx   d 8 03 4E 01 86 00 FF FF FF
   0.064000 1  18F100F3x       Rx   d 8 02 B5 7D 03 1B FA 14 00
   0.065000 1  18F102F3x       Rx   d 8 0D 8E 0D 86 07 0A 00 08
   0.067000 1  18F106F3x       Rx   d 8 45 C4 FC FF FF FF FF FF
   0.069000 1  18F107F3x       Rx   d 8 27 10 27 10 00 00 00 00
   0.071000 1  18F108F3x       Rx   d 8 0C 00 00 00 00 00 00 03
   0.073000 1  18F155F3x       Rx   d 8 39 39 39 38 38 3A 3A 00
   0.074000 1  18F156F3x       Rx   d 8 00 00 00 00 00 00 00 00
   0.076000 1  18F157F3x       Rx   d 8 00 00 00 00 00 00 00 00
   0.078000 1  18F158F3x       Rx   d 8 00 00 00 00 00 00 00 00
   0.080000 1  18F159F3x       Rx   d 8 00 00 00 00 00 00 00 00
   0.081000 1  18F15AF3x       Rx   d 8 00 00 00 00 00 00 00 00
   0.082000 1  18F15BF3x       Rx   d 7 00 00 00 00 00 00 00
   0.084000 1  18F15CF3x       Rx   d 8 00 00 00 00 00 00 00 00
   0.086000 1  18F15DF3x       Rx   d 8 00 00 00 00 00 00 00 00
   0.088000 1  18F15EF3x       Rx   d 8 00 00 00 00 00 00 00 00
   0.097000 1  1806E5F4x       Rx   d 8 03 4E 01 86 00 FF FF FF
   0.147000 1  1806E5F4x       Rx   d 8 03 4E 01 86 00 FF FF FF
   0.164000 1  18F100F3x       Rx   d 8 02 B6 7D 03 1B FA 14 00
   0.165000 1  18F102F3x       Rx   d 8 0D 90 0D 88 07 0A 00 08
   0.167000 1  18F106F3x       Rx   d 8 45 C4 FC FF FF FF FF FF
   0.168000 1  18F107F3x       Rx   d 8 27 10 27 10 00 00 00 00
   0.169000 1  18F108F3x       Rx   d 8 0C 00 00 00 00 00 00 03
   0.170000 1  18F155F3x       Rx   d 8 39 39 39 38 38 3A 3A 00
   0.172000 1  18F156F3x       Rx   d 8 00 00 00 00 00 00 00 00
   0.173000 1  18F157F3x       Rx   d 8 00 00 00 00 00 00 00 00
   0.175000 1  18F158F3x       Rx   d 8 00 00 00 00 00 00 00 00
   0.179000 1  18F159F3x       Rx   d 8 00 00 00 00 00 00 00 00
   0.180000 1  18F15AF3x       Rx   d 8 00 00 00 00 00 00 00 00
   0.182000 1  18F15BF3x       Rx   d 7 00 00 00 00 00 00 00
   0.183000 1  18F15CF3x       Rx   d 8 00 00 00 00 00 00 00 00
   0.184000 1  18F15DF3x       Rx   d 8 00 00 00 00 00 00 00 00
   0.186000 1  18F15EF3x       Rx   d 8 00 00 00 00 00 00 00 00
   0.197000 1  1806E5F4x       Rx   d 8 03 4E 01 86 00 FF FF FF
   0.250000 1  1806E5F4x       Rx   d 8 03 4E 01 86 00 FF FF FF
   0.264000 1  18F100F3x       Rx   d 8 02 B6 7D 03 1B FA 14 00
   0.265000 1  18F102F3x       Rx   d 8 0D 90 0D 88 07 0A 00 08
   0.267000 1  18F106F3x       Rx   d 8 45 C4 FC FF FF FF FF FF
   0.269000 1  18F107F3x       Rx   d 8 27 10 27 10 00 00 00 00
   0.271000 1  18F108F3x       Rx   d 8 0C 00 00 00 00 00 00 03
   0.273000 1  18F155F3x       Rx   d 8 39 39 39 38 38 3A 3A 00
   0.275000 1  18F156F3x       Rx   d 8 00 00 00 00 00 00 00 00
   0.277000 1  18F157F3x       Rx   d 8 00 00 00 00 00 00 00 00
   0.279000 1  18F158F3x       Rx   d 8 00 00 00 00 00 00 00 00
   0.280000 1  18F159F3x       Rx   d 8 00 00 00 00 00 00 00 00
   0.281000 1  18F15AF3x       Rx   d 8 00 00 00 00 00 00 00 00
   0.283000 1  18F15BF3x       Rx   d 7 00 00 00 00 00 00 00
   0.284000 1  18F15CF3x       Rx   d 8 00 00 00 00 00 00 00 00
   0.286000 1  18F15DF3x       Rx   d 8 00 00 00 00 00 00 00 00
   0.287000 1  18F15EF3x       Rx   d 8 00 00 00 00 00 00 00 00
   0.313000 1  1806E5F4x       Rx   d 8 03 4E 01 86 00 FF FF FF
   0.363000 1  1806E5F4x       Rx   d 8 03 4E 01 86 00 FF FF FF
   0.364000 1  18F100F3x       Rx   d 8 02 B6 7D 03 1B FA 14 00
   0.366000 1  18F102F3x       Rx   d 8 0D 90 0D 88 07 0A 00 08
   0.368000 1  18F106F3x       Rx   d 8 45 C4 FC FF FF FF FF FF
   0.369000 1  18F107F3x       Rx   d 8 27 10 27 10 00 00 00 00
   0.371000 1  18F108F3x       Rx   d 8 0C 00 00 00 00 00 00 03
   0.374000 1  18F155F3x       Rx   d 8 39 39 39 38 38 3A 3A 00
   0.375000 1  18F156F3x       Rx   d 8 00 00 00 00 00 00 00 00
   0.377000 1  18F157F3x       Rx   d 8 00 00 00 00 00 00 00 00
   0.379000 1  18F158F3x       Rx   d 8 00 00 00 00 00 00 00 00
   0.380000 1  18F159F3x       Rx   d 8 00 00 00 00 00 00 00 00
   0.382000 1  18F15AF3x       Rx   d 8 00 00 00 00 00 00 00 00
   0.384000 1  18F15BF3x       Rx   d 7 00 00 00 00 00 00 00
   0.385000 1  18F15CF3x       Rx   d 8 00 00 00 00 00 00 00 00
   0.387000 1  18F15DF3x       Rx   d 8 00 00 00 00 00 00 00 00
   0.388000 1  18F15EF3x       Rx   d 8 00 00 00 00 00 00 00 00
   0.413000 1  1806E5F4x       Rx   d 8 03 4E 01 86 00 FF FF FF
   0.463000 1  1806E5F4x       Rx   d 8 03 4E 01 86 00 FF FF FF
   0.464000 1  18F100F3x       Rx   d 8 02 B6 7D 03 1B FA 14 00
   0.466000 1  18F102F3x       Rx   d 8 0D 90 0D 88 07 0A 00 08
   0.468000 1  18F106F3x       Rx   d 8 45 C4 FC FF FF FF FF FF
   0.470000 1  18F107F3x       Rx   d 8 27 10 27 10 00 00 00 00
   0.472000 1  18F108F3x       Rx   d 8 0C 00 00 00 00 00 00 03
   0.474000 1  18F155F3x       Rx   d 8 39 39 39 38 38 3A 3A 00
   0.476000 1  18F156F3x       Rx   d 8 00 00 00 00 00 00 00 00
   0.478000 1  18F157F3x       Rx   d 8 00 00 00 00 00 00 00 00
   0.479000 1  18F158F3x       Rx   d 8 00 00 00 00 00 00 00 00
   0.481000 1  18F159F3x       Rx   d 8 00 00 00 00 00 00 00 00
   0.483000 1  18F15AF3x       Rx   d 8 00 00 00 00 00 00 00 00
   0.485000 1  18F15BF3x       Rx   d 7 00 00 00 00 00 00 00
   0.486000 1  18F15CF3x       Rx   d 8 00 00 00 00 00 00 00 00
   0.488000 1  18F15DF3x       Rx   d 8 00 00 00 00 00 00 00 00
   0.489000 1  18F15EF3x       Rx   d 8 00 00 00 00 00 00 00 00
   0.513000 1  1806E5F4x       Rx   d 8 03 4E 01 86 00 FF FF FF
   0.563000 1  1806E5F4x       Rx   d 8 03 4E 01 86 00 FF FF FF
   0.564000 1  18F100F3x       Rx   d 8 02 B6 7D 03 1B FA 14 00
   0.566000 1  18F102F3x       Rx   d 8 0D 92 0D 8A 07 06 00 08
   0.568000 1  18F106F3x       Rx   d 8 45 C4 FC FF FF FF FF FF
   0.570000 1  18F107F3x       Rx   d 8 27 10 27 10 00 00 00 00
   0.572000 1  18F108F3x       Rx   d 8 0C 00 00 00 00 00 00 03
   0.574000 1  18F155F3x       Rx   d 8 39 39 39 38 38 3A 3A 00
   0.575000 1  18F156F3x       Rx   d 8 00 00 00 00 00 00 00 00
   0.577000 1  18F157F3x       Rx   d 8 00 00 00 00 00 00 00 00
   0.579000 1  18F158F3x       Rx   d 8 00 00 00 00 00 00 00 00
   0.580000 1  18F159F3x       Rx   d 8 00 00 00 00 00 00 00 00
   0.582000 1  18F15AF3x       Rx   d 8 00 00 00 00 00 00 00 00
   0.584000 1  18F15BF3x       Rx   d 7 00 00 00 00 00 00 00
   0.586000 1  18F15CF3x       Rx   d 8 00 00 00 00 00 00 00 00
   0.588000 1  18F15DF3x       Rx   d 8 00 00 00 00 00 00 00 00
   0.589000 1  18F15EF3x       Rx   d 8 00 00 00 00 00 00 00 00
   0.613000 1  1806E5F4x       Rx   d 8 03 4E 01 86 00 FF FF FF
   0.663000 1  1806E5F4x       Rx   d 8 03 4E 01 86 00 FF FF FF
   0.664000 1  18F100F3x       Rx   d 8 02 B6 7D 03 1B FA 14 00
   0.666000 1  18F102F3x       Rx   d 8 0D 92 0D 8A 07 06 00 08
   0.668000 1  18F106F3x       Rx   d 8 45 C4 FC FF FF FF FF FF
   0.670000 1  18F107F3x       Rx   d 8 27 10 27 10 00 00 00 00
   0.672000 1  18F108F3x       Rx   d 8 0C 00 00 00 00 00 00 03
   0.674000 1  18F155F3x       Rx   d 8 39 39 39 38 38 3A 3A 00
   0.676000 1  18F156F3x       Rx   d 8 00 00 00 00 00 00 00 00
   0.678000 1  18F157F3x       Rx   d 8 00 00 00 00 00 00 00 00
   0.679000 1  18F158F3x       Rx   d 8 00 00 00 00 00 00 00 00
   0.681000 1  18F159F3x       Rx   d 8 00 00 00 00 00 00 00 00
   0.683000 1  18F15AF3x       Rx   d 8 00 00 00 00 00 00 00 00
   0.685000 1  18F15BF3x       Rx   d 7 00 00 00 00 00 00 00
   0.686000 1  18F15CF3x       Rx   d 8 00 00 00 00 00 00 00 00
   0.688000 1  18F15DF3x       Rx   d 8 00 00 00 00 00 00 00 00
   0.690000 1  18F15EF3x       Rx   d 8 00 00 00 00 00 00 00 00
   0.713000 1  1806E5F4x       Rx   d 8 03 4E 01 86 00 FF FF FF
   0.763000 1  1806E5F4x       Rx   d 8 03 4E 01 86 00 FF FF FF
   0.764000 1  18F100F3x       Rx   d 8 02 B6 7D 03 1B FA 14 00
   0.766000 1  18F102F3x       Rx   d 8 0D 92 0D 8A 07 06 00 08
   0.768000 1  18F106F3x       Rx   d 8 45 C4 FC FF FF FF FF FF
   0.770000 1  18F107F3x       Rx   d 8 27 10 27 10 00 00 00 00
   0.772000 1  18F108F3x       Rx   d 8 0C 00 00 00 00 00 00 03
   0.774000 1  18F155F3x       Rx   d 8 39 39 39 38 38 3A 3A 00
   0.776000 1  18F156F3x       Rx   d 8 00 00 00 00 00 00 00 00
   0.778000 1  18F157F3x       Rx   d 8 00 00 00 00 00 00 00 00
   0.780000 1  18F158F3x       Rx   d 8 00 00 00 00 00 00 00 00
   0.781000 1  18F159F3x       Rx   d 8 00 00 00 00 00 00 00 00
   0.783000 1  18F15AF3x       Rx   d 8 00 00 00 00 00 00 00 00
   0.785000 1  18F15BF3x       Rx   d 7 00 00 00 00 00 00 00
   0.787000 1  18F15CF3x       Rx   d 8 00 00 00 00 00 00 00 00
   0.788000 1  18F15DF3x       Rx   d 8 00 00 00 00 00 00 00 00
   0.790000 1  18F15EF3x       Rx   d 8 00 00 00 00 00 00 00 00
   0.813000 1  1806E5F4x       Rx   d 8 03 4E 01 86 00 FF FF FF
   0.863000 1  1806E5F4x       Rx   d 8 03 4E 01 86 00 FF FF FF
   0.864000 1  18F100F3x       Rx   d 8 02 B6 7D 03 1B FA 14 00
   0.866000 1  18F102F3x       Rx   d 8 0D 92 0D 8A 07 06 00 08
   0.868000 1  18F106F3x       Rx   d 8 45 C4 FC FF FF FF FF FF
   0.870000 1  18F107F3x       Rx   d 8 27 10 27 10 00 00 00 00
   0.872000 1  18F108F3x       Rx   d 8 0C 00 00 00 00 00 00 03
   0.873000 1  18F155F3x       Rx   d 8 39 39 39 38 38 3A 3A 00
   0.875000 1  18F156F3x       Rx   d 8 00 00 00 00 00 00 00 00
   0.877000 1  18F157F3x       Rx   d 8 00 00 00 00 00 00 00 00
   0.879000 1  18F158F3x       Rx   d 8 00 00 00 00 00 00 00 00
   0.881000 1  18F159F3x       Rx   d 8 00 00 00 00 00 00 00 00
   0.883000 1  18F15AF3x       Rx   d 8 00 00 00 00 00 00 00 00
   0.885000 1  18F15BF3x       Rx   d 7 00 00 00 00 00 00 00
   0.886000 1  18F15CF3x       Rx   d 8 00 00 00 00 00 00 00 00
   0.888000 1  18F15DF3x       Rx   d 8 00 00 00 00 00 00 00 00
   0.890000 1  18F15EF3x       Rx   d 8 00 00 00 00 00 00 00 00
   0.913000 1  1806E5F4x       Rx   d 8 03 4E 01 86 00 FF FF FF
   0.963000 1  18F104F3x       Rx   d 8 3A 38 06 04 02 FF FF FF
   0.964000 1  18F113F3x       Rx   d 8 0D 90 0D 8B 0D 8F 0D 8D
   0.966000 1  18F100F3x       Rx   d 8 02 B6 7D 03 1B FA 14 00
   0.968000 1  18F102F3x       Rx   d 8 0D 92 0D 8A 07 06 00 08
   0.970000 1  18F106F3x       Rx   d 8 45 C4 FC FF FF FF FF FF
   0.972000 1  18F107F3x       Rx   d 8 27 10 27 10 00 00 00 00
   0.974000 1  18F108F3x       Rx   d 8 0C 00 00 00 00 00 00 03
   0.976000 1  18F114F3x       Rx   d 8 0D 8D 0D 8A 0D 92 0D 8E
   0.977000 1  18F115F3x       Rx   d 8 0D 8B 0D 8A 0D 8C 0D 8D
   0.979000 1  18F116F3x       Rx   d 8 0D 90 0D 8A 0D 8E 0D 8E
   0.981000 1  18F117F3x       Rx   d 8 0D 8B 0D 8E 0D 91 0D 90
   0.983000 1  18F118F3x       Rx   d 8 00 00 00 00 00 00 00 00
   0.985000 1  18F119F3x       Rx   d 8 00 00 00 00 00 00 00 00
   0.987000 1  18F11AF3x       Rx   d 8 00 00 00 00 00 00 00 00
   0.989000 1  18F11BF3x       Rx   d 8 00 00 00 00 00 00 00 00
   0.991000 1  18F11CF3x       Rx   d 8 00 00 00 00 00 00 00 00
   0.993000 1  18F11DF3x       Rx   d 8 00 00 00 00 00 00 00 00
   0.994000 1  18F11EF3x       Rx   d 8 00 00 00 00 00 00 00 00
   0.997000 1  18F11FF3x       Rx   d 8 00 00 00 00 00 00 00 00
   0.998000 1  18F120F3x       Rx   d 8 00 00 00 00 00 00 00 00
   1.000000 1  18F121F3x       Rx   d 8 00 00 00 00 00 00 00 00
   1.001000 1  18F122F3x       Rx   d 8 00 00 00 00 00 00 00 00
   1.003000 1  18F123F3x       Rx   d 8 00 00 00 00 00 00 00 00
   1.005000 1  1806E5F4x       Rx   d 8 03 4E 01 86 00 FF FF FF
   1.007000 1  18F124F3x       Rx   d 8 00 00 00 00 00 00 00 00
   1.009000 1  18F125F3x       Rx   d 8 00 00 00 00 00 00 00 00
   1.011000 1  18F126F3x       Rx   d 8 00 00 00 00 00 00 00 00
   1.013000 1  18F127F3x       Rx   d 8 00 00 00 00 00 00 00 00
   1.014000 1  18F128F3x       Rx   d 8 00 00 00 00 00 00 00 00
   1.016000 1  18F129F3x       Rx   d 8 00 00 00 00 00 00 00 00
   1.018000 1  18F12AF3x       Rx   d 8 00 00 00 00 00 00 00 00
   1.020000 1  18F12BF3x       Rx   d 8 00 00 00 00 00 00 00 00
   1.022000 1  18F12CF3x       Rx   d 8 00 00 00 00 00 00 00 00
   1.024000 1  18F12DF3x       Rx   d 8 00 00 00 00 00 00 00 00
   1.026000 1  18F12EF3x       Rx   d 8 00 00 00 00 00 00 00 00
   1.027000 1  18F12FF3x       Rx   d 8 00 00 00 00 00 00 00 00
   1.029000 1  18F130F3x       Rx   d 8 00 00 00 00 00 00 00 00
   1.031000 1  18F131F3x       Rx   d 8 00 00 00 00 00 00 00 00
   1.033000 1  18F132F3x       Rx   d 8 00 00 00 00 00 00 00 00
   1.035000 1  18F133F3x       Rx   d 8 00 00 00 00 00 00 00 00
   1.036000 1  18F134F3x       Rx   d 8 00 00 00 00 00 00 00 00
   1.038000 1  18F135F3x       Rx   d 8 00 00 00 00 00 00 00 00
   1.040000 1  18F136F3x       Rx   d 8 00 00 00 00 00 00 00 00
   1.042000 1  18F137F3x       Rx   d 8 00 00 00 00 00 00 00 00
   1.043000 1  18F138F3x       Rx   d 8 00 00 00 00 00 00 00 00
   1.045000 1  18F139F3x       Rx   d 8 00 00 00 00 00 00 00 00
   1.047000 1  18F13AF3x       Rx   d 8 00 00 00 00 00 00 00 00
   1.048000 1  18F13BF3x       Rx   d 8 00 00 00 00 00 00 00 00
   1.050000 1  18F13CF3x       Rx   d 8 00 00 00 00 00 00 00 00
   1.052000 1  18F155F3x       Rx   d 8 39 39 39 38 38 3A 3A 00
   1.054000 1  18F156F3x       Rx   d 8 00 00 00 00 00 00 00 00
   1.056000 1  18F157F3x       Rx   d 8 00 00 00 00 00 00 00 00
   1.058000 1  18F158F3x       Rx   d 8 00 00 00 00 00 00 00 00
   1.060000 1  18F159F3x       Rx   d 8 00 00 00 00 00 00 00 00
   1.061000 1  18F15AF3x       Rx   d 8 00 00 00 00 00 00 00 00
   1.063000 1  18F15BF3x       Rx   d 7 00 00 00 00 00 00 00
   1.065000 1  18F15CF3x       Rx   d 8 00 00 00 00 00 00 00 00
   1.067000 1  18F15DF3x       Rx   d 8 00 00 00 00 00 00 00 00
   1.069000 1  18F15EF3x       Rx   d 8 00 00 00 00 00 00 00 00
   1.071000 1  1806E5F4x       Rx   d 8 03 4E 01 86 00 FF FF FF
   1.072000 1  18F100F3x       Rx   d 8 02 B6 7D 03 1B FA 14 00
   1.075000 1  18F102F3x       Rx   d 8 0D 92 0D 8A 07 06 00 08
   1.077000 1  18F106F3x       Rx   d 8 45 C4 FC FF FF FF FF FF
   1.078000 1  18F107F3x       Rx   d 8 27 10 27 10 00 00 00 00
   1.080000 1  18F108F3x       Rx   d 8 0C 00 00 00 00 00 00 03
   1.082000 1  18F155F3x       Rx   d 8 39 39 39 38 38 3A 3A 00
   1.084000 1  18F156F3x       Rx   d 8 00 00 00 00 00 00 00 00
   1.086000 1  18F157F3x       Rx   d 8 00 00 00 00 00 00 00 00
   1.087000 1  18F158F3x       Rx   d 8 00 00 00 00 00 00 00 00
   1.089000 1  18F159F3x       Rx   d 8 00 00 00 00 00 00 00 00
   1.091000 1  18F15AF3x       Rx   d 8 00 00 00 00 00 00 00 00
   1.092000 1  18F15BF3x       Rx   d 7 00 00 00 00 00 00 00
   1.094000 1  18F15CF3x       Rx   d 8 00 00 00 00 00 00 00 00
   1.096000 1  18F15DF3x       Rx   d 8 00 00 00 00 00 00 00 00
   1.098000 1  18F15EF3x       Rx   d 8 00 00 00 00 00 00 00 00
   1.100000 1  1806E5F4x       Rx   d 8 03 4E 01 86 00 FF FF FF
   1.134000 1  1806E5F4x       Rx   d 8 03 4E 01 86 00 FF FF FF
   1.164000 1  18F100F3x       Rx   d 8 02 B6 7D 03 1B FA 14 00
   1.165000 1  18F102F3x       Rx   d 8 0D 92 0D 8A 07 0A 00 08
   1.167000 1  18F106F3x       Rx   d 8 45 C4 FC FF FF FF FF FF
   1.169000 1  18F107F3x       Rx   d 8 27 10 27 10 00 00 00 00
   1.172000 1  18F108F3x       Rx   d 8 0C 00 00 00 00 00 00 03
   1.173000 1  18F155F3x       Rx   d 8 39 39 39 38 38 3A 3A 00
   1.175000 1  18F156F3x       Rx   d 8 00 00 00 00 00 00 00 00
   1.177000 1  18F157F3x       Rx   d 8 00 00 00 00 00 00 00 00
   1.179000 1  18F158F3x       Rx   d 8 00 00 00 00 00 00 00 00
   1.180000 1  18F159F3x       Rx   d 8 00 00 00 00 00 00 00 00
   1.182000 1  18F15AF3x       Rx   d 8 00 00 00 00 00 00 00 00
   1.184000 1  18F15BF3x       Rx   d 7 00 00 00 00 00 00 00
   1.185000 1  18F15CF3x       Rx   d 8 00 00 00 00 00 00 00 00
   1.186000 1  18F15DF3x       Rx   d 8 00 00 00 00 00 00 00 00
   1.188000 1  18F15EF3x       Rx   d 8 00 00 00 00 00 00 00 00
   1.189000 1  1806E5F4x       Rx   d 8 03 4E 01 86 00 FF FF FF
   1.239000 1  1806E5F4x       Rx   d 8 03 4E 01 86 00 FF FF FF
   1.264000 1  18F100F3x       Rx   d 8 02 B6 7D 03 1B FA 14 00
   1.265000 1  18F102F3x       Rx   d 8 0D 92 0D 8A 07 0A 00 08
   1.267000 1  18F106F3x       Rx   d 8 45 C4 FC FF FF FF FF FF
   1.268000 1  18F107F3x       Rx   d 8 27 10 27 10 00 00 00 00
   1.269000 1  18F108F3x       Rx   d 8 0C 00 00 00 00 00 00 03
   1.270000 1  18F155F3x       Rx   d 8 39 39 39 38 38 3A 3A 00
   1.272000 1  18F156F3x       Rx   d 8 00 00 00 00 00 00 00 00
   1.273000 1  18F157F3x       Rx   d 8 00 00 00 00 00 00 00 00
   1.274000 1  18F158F3x       Rx   d 8 00 00 00 00 00 00 00 00
   1.285000 1  18F159F3x       Rx   d 8 00 00 00 00 00 00 00 00
   1.286000 1  18F15AF3x       Rx   d 8 00 00 00 00 00 00 00 00
   1.288000 1  18F15BF3x       Rx   d 7 00 00 00 00 00 00 00
   1.290000 1  18F15CF3x       Rx   d 8 00 00 00 00 00 00 00 00
   1.292000 1  18F15DF3x       Rx   d 8 00 00 00 00 00 00 00 00
   1.294000 1  18F15EF3x       Rx   d 8 00 00 00 00 00 00 00 00
   1.295000 1  1806E5F4x       Rx   d 8 03 4E 01 86 00 FF FF FF
   1.358000 1  1806E5F4x       Rx   d 8 03 4E 01 86 00 FF FF FF
   1.364000 1  18F100F3x       Rx   d 8 02 B6 7D 03 1B FA 14 00
   1.366000 1  18F102F3x       Rx   d 8 0D 92 0D 8A 07 0A 00 08
   1.367000 1  18F106F3x       Rx   d 8 45 C4 FC FF FF FF FF FF
   1.369000 1  18F107F3x       Rx   d 8 27 10 27 10 00 00 00 00
   1.370000 1  18F108F3x       Rx   d 8 0C 00 00 00 00 00 00 03
   1.372000 1  18F155F3x       Rx   d 8 39 39 39 38 38 3A 3A 00
   1.373000 1  18F156F3x       Rx   d 8 00 00 00 00 00 00 00 00
   1.374000 1  18F157F3x       Rx   d 8 00 00 00 00 00 00 00 00
   1.375000 1  18F158F3x       Rx   d 8 00 00 00 00 00 00 00 00
   1.404000 1  18F159F3x       Rx   d 8 00 00 00 00 00 00 00 00
   1.406000 1  18F15AF3x       Rx   d 8 00 00 00 00 00 00 00 00
   1.408000 1  18F15BF3x       Rx   d 7 00 00 00 00 00 00 00
   1.410000 1  18F15CF3x       Rx   d 8 00 00 00 00 00 00 00 00
   1.411000 1  18F15DF3x       Rx   d 8 00 00 00 00 00 00 00 00
   1.413000 1  18F15EF3x       Rx   d 8 00 00 00 00 00 00 00 00
   1.415000 1  1806E5F4x       Rx   d 8 03 4E 01 86 00 FF FF FF
   1.457000 1  1806E5F4x       Rx   d 8 03 4E 01 86 00 FF FF FF
   1.464000 1  18F100F3x       Rx   d 8 02 B6 7D 03 1B FA 14 00
   1.465000 1  18F102F3x       Rx   d 8 0D 92 0D 8A 07 0A 00 08
   1.467000 1  18F106F3x       Rx   d 8 45 C4 FC FF FF FF FF FF
   1.469000 1  18F107F3x       Rx   d 8 27 10 27 10 00 00 00 00
   1.471000 1  18F108F3x       Rx   d 8 0C 00 00 00 00 00 00 03
   1.473000 1  18F155F3x       Rx   d 8 39 39 39 38 38 3A 3A 00
   1.475000 1  18F156F3x       Rx   d 8 00 00 00 00 00 00 00 00
   1.476000 1  18F157F3x       Rx   d 8 00 00 00 00 00 00 00 00
   1.478000 1  18F158F3x       Rx   d 8 00 00 00 00 00 00 00 00
   1.479000 1  18F159F3x       Rx   d 8 00 00 00 00 00 00 00 00
   1.481000 1  18F15AF3x       Rx   d 8 00 00 00 00 00 00 00 00
   1.483000 1  18F15BF3x       Rx   d 7 00 00 00 00 00 00 00
   1.485000 1  18F15CF3x       Rx   d 8 00 00 00 00 00 00 00 00
   1.486000 1  18F15DF3x       Rx   d 8 00 00 00 00 00 00 00 00
   1.488000 1  18F15EF3x       Rx   d 8 00 00 00 00 00 00 00 00
   1.507000 1  1806E5F4x       Rx   d 8 03 4E 01 86 00 FF FF FF
   1.557000 1  1806E5F4x       Rx   d 8 03 4E 01 86 00 FF FF FF
   1.564000 1  18F100F3x       Rx   d 8 02 B6 7D 03 1B FA 14 00
   1.565000 1  18F102F3x       Rx   d 8 0D 92 0D 8A 07 0A 00 08
   1.567000 1  18F106F3x       Rx   d 8 45 C4 FC FF FF FF FF FF
   1.569000 1  18F107F3x       Rx   d 8 27 10 27 10 00 00 00 00
   1.571000 1  18F108F3x       Rx   d 8 0C 00 00 00 00 00 00 03
   1.573000 1  18F155F3x       Rx   d 8 39 39 39 38 38 3A 3A 00
   1.575000 1  18F156F3x       Rx   d 8 00 00 00 00 00 00 00 00
   1.577000 1  18F157F3x       Rx   d 8 00 00 00 00 00 00 00 00
   1.578000 1  18F158F3x       Rx   d 8 00 00 00 00 00 00 00 00
   1.580000 1  18F159F3x       Rx   d 8 00 00 00 00 00 00 00 00
   1.582000 1  18F15AF3x       Rx   d 8 00 00 00 00 00 00 00 00
   1.584000 1  18F15BF3x       Rx   d 7 00 00 00 00 00 00 00
   1.586000 1  18F15CF3x       Rx   d 8 00 00 00 00 00 00 00 00
   1.588000 1  18F15DF3x       Rx   d 8 00 00 00 00 00 00 00 00
   1.589000 1  18F15EF3x       Rx   d 8 00 00 00 00 00 00 00 00
   1.607000 1  1806E5F4x       Rx   d 8 03 4E 01 86 00 FF FF FF
   1.658000 1  1806E5F4x       Rx   d 8 03 4E 01 86 00 FF FF FF
   1.664000 1  18F100F3x       Rx   d 8 02 B6 7D 03 1B FA 14 00
   1.665000 1  18F102F3x       Rx   d 8 0D 92 0D 8A 07 0A 00 08
   1.667000 1  18F106F3x       Rx   d 8 45 C4 FC FF FF FF FF FF
   1.669000 1  18F107F3x       Rx   d 8 27 10 27 10 00 00 00 00
   1.671000 1  18F108F3x       Rx   d 8 0C 00 00 00 00 00 00 03
   1.672000 1  18F155F3x       Rx   d 8 39 39 39 38 38 3A 3A 00
   1.675000 1  18F156F3x       Rx   d 8 00 00 00 00 00 00 00 00
   1.677000 1  18F157F3x       Rx   d 8 00 00 00 00 00 00 00 00
   1.679000 1  18F158F3x       Rx   d 8 00 00 00 00 00 00 00 00
   1.680000 1  18F159F3x       Rx   d 8 00 00 00 00 00 00 00 00
   1.682000 1  18F15AF3x       Rx   d 8 00 00 00 00 00 00 00 00
   1.685000 1  18F15BF3x       Rx   d 7 00 00 00 00 00 00 00
   1.686000 1  18F15CF3x       Rx   d 8 00 00 00 00 00 00 00 00
   1.688000 1  18F15DF3x       Rx   d 8 00 00 00 00 00 00 00 00
   1.690000 1  18F15EF3x       Rx   d 8 00 00 00 00 00 00 00 00
   1.708000 1  1806E5F4x       Rx   d 8 03 4E 01 86 00 FF FF FF
   1.758000 1  1806E5F4x       Rx   d 8 03 4E 01 86 00 FF FF FF
   1.764000 1  18F100F3x       Rx   d 8 02 B6 7D 03 1B FA 14 00
   1.766000 1  18F102F3x       Rx   d 8 0D 92 0D 8A 07 0A 00 08
   1.767000 1  18F106F3x       Rx   d 8 45 C4 FC FF FF FF FF FF
   1.769000 1  18F107F3x       Rx   d 8 27 10 27 10 00 00 00 00
   1.771000 1  18F108F3x       Rx   d 8 0C 00 00 00 00 00 00 03
   1.773000 1  18F155F3x       Rx   d 8 39 39 39 38 38 3A 3A 00
   1.775000 1  18F156F3x       Rx   d 8 00 00 00 00 00 00 00 00
   1.777000 1  18F157F3x       Rx   d 8 00 00 00 00 00 00 00 00
   1.779000 1  18F158F3x       Rx   d 8 00 00 00 00 00 00 00 00
   1.780000 1  18F159F3x       Rx   d 8 00 00 00 00 00 00 00 00
   1.782000 1  18F15AF3x       Rx   d 8 00 00 00 00 00 00 00 00
   1.784000 1  18F15BF3x       Rx   d 7 00 00 00 00 00 00 00
   1.786000 1  18F15CF3x       Rx   d 8 00 00 00 00 00 00 00 00
   1.788000 1  18F15DF3x       Rx   d 8 00 00 00 00 00 00 00 00
   1.790000 1  18F15EF3x       Rx   d 8 00 00 00 00 00 00 00 00
   1.813000 1  1806E5F4x       Rx   d 8 03 4E 01 86 00 FF FF FF
   1.862000 1  1806E5F4x       Rx   d 8 03 4E 01 86 00 FF FF FF
   1.865000 1  18F100F3x       Rx   d 8 02 B6 7D 03 1B FA 14 00
   1.866000 1  18F102F3x       Rx   d 8 0D 92 0D 8A 07 0A 00 08
   1.868000 1  18F106F3x       Rx   d 8 45 C4 FC FF FF FF FF FF
   1.871000 1  18F107F3x       Rx   d 8 27 10 27 10 00 00 00 00
   1.873000 1  18F108F3x       Rx   d 8 0C 00 00 00 00 00 00 03
   1.875000 1  18F155F3x       Rx   d 8 39 39 39 38 38 3A 3A 00
   1.877000 1  18F156F3x       Rx   d 8 00 00 00 00 00 00 00 00
   1.879000 1  18F157F3x       Rx   d 8 00 00 00 00 00 00 00 00
   1.881000 1  18F158F3x       Rx   d 8 00 00 00 00 00 00 00 00
   1.882000 1  18F159F3x       Rx   d 8 00 00 00 00 00 00 00 00
   1.884000 1  18F15AF3x       Rx   d 8 00 00 00 00 00 00 00 00
   1.886000 1  18F15BF3x       Rx   d 7 00 00 00 00 00 00 00
   1.888000 1  18F15CF3x       Rx   d 8 00 00 00 00 00 00 00 00
   1.889000 1  18F15DF3x       Rx   d 8 00 00 00 00 00 00 00 00
   1.891000 1  18F15EF3x       Rx   d 8 00 00 00 00 00 00 00 00
   1.912000 1  1806E5F4x       Rx   d 8 03 4E 01 86 00 FF FF FF
   1.963000 1  18F104F3x       Rx   d 8 3A 38 06 04 02 FF FF FF
   1.964000 1  18F113F3x       Rx   d 8 0D 90 0D 8B 0D 90 0D 8D
   1.966000 1  18F100F3x       Rx   d 8 02 B6 7D 03 1B FA 14 00
   1.968000 1  18F102F3x       Rx   d 8 0D 92 0D 8A 07 0A 00 08
   1.970000 1  18F106F3x       Rx   d 8 45 C4 FC FF FF FF FF FF
   1.972000 1  18F107F3x       Rx   d 8 27 10 27 10 00 00 00 00
   1.973000 1  18F108F3x       Rx   d 8 0C 00 00 00 00 00 00 03
   1.975000 1  18F114F3x       Rx   d 8 0D 8D 0D 8B 0D 92 0D 8E
   1.977000 1  18F115F3x       Rx   d 8 0D 8B 0D 8A 0D 8D 0D 8D
   1.979000 1  18F116F3x       Rx   d 8 0D 90 0D 8A 0D 8E 0D 8E
   1.981000 1  18F117F3x       Rx   d 8 0D 8B 0D 8E 0D 91 0D 90
   1.983000 1  18F118F3x       Rx   d 8 00 00 00 00 00 00 00 00
   1.985000 1  18F119F3x       Rx   d 8 00 00 00 00 00 00 00 00
   1.986000 1  18F11AF3x       Rx   d 8 00 00 00 00 00 00 00 00
   1.988000 1  18F11BF3x       Rx   d 8 00 00 00 00 00 00 00 00
   1.990000 1  18F11CF3x       Rx   d 8 00 00 00 00 00 00 00 00
   1.992000 1  18F11DF3x       Rx   d 8 00 00 00 00 00 00 00 00
   1.994000 1  18F11EF3x       Rx   d 8 00 00 00 00 00 00 00 00
   1.996000 1  18F11FF3x       Rx   d 8 00 00 00 00 00 00 00 00
   1.997000 1  18F120F3x       Rx   d 8 00 00 00 00 00 00 00 00
   1.999000 1  18F121F3x       Rx   d 8 00 00 00 00 00 00 00 00
   2.001000 1  18F122F3x       Rx   d 8 00 00 00 00 00 00 00 00
   2.003000 1  18F123F3x       Rx   d 8 00 00 00 00 00 00 00 00
   2.005000 1  18F124F3x       Rx   d 8 00 00 00 00 00 00 00 00
   2.007000 1  18F125F3x       Rx   d 8 00 00 00 00 00 00 00 00
   2.009000 1  18F126F3x       Rx   d 8 00 00 00 00 00 00 00 00
   2.011000 1  18F127F3x       Rx   d 8 00 00 00 00 00 00 00 00
   2.013000 1  18F128F3x       Rx   d 8 00 00 00 00 00 00 00 00
   2.015000 1  18F129F3x       Rx   d 8 00 00 00 00 00 00 00 00
   2.017000 1  18F12AF3x       Rx   d 8 00 00 00 00 00 00 00 00
   2.019000 1  18F12BF3x       Rx   d 8 00 00 00 00 00 00 00 00
   2.020000 1  18F12CF3x       Rx   d 8 00 00 00 00 00 00 00 00
   2.022000 1  18F12DF3x       Rx   d 8 00 00 00 00 00 00 00 00
   2.024000 1  18F12EF3x       Rx   d 8 00 00 00 00 00 00 00 00
   2.025000 1  18F12FF3x       Rx   d 8 00 00 00 00 00 00 00 00
   2.027000 1  18F130F3x       Rx   d 8 00 00 00 00 00 00 00 00
   2.028000 1  1806E5F4x       Rx   d 8 03 4E 01 86 00 FF FF FF
   2.030000 1  18F131F3x       Rx   d 8 00 00 00 00 00 00 00 00
   2.031000 1  18F132F3x       Rx   d 8 00 00 00 00 00 00 00 00
   2.033000 1  18F133F3x       Rx   d 8 00 00 00 00 00 00 00 00
   2.036000 1  18F134F3x       Rx   d 8 00 00 00 00 00 00 00 00
   2.038000 1  18F135F3x       Rx   d 8 00 00 00 00 00 00 00 00
   2.040000 1  18F136F3x       Rx   d 8 00 00 00 00 00 00 00 00
   2.042000 1  18F137F3x       Rx   d 8 00 00 00 00 00 00 00 00
   2.043000 1  18F138F3x       Rx   d 8 00 00 00 00 00 00 00 00
   2.045000 1  18F139F3x       Rx   d 8 00 00 00 00 00 00 00 00
   2.047000 1  18F13AF3x       Rx   d 8 00 00 00 00 00 00 00 00
   2.049000 1  18F13BF3x       Rx   d 8 00 00 00 00 00 00 00 00
   2.051000 1  18F13CF3x       Rx   d 8 00 00 00 00 00 00 00 00
   2.053000 1  18F155F3x       Rx   d 8 39 39 39 38 38 3A 3A 00
   2.055000 1  18F156F3x       Rx   d 8 00 00 00 00 00 00 00 00
   2.056000 1  18F157F3x       Rx   d 8 00 00 00 00 00 00 00 00
   2.058000 1  18F158F3x       Rx   d 8 00 00 00 00 00 00 00 00
   2.060000 1  18F159F3x       Rx   d 8 00 00 00 00 00 00 00 00
   2.062000 1  18F15AF3x       Rx   d 8 00 00 00 00 00 00 00 00
   2.063000 1  18F15BF3x       Rx   d 7 00 00 00 00 00 00 00
   2.065000 1  18F15CF3x       Rx   d 8 00 00 00 00 00 00 00 00
   2.068000 1  18F15DF3x       Rx   d 8 00 00 00 00 00 00 00 00
   2.069000 1  18F15EF3x       Rx   d 8 00 00 00 00 00 00 00 00
   2.071000 1  1806E5F4x       Rx   d 8 03 4E 01 86 00 FF FF FF
   2.073000 1  18F100F3x       Rx   d 8 02 B6 7D 03 1B FA 14 00
   2.074000 1  18F102F3x       Rx   d 8 0D 92 0D 8A 07 0A 00 08
   2.075000 1  18F106F3x       Rx   d 8 45 C4 FC FF FF FF FF FF
   2.077000 1  18F107F3x       Rx   d 8 27 10 27 10 00 00 00 00
   2.078000 1  18F108F3x       Rx   d 8 0C 00 00 00 00 00 00 03
   2.079000 1  18F155F3x       Rx   d 8 39 39 39 38 38 3A 3A 00
   2.093000 1  18F156F3x       Rx   d 8 00 00 00 00 00 00 00 00
   2.097000 1  18F157F3x       Rx   d 8 00 00 00 00 00 00 00 00
   2.099000 1  18F158F3x       Rx   d 8 00 00 00 00 00 00 00 00
   2.101000 1  18F159F3x       Rx   d 8 00 00 00 00 00 00 00 00
   2.102000 1  18F15AF3x       Rx   d 8 00 00 00 00 00 00 00 00
   2.104000 1  18F15BF3x       Rx   d 7 00 00 00 00 00 00 00
   2.106000 1  18F15CF3x       Rx   d 8 00 00 00 00 00 00 00 00
   2.107000 1  18F15DF3x       Rx   d 8 00 00 00 00 00 00 00 00
   2.109000 1  18F15EF3x       Rx   d 8 00 00 00 00 00 00 00 00
   2.111000 1  1806E5F4x       Rx   d 8 03 4E 01 86 00 FF FF FF
   2.147000 1  1806E5F4x       Rx   d 8 03 4E 01 86 00 FF FF FF
   2.164000 1  18F100F3x       Rx   d 8 02 B6 7D 03 1B FA 14 00
   2.165000 1  18F102F3x       Rx   d 8 0D 92 0D 8B 07 02 00 07
   2.167000 1  18F106F3x       Rx   d 8 45 C4 FC FF FF FF FF FF
   2.169000 1  18F107F3x       Rx   d 8 27 10 27 10 00 00 00 00
   2.172000 1  18F108F3x       Rx   d 8 0C 00 00 00 00 00 00 03
   2.173000 1  18F155F3x       Rx   d 8 39 39 39 38 38 3A 3A 00
   2.175000 1  18F156F3x       Rx   d 8 00 00 00 00 00 00 00 00
   2.177000 1  18F157F3x       Rx   d 8 00 00 00 00 00 00 00 00
   2.179000 1  18F158F3x       Rx   d 8 00 00 00 00 00 00 00 00
   2.181000 1  18F159F3x       Rx   d 8 00 00 00 00 00 00 00 00
   2.183000 1  18F15AF3x       Rx   d 8 00 00 00 00 00 00 00 00
   2.185000 1  18F15BF3x       Rx   d 7 00 00 00 00 00 00 00
   2.186000 1  18F15CF3x       Rx   d 8 00 00 00 00 00 00 00 00
   2.188000 1  18F15DF3x       Rx   d 8 00 00 00 00 00 00 00 00
   2.190000 1  18F15EF3x       Rx   d 8 00 00 00 00 00 00 00 00
   2.196000 1  1806E5F4x       Rx   d 8 03 4E 01 86 00 FF FF FF
   2.251000 1  1806E5F4x       Rx   d 8 03 4E 01 86 00 FF FF FF
   2.264000 1  18F100F3x       Rx   d 8 02 B6 7D 03 1B FA 14 00
   2.265000 1  18F102F3x       Rx   d 8 0D 92 0D 8B 07 02 00 07
   2.267000 1  18F106F3x       Rx   d 8 45 C4 FC FF FF FF FF FF
   2.269000 1  18F107F3x       Rx   d 8 27 10 27 10 00 00 00 00
   2.271000 1  18F108F3x       Rx   d 8 0C 00 00 00 00 00 00 03
   2.273000 1  18F155F3x       Rx   d 8 39 39 39 38 38 3A 3A 00
   2.275000 1  18F156F3x       Rx   d 8 00 00 00 00 00 00 00 00
   2.277000 1  18F157F3x       Rx   d 8 00 00 00 00 00 00 00 00
   2.279000 1  18F158F3x       Rx   d 8 00 00 00 00 00 00 00 00
   2.280000 1  18F159F3x       Rx   d 8 00 00 00 00 00 00 00 00
   2.282000 1  18F15AF3x       Rx   d 8 00 00 00 00 00 00 00 00
   2.284000 1  18F15BF3x       Rx   d 7 00 00 00 00 00 00 00
   2.286000 1  18F15CF3x       Rx   d 8 00 00 00 00 00 00 00 00
   2.287000 1  18F15DF3x       Rx   d 8 00 00 00 00 00 00 00 00
   2.289000 1  18F15EF3x       Rx   d 8 00 00 00 00 00 00 00 00
   2.313000 1  1806E5F4x       Rx   d 8 03 4E 01 86 00 FF FF FF
   2.363000 1  1806E5F4x       Rx   d 8 03 4E 01 86 00 FF FF FF
   2.364000 1  18F100F3x       Rx   d 8 02 B6 7D 03 1B FA 14 00
   2.366000 1  18F102F3x       Rx   d 8 0D 92 0D 8B 07 02 00 07
   2.368000 1  18F106F3x       Rx   d 8 45 C4 FC FF FF FF FF FF
   2.370000 1  18F107F3x       Rx   d 8 27 10 27 10 00 00 00 00
   2.372000 1  18F108F3x       Rx   d 8 0C 00 00 00 00 00 00 03
   2.374000 1  18F155F3x       Rx   d 8 39 39 39 38 38 3A 3A 00
   2.376000 1  18F156F3x       Rx   d 8 00 00 00 00 00 00 00 00
   2.377000 1  18F157F3x       Rx   d 8 00 00 00 00 00 00 00 00
   2.380000 1  18F158F3x       Rx   d 8 00 00 00 00 00 00 00 00
   2.381000 1  18F159F3x       Rx   d 8 00 00 00 00 00 00 00 00
   2.383000 1  18F15AF3x       Rx   d 8 00 00 00 00 00 00 00 00
   2.385000 1  18F15BF3x       Rx   d 7 00 00 00 00 00 00 00
   2.387000 1  18F15CF3x       Rx   d 8 00 00 00 00 00 00 00 00
   2.388000 1  18F15DF3x       Rx   d 8 00 00 00 00 00 00 00 00
   2.390000 1  18F15EF3x       Rx   d 8 00 00 00 00 00 00 00 00
   2.413000 1  1806E5F4x       Rx   d 8 03 4E 01 86 00 FF FF FF
   2.463000 1  1806E5F4x       Rx   d 8 03 4E 01 86 00 FF FF FF
   2.464000 1  18F100F3x       Rx   d 8 02 B6 7D 03 1B FA 14 00
   2.466000 1  18F102F3x       Rx   d 8 0D 92 0D 8B 07 02 00 07
   2.468000 1  18F106F3x       Rx   d 8 45 C4 FC FF FF FF FF FF
   2.470000 1  18F107F3x       Rx   d 8 27 10 27 10 00 00 00 00
   2.472000 1  18F108F3x       Rx   d 8 0C 00 00 00 00 00 00 03
   2.474000 1  18F155F3x       Rx   d 8 39 39 39 38 38 3A 3A 00
   2.476000 1  18F156F3x       Rx   d 8 00 00 00 00 00 00 00 00
   2.478000 1  18F157F3x       Rx   d 8 00 00 00 00 00 00 00 00
   2.480000 1  18F158F3x       Rx   d 8 00 00 00 00 00 00 00 00
   2.481000 1  18F159F3x       Rx   d 8 00 00 00 00 00 00 00 00
   2.483000 1  18F15AF3x       Rx   d 8 00 00 00 00 00 00 00 00
   2.484000 1  18F15BF3x       Rx   d 7 00 00 00 00 00 00 00
   2.486000 1  18F15CF3x       Rx   d 8 00 00 00 00 00 00 00 00
   2.488000 1  18F15DF3x       Rx   d 8 00 00 00 00 00 00 00 00
   2.490000 1  18F15EF3x       Rx   d 8 00 00 00 00 00 00 00 00
   2.513000 1  1806E5F4x       Rx   d 8 03 4E 01 86 00 FF FF FF
   2.563000 1  1806E5F4x       Rx   d 8 03 4E 01 86 00 FF FF FF
   2.565000 1  18F100F3x       Rx   d 8 02 B6 7D 03 1B FA 14 00
   2.566000 1  18F102F3x       Rx   d 8 0D 92 0D 8B 07 06 00 07
   2.568000 1  18F106F3x       Rx   d 8 45 C4 FC FF FF FF FF FF
   2.570000 1  18F107F3x       Rx   d 8 27 10 27 10 00 00 00 00
   2.572000 1  18F108F3x       Rx   d 8 0C 00 00 00 00 00 00 03
   2.574000 1  18F155F3x       Rx   d 8 39 39 39 38 38 3A 3A 00
   2.576000 1  18F156F3x       Rx   d 8 00 00 00 00 00 00 00 00
   2.577000 1  18F157F3x       Rx   d 8 00 00 00 00 00 00 00 00
   2.579000 1  18F158F3x       Rx   d 8 00 00 00 00 00 00 00 00
   2.581000 1  18F159F3x       Rx   d 8 00 00 00 00 00 00 00 00
   2.583000 1  18F15AF3x       Rx   d 8 00 00 00 00 00 00 00 00
   2.584000 1  18F15BF3x       Rx   d 7 00 00 00 00 00 00 00
   2.586000 1  18F15CF3x       Rx   d 8 00 00 00 00 00 00 00 00
   2.587000 1  18F15DF3x       Rx   d 8 00 00 00 00 00 00 00 00
   2.588000 1  18F15EF3x       Rx   d 8 00 00 00 00 00 00 00 00
   2.613000 1  1806E5F4x       Rx   d 8 03 4E 01 86 00 FF FF FF
   2.663000 1  1806E5F4x       Rx   d 8 03 4E 01 86 00 FF FF FF
   2.664000 1  18F100F3x       Rx   d 8 02 B6 7D 08 1B FA 14 00
   2.665000 1  18F102F3x       Rx   d 8 0D 92 0D 8B 07 06 00 07
   2.667000 1  18F106F3x       Rx   d 8 45 C4 FC FF FF FF FF FF
   2.668000 1  18F107F3x       Rx   d 8 27 10 27 10 00 00 00 00
   2.669000 1  18F108F3x       Rx   d 8 0C 00 00 00 00 00 00 03
   2.671000 1  18F155F3x       Rx   d 8 39 39 39 38 38 3A 3A 00
   2.672000 1  18F156F3x       Rx   d 8 00 00 00 00 00 00 00 00
   2.673000 1  18F157F3x       Rx   d 8 00 00 00 00 00 00 00 00
   2.686000 1  18F158F3x       Rx   d 8 00 00 00 00 00 00 00 00
   2.687000 1  18F159F3x       Rx   d 8 00 00 00 00 00 00 00 00
   2.689000 1  18F15AF3x       Rx   d 8 00 00 00 00 00 00 00 00
   2.691000 1  18F15BF3x       Rx   d 7 00 00 00 00 00 00 00
   2.693000 1  18F15CF3x       Rx   d 8 00 00 00 00 00 00 00 00
   2.695000 1  18F15DF3x       Rx   d 8 00 00 00 00 00 00 00 00
   2.696000 1  18F15EF3x       Rx   d 8 00 00 00 00 00 00 00 00
   2.713000 1  1806E5F4x       Rx   d 8 03 4E 01 86 00 FF FF FF
   2.741000 1  18FF2112x       Rx   d 8 00 00 00 00 00 00 00 00
   2.763000 1  1806E5F4x       Rx   d 8 00 00 00 00 01 FF FF FF
   2.764000 1  18F100F3x       Rx   d 8 02 B6 7D 08 1B FA 14 00
   2.766000 1  18F102F3x       Rx   d 8 0D 92 0D 8B 07 06 00 07
   2.769000 1  18F106F3x       Rx   d 8 45 E0 FC FF FF FF FF FF
   2.771000 1  18F107F3x       Rx   d 8 38 A4 32 C8 01 38 00 D0
   2.773000 1  18F108F3x       Rx   d 8 0C 00 00 00 00 00 00 03
   2.774000 1  18F155F3x       Rx   d 8 39 39 39 38 38 3A 3A 00
   2.776000 1  18F156F3x       Rx   d 8 00 00 00 00 00 00 00 00
   2.778000 1  18F157F3x       Rx   d 8 00 00 00 00 00 00 00 00
   2.780000 1  18F158F3x       Rx   d 8 00 00 00 00 00 00 00 00
   2.782000 1  18F159F3x       Rx   d 8 00 00 00 00 00 00 00 00
   2.784000 1  18F15AF3x       Rx   d 8 00 00 00 00 00 00 00 00
   2.786000 1  18F15BF3x       Rx   d 7 00 00 00 00 00 00 00
   2.788000 1  18F15CF3x       Rx   d 8 00 00 00 00 00 00 00 00
   2.789000 1  18F15DF3x       Rx   d 8 00 00 00 00 00 00 00 00
   2.790000 1  18F15EF3x       Rx   d 8 00 00 00 00 00 00 00 00
   2.838000 1  18FF2112x       Rx   d 8 00 00 00 00 00 00 00 00
   2.864000 1  18F100F3x       Rx   d 8 02 B6 7D 0B 1B FA 14 00
   2.865000 1  18F102F3x       Rx   d 8 0D 92 0D 8B 07 06 00 07
   2.867000 1  18F106F3x       Rx   d 8 45 E0 FC FF FF FF FF FF
   2.869000 1  18F107F3x       Rx   d 8 38 A4 32 C8 01 38 00 D0
   2.871000 1  18F108F3x       Rx   d 8 0C 00 00 00 00 00 00 03
   2.873000 1  18F155F3x       Rx   d 8 39 39 39 38 38 3A 3A 00
   2.875000 1  18F156F3x       Rx   d 8 00 00 00 00 00 00 00 00
   2.876000 1  18F157F3x       Rx   d 8 00 00 00 00 00 00 00 00
   2.878000 1  18F158F3x       Rx   d 8 00 00 00 00 00 00 00 00
   2.880000 1  18F159F3x       Rx   d 8 00 00 00 00 00 00 00 00
   2.882000 1  18F15AF3x       Rx   d 8 00 00 00 00 00 00 00 00
   2.884000 1  18F15BF3x       Rx   d 7 00 00 00 00 00 00 00
   2.886000 1  18F15CF3x       Rx   d 8 00 00 00 00 00 00 00 00
   2.888000 1  18F15DF3x       Rx   d 8 00 00 00 00 00 00 00 00
   2.890000 1  18F15EF3x       Rx   d 8 00 00 00 00 00 00 00 00
   2.926000 1  18F100D0x       Rx   d 8 00 FF FF FF FF FF FF FF
   2.935000 1  18FF2112x       Rx   d 8 00 00 00 00 00 00 00 00
   2.942000 1  CFF21CAx        Rx   d 8 00 00 80 0C 28 46 00 24
   2.950000 1  18F100D0x       Rx   d 8 0C FF FF FF FF FF FF FF
   2.954000 1  CFF21CAx        Rx   d 8 00 00 80 0C 28 46 00 24
   2.963000 1  18F104F3x       Rx   d 8 3A 38 06 04 02 FF FF FF
   2.964000 1  18F113F3x       Rx   d 8 0D 90 0D 8C 0D 90 0D 8E
   2.966000 1  18F100F3x       Rx   d 8 02 B6 7D 0B 1B FA 14 00
   2.967000 1  18F102F3x       Rx   d 8 0D 92 0D 8B 07 06 00 07
   2.969000 1  CFF21CAx        Rx   d 8 00 00 80 0C 28 46 00 24
   2.971000 1  18F106F3x       Rx   d 8 45 E0 FC FF FF FF FF FF
   2.973000 1  18F107F3x       Rx   d 8 38 A4 32 C8 01 38 00 D0
   2.975000 1  18F100D0x       Rx   d 8 0C FF FF FF FF FF FF FF
   2.977000 1  18F108F3x       Rx   d 8 0C 00 00 00 00 00 00 03
   2.979000 1  18F114F3x       Rx   d 8 0D 8D 0D 8B 0D 92 0D 8E
   2.981000 1  18F115F3x       Rx   d 8 0D 8C 0D 8B 0D 8D 0D 8E
   2.983000 1  18F116F3x       Rx   d 8 0D 91 0D 8B 0D 8E 0D 8E
   2.985000 1  18F117F3x       Rx   d 8 0D 8B 0D 8E 0D 91 0D 90
   2.987000 1  18F118F3x       Rx   d 8 00 00 00 00 00 00 00 00
   2.989000 1  18F119F3x       Rx   d 8 00 00 00 00 00 00 00 00
   2.991000 1  18F11AF3x       Rx   d 8 00 00 00 00 00 00 00 00
   2.993000 1  CFF21CAx        Rx   d 8 02 00 80 0C 28 46 00 24
   2.994000 1  18F11BF3x       Rx   d 8 00 00 00 00 00 00 00 00
   2.996000 1  18F11CF3x       Rx   d 8 00 00 00 00 00 00 00 00
   2.998000 1  18F11DF3x       Rx   d 8 00 00 00 00 00 00 00 00
   3.000000 1  18F11EF3x       Rx   d 8 00 00 00 00 00 00 00 00
   3.002000 1  18F11FF3x       Rx   d 8 00 00 00 00 00 00 00 00
   3.004000 1  18F120F3x       Rx   d 8 00 00 00 00 00 00 00 00
   3.006000 1  18F121F3x       Rx   d 8 00 00 00 00 00 00 00 00
   3.007000 1  18F122F3x       Rx   d 8 00 00 00 00 00 00 00 00
   3.010000 1  18F123F3x       Rx   d 8 00 00 00 00 00 00 00 00
   3.011000 1  18F124F3x       Rx   d 8 00 00 00 00 00 00 00 00
   3.013000 1  18F125F3x       Rx   d 8 00 00 00 00 00 00 00 00
   3.015000 1  18F126F3x       Rx   d 8 00 00 00 00 00 00 00 00
   3.017000 1  CFF21CAx        Rx   d 8 02 00 80 0C 28 46 00 24
   3.019000 1  18F127F3x       Rx   d 8 00 00 00 00 00 00 00 00
   3.021000 1  18F128F3x       Rx   d 8 00 00 00 00 00 00 00 00
   3.023000 1  18F129F3x       Rx   d 8 00 00 00 00 00 00 00 00
   3.024000 1  18F12AF3x       Rx   d 8 00 00 00 00 00 00 00 00
   3.026000 1  18F100D0x       Rx   d 8 0C FF FF FF FF FF FF FF
   3.028000 1  18F12BF3x       Rx   d 8 00 00 00 00 00 00 00 00
   3.030000 1  18F12CF3x       Rx   d 8 00 00 00 00 00 00 00 00
   3.032000 1  18F12DF3x       Rx   d 8 00 00 00 00 00 00 00 00
   3.034000 1  18F12EF3x       Rx   d 8 00 00 00 00 00 00 00 00
   3.035000 1  18F12FF3x       Rx   d 8 00 00 00 00 00 00 00 00
   3.037000 1  18F130F3x       Rx   d 8 00 00 00 00 00 00 00 00
   3.039000 1  18F131F3x       Rx   d 8 00 00 00 00 00 00 00 00
   3.041000 1  18F132F3x       Rx   d 8 00 00 00 00 00 00 00 00
   3.043000 1  CFF21CAx        Rx   d 8 02 00 80 0C 28 46 00 24
   3.044000 1  18F133F3x       Rx   d 8 00 00 00 00 00 00 00 00
   3.046000 1  18F134F3x       Rx   d 8 00 00 00 00 00 00 00 00
   3.048000 1  18F135F3x       Rx   d 8 00 00 00 00 00 00 00 00
   3.049000 1  18F136F3x       Rx   d 8 00 00 00 00 00 00 00 00
   3.051000 1  18F137F3x       Rx   d 8 00 00 00 00 00 00 00 00
   3.052000 1  18F138F3x       Rx   d 8 00 00 00 00 00 00 00 00
   3.054000 1  18F139F3x       Rx   d 8 00 00 00 00 00 00 00 00
   3.056000 1  18F13AF3x       Rx   d 8 00 00 00 00 00 00 00 00
   3.058000 1  18F13BF3x       Rx   d 8 00 00 00 00 00 00 00 00
   3.060000 1  18F13CF3x       Rx   d 8 00 00 00 00 00 00 00 00
   3.061000 1  18F155F3x       Rx   d 8 39 39 39 38 38 3A 3A 00
   3.063000 1  18F156F3x       Rx   d 8 00 00 00 00 00 00 00 00
   3.065000 1  18F157F3x       Rx   d 8 00 00 00 00 00 00 00 00
   3.067000 1  CFF21CAx        Rx   d 8 03 00 80 0C 28 46 00 24
   3.069000 1  18F100D0x       Rx   d 8 0C FF FF FF FF FF FF FF
   3.071000 1  18F158F3x       Rx   d 8 00 00 00 00 00 00 00 00
   3.073000 1  18F159F3x       Rx   d 8 00 00 00 00 00 00 00 00
   3.075000 1  18F15AF3x       Rx   d 8 00 00 00 00 00 00 00 00
   3.077000 1  18F15BF3x       Rx   d 7 00 00 00 00 00 00 00
   3.079000 1  18F15CF3x       Rx   d 8 00 00 00 00 00 00 00 00
   3.081000 1  18F15DF3x       Rx   d 8 00 00 00 00 00 00 00 00
   3.083000 1  18F15EF3x       Rx   d 8 00 00 00 00 00 00 00 00
   3.085000 1  CFF21CAx        Rx   d 8 03 00 80 0C 28 46 00 24
   3.087000 1  18FF2112x       Rx   d 8 00 00 00 00 00 00 00 00
   3.088000 1  18F100D0x       Rx   d 8 0C FF FF FF FF FF FF FF
   3.090000 1  CFF21CAx        Rx   d 8 03 00 80 0C 28 46 00 24
   3.092000 1  CFF21CAx        Rx   d 8 03 00 80 0C 28 46 00 24
   3.094000 1  18F100D0x       Rx   d 8 0C FF FF FF FF FF FF FF
   3.096000 1  CFF21CAx        Rx   d 8 03 00 80 0C 28 46 00 24
   3.098000 1  18F100F3x       Rx   d 8 02 B6 7D 0B 1B FA 14 00
   3.099000 1  18F102F3x       Rx   d 8 0D 92 0D 8B 07 06 00 07
   3.101000 1  18F106F3x       Rx   d 8 45 E0 FC FF FF FF FF FF
   3.103000 1  18F107F3x       Rx   d 8 38 A4 32 C8 01 38 00 D0
   3.105000 1  18F108F3x       Rx   d 8 0C 00 00 00 00 00 00 03
   3.106000 1  18F155F3x       Rx   d 8 39 39 39 38 38 3A 3A 00
   3.108000 1  18F156F3x       Rx   d 8 00 00 00 00 00 00 00 00
   3.110000 1  18F157F3x       Rx   d 8 00 00 00 00 00 00 00 00
   3.111000 1  18F158F3x       Rx   d 8 00 00 00 00 00 00 00 00
   3.113000 1  18F159F3x       Rx   d 8 00 00 00 00 00 00 00 00
   3.115000 1  CFF21CAx        Rx   d 8 03 00 80 0C 28 46 00 24
   3.117000 1  18F100D0x       Rx   d 8 0C FF FF FF FF FF FF FF
   3.118000 1  18F15AF3x       Rx   d 8 00 00 00 00 00 00 00 00
   3.120000 1  18F15BF3x       Rx   d 7 00 00 00 00 00 00 00
   3.122000 1  18F15CF3x       Rx   d 8 00 00 00 00 00 00 00 00
   3.124000 1  18F15DF3x       Rx   d 8 00 00 00 00 00 00 00 00
   3.126000 1  18F15EF3x       Rx   d 8 00 00 00 00 00 00 00 00
   3.128000 1  CFF21CAx        Rx   d 8 03 00 80 0C 28 46 00 24
   3.129000 1  18F100D0x       Rx   d 8 0C FF FF FF FF FF FF FF
   3.131000 1  CFF21CAx        Rx   d 8 03 00 80 0C 28 46 00 24
   3.133000 1  CFF21CAx        Rx   d 8 04 00 80 0C 28 46 00 24
   3.135000 1  18F100D0x       Rx   d 8 0C FF FF FF FF FF FF FF
   3.136000 1  CFF21CAx        Rx   d 8 04 00 80 0C 28 46 00 24
   3.138000 1  18FF2112x       Rx   d 8 00 00 00 00 00 00 00 00
   3.140000 1  CFF21CAx        Rx   d 8 03 00 80 0C 28 46 00 24
   3.143000 1  18F100D0x       Rx   d 8 0C FF FF FF FF FF FF FF
   3.146000 1  CFF21CAx        Rx   d 8 03 00 80 0C 28 46 00 24
   3.158000 1  CFF21CAx        Rx   d 8 03 00 80 0C 28 46 00 24
   3.164000 1  18F100F3x       Rx   d 8 02 B6 7D 10 1B FA 14 00
   3.165000 1  18F102F3x       Rx   d 8 0D 92 0D 8B 07 06 00 07
   3.167000 1  18F106F3x       Rx   d 8 45 E0 FC FF FF FF FF FF
   3.169000 1  18F100D0x       Rx   d 8 0C FF FF FF FF FF FF FF
   3.171000 1  18F107F3x       Rx   d 8 38 A4 32 C8 01 38 00 D0
   3.173000 1  18F108F3x       Rx   d 8 0C 00 00 00 00 00 00 03
   3.175000 1  CFF21CAx        Rx   d 8 02 00 80 0C 28 46 00 24
   3.177000 1  18F155F3x       Rx   d 8 39 39 39 38 38 3A 3A 00
   3.179000 1  18F156F3x       Rx   d 8 00 00 00 00 00 00 00 00
   3.180000 1  18F157F3x       Rx   d 8 00 00 00 00 00 00 00 00
   3.182000 1  18F158F3x       Rx   d 8 00 00 00 00 00 00 00 00
   3.184000 1  18F159F3x       Rx   d 8 00 00 00 00 00 00 00 00
   3.186000 1  18F15AF3x       Rx   d 8 00 00 00 00 00 00 00 00
   3.187000 1  18F15BF3x       Rx   d 7 00 00 00 00 00 00 00
   3.190000 1  18F15CF3x       Rx   d 8 00 00 00 00 00 00 00 00
   3.191000 1  18F15DF3x       Rx   d 8 00 00 00 00 00 00 00 00
   3.193000 1  18F15EF3x       Rx   d 8 00 00 00 00 00 00 00 00
   3.194000 1  CFF21CAx        Rx   d 8 02 00 80 0C 28 46 00 24
   3.196000 1  18F100D0x       Rx   d 8 0C FF FF FF FF FF FF FF
   3.198000 1  CFF21CAx        Rx   d 8 02 00 80 0C 28 46 00 24
   3.207000 1  CFF21CAx        Rx   d 8 02 00 80 0C 28 46 00 24
   3.215000 1  18F100D0x       Rx   d 8 0C FF FF FF FF FF FF FF
   3.219000 1  CFF21CAx        Rx   d 8 02 00 80 0C 28 46 00 24
   3.227000 1  18FF2112x       Rx   d 8 00 00 00 00 00 00 00 00
   3.231000 1  CFF21CAx        Rx   d 8 02 00 80 0C 28 46 00 24
   3.239000 1  18F100D0x       Rx   d 8 0C FF FF FF FF FF FF FF
   3.243000 1  CFF21CAx        Rx   d 8 02 00 80 0C 28 46 00 24
   3.255000 1  CFF21CAx        Rx   d 8 02 00 80 0C 28 46 00 24
   3.259000 1  18F100D0x       Rx   d 8 0C FF FF FF FF FF FF FF
   3.264000 1  18F100F3x       Rx   d 8 02 B6 7D 10 1B FA 14 00
   3.265000 1  18F102F3x       Rx   d 8 0D 92 0D 8B 07 06 00 07
   3.267000 1  18F106F3x       Rx   d 8 45 E0 FC FF FF FF FF FF
   3.269000 1  CFF21CAx        Rx   d 8 02 00 80 0C 28 46 00 24
   3.271000 1  18F107F3x       Rx   d 8 38 A4 32 C8 01 38 00 D0
   3.273000 1  18F108F3x       Rx   d 8 0C 00 00 00 00 00 00 03
   3.275000 1  18F155F3x       Rx   d 8 39 39 39 38 38 3A 3A 00
   3.276000 1  18F156F3x       Rx   d 8 00 00 00 00 00 00 00 00
   3.278000 1  18F157F3x       Rx   d 8 00 00 00 00 00 00 00 00
   3.280000 1  18F158F3x       Rx   d 8 00 00 00 00 00 00 00 00
   3.281000 1  18F159F3x       Rx   d 8 00 00 00 00 00 00 00 00
   3.283000 1  18F15AF3x       Rx   d 8 00 00 00 00 00 00 00 00
   3.285000 1  18F15BF3x       Rx   d 7 00 00 00 00 00 00 00
   3.287000 1  18F15CF3x       Rx   d 8 00 00 00 00 00 00 00 00
   3.289000 1  18F15DF3x       Rx   d 8 00 00 00 00 00 00 00 00
   3.291000 1  18F15EF3x       Rx   d 8 00 00 00 00 00 00 00 00
   3.293000 1  CFF21CAx        Rx   d 8 02 00 80 0C 28 46 00 24
   3.294000 1  18F100D0x       Rx   d 8 0C FF FF FF FF FF FF FF
   3.296000 1  CFF21CAx        Rx   d 8 02 00 80 0C 28 46 00 24
   3.303000 1  CFF21CAx        Rx   d 8 02 00 80 0C 28 46 00 24
   3.304000 1  18F100D0x       Rx   d 8 0C FF FF FF FF FF FF FF
   3.315000 1  CFF21CAx        Rx   d 8 02 00 80 0C 28 46 00 24
   3.324000 1  18FF2112x       Rx   d 8 00 00 00 00 00 00 00 00
   3.327000 1  CFF21CAx        Rx   d 8 02 00 80 0C 28 46 00 24
   3.328000 1  18F100D0x       Rx   d 8 0C FF FF FF FF FF FF FF
   3.339000 1  CFF21CAx        Rx   d 8 02 00 80 0C 28 46 00 24
   3.347000 1  18F100D0x       Rx   d 8 0C FF FF FF FF FF FF FF
   3.351000 1  CFF21CAx        Rx   d 8 02 00 80 0C 28 46 00 24
   3.363000 1  CFF21CAx        Rx   d 8 02 00 80 0C 28 46 00 24
   3.364000 1  18F100F3x       Rx   d 8 02 B6 7D 12 1B FA 14 00
   3.365000 1  18F102F3x       Rx   d 8 0D 92 0D 8B 07 06 00 07
   3.367000 1  18F106F3x       Rx   d 8 45 E0 FC FF FF FF FF FF
   3.368000 1  18F100D0x       Rx   d 8 0C FF FF FF FF FF FF FF
   3.369000 1  18F107F3x       Rx   d 8 38 A4 32 C8 01 38 00 D0
   3.371000 1  18F108F3x       Rx   d 8 0C 00 00 00 00 00 00 03
   3.378000 1  18F155F3x       Rx   d 8 39 39 39 38 38 3A 3A 00
   3.381000 1  18F156F3x       Rx   d 8 00 00 00 00 00 00 00 00
   3.394000 1  18F157F3x       Rx   d 8 00 00 00 00 00 00 00 00
   3.396000 1  18F158F3x       Rx   d 8 00 00 00 00 00 00 00 00
   3.398000 1  18F159F3x       Rx   d 8 00 00 00 00 00 00 00 00
   3.400000 1  18F15AF3x       Rx   d 8 00 00 00 00 00 00 00 00
   3.401000 1  CFF21CAx        Rx   d 8 02 00 80 0C 28 46 00 24
   3.403000 1  18F15BF3x       Rx   d 7 00 00 00 00 00 00 00
   3.405000 1  18F15CF3x       Rx   d 8 00 00 00 00 00 00 00 00
   3.407000 1  18F15DF3x       Rx   d 8 00 00 00 00 00 00 00 00
   3.409000 1  18F15EF3x       Rx   d 8 00 00 00 00 00 00 00 00
   3.410000 1  CFF21CAx        Rx   d 8 02 00 80 0C 28 46 00 24
   3.412000 1  18F100D0x       Rx   d 8 0C FF FF FF FF FF FF FF
   3.414000 1  CFF21CAx        Rx   d 8 02 00 80 0C 28 46 00 24
   3.416000 1  CFF21CAx        Rx   d 8 02 00 80 0C 28 46 00 24
   3.418000 1  18F100D0x       Rx   d 8 0C FF FF FF FF FF FF FF
   3.421000 1  18FF2112x       Rx   d 8 00 00 00 00 00 00 00 00
   3.424000 1  CFF21CAx        Rx   d 8 01 00 80 0C 28 46 00 24
   3.435000 1  CFF21CAx        Rx   d 8 01 00 80 0C 28 46 00 24
   3.436000 1  18F100D0x       Rx   d 8 0C FF FF FF FF FF FF FF
   3.448000 1  CFF21CAx        Rx   d 8 01 00 80 0C 28 46 00 24
   3.456000 1  18F100D0x       Rx   d 8 0C FF FF FF FF FF FF FF
   3.460000 1  CFF21CAx        Rx   d 8 16 00 80 0C 28 46 00 24
   3.464000 1  18F100F3x       Rx   d 8 02 B6 7D 12 1B FA 14 00
   3.466000 1  18F102F3x       Rx   d 8 0D 92 0D 8B 07 06 00 07
   3.467000 1  18F106F3x       Rx   d 8 45 E0 FC FF FF FF FF FF
   3.469000 1  18F107F3x       Rx   d 8 38 A4 32 C8 01 38 00 D0
   3.470000 1  18F108F3x       Rx   d 8 0C 00 00 00 00 00 00 03
   3.472000 1  18F155F3x       Rx   d 8 39 39 39 38 38 3A 3A 00
   3.474000 1  18F156F3x       Rx   d 8 00 00 00 00 00 00 00 00
   3.476000 1  CFF21CAx        Rx   d 8 16 00 80 0C 28 46 00 24
   3.478000 1  18F157F3x       Rx   d 8 00 00 00 00 00 00 00 00
   3.480000 1  18F158F3x       Rx   d 8 00 00 00 00 00 00 00 00
   3.482000 1  18F159F3x       Rx   d 8 00 00 00 00 00 00 00 00
   3.484000 1  18F15AF3x       Rx   d 8 00 00 00 00 00 00 00 00
   3.485000 1  18F100D0x       Rx   d 8 0C FF FF FF FF FF FF FF
   3.487000 1  18F15BF3x       Rx   d 7 00 00 00 00 00 00 00
   3.489000 1  18F15CF3x       Rx   d 8 00 00 00 00 00 00 00 00
   3.491000 1  18F15DF3x       Rx   d 8 00 00 00 00 00 00 00 00
   3.493000 1  18F15EF3x       Rx   d 8 00 00 00 00 00 00 00 00
   3.495000 1  CFF21CAx        Rx   d 8 16 00 80 0C 28 46 00 24
   3.497000 1  CFF21CAx        Rx   d 8 27 00 80 0C 28 46 00 24
   3.500000 1  18F100D0x       Rx   d 8 0C FF FF FF FF FF FF FF
   3.508000 1  CFF21CAx        Rx   d 8 27 00 80 0C 28 46 00 24
   3.519000 1  18FF2112x       Rx   d 8 01 00 00 00 00 00 00 00
   3.520000 1  CFF21CAx        Rx   d 8 34 00 80 0C 28 46 00 24
   3.522000 1  18F100D0x       Rx   d 8 0C FF FF FF FF FF FF FF
   3.532000 1  CFF21CAx        Rx   d 8 34 00 80 0C 28 46 00 24
   3.540000 1  18F100D0x       Rx   d 8 0C FF FF FF FF FF FF FF
   3.544000 1  CFF21CAx        Rx   d 8 34 00 80 0C 28 46 00 24
   3.556000 1  CFF21CAx        Rx   d 8 34 00 80 0C 28 46 00 24
   3.560000 1  18F100D0x       Rx   d 8 0C FF FF FF FF FF FF FF
   3.564000 1  18F100F3x       Rx   d 8 02 B6 7D 12 1B FA 14 00
   3.565000 1  18F102F3x       Rx   d 8 0D 92 0D 8B 07 06 00 07
   3.567000 1  18F106F3x       Rx   d 8 45 E0 FC FF FF FF FF FF
   3.569000 1  18F107F3x       Rx   d 8 38 A4 32 C8 01 38 00 D0
   3.571000 1  CFF21CAx        Rx   d 8 27 00 80 0C 28 46 00 24
   3.573000 1  18F108F3x       Rx   d 8 0C 00 00 00 00 00 00 03
   3.575000 1  18F155F3x       Rx   d 8 39 39 39 38 38 3A 3A 00
   3.577000 1  18F156F3x       Rx   d 8 00 00 00 00 00 00 00 00
   3.579000 1  18F157F3x       Rx   d 8 00 00 00 00 00 00 00 00
   3.581000 1  18F158F3x       Rx   d 8 00 00 00 00 00 00 00 00
   3.583000 1  18F159F3x       Rx   d 8 00 00 00 00 00 00 00 00
   3.585000 1  18F15AF3x       Rx   d 8 00 00 00 00 00 00 00 00
   3.587000 1  18F15BF3x       Rx   d 7 00 00 00 00 00 00 00
   3.588000 1  18F15CF3x       Rx   d 8 00 00 00 00 00 00 00 00
   3.590000 1  18F15DF3x       Rx   d 8 00 00 00 00 00 00 00 00
   3.592000 1  18F15EF3x       Rx   d 8 00 00 00 00 00 00 00 00
   3.594000 1  CFF21CAx        Rx   d 8 27 00 80 0C 28 46 00 24
   3.595000 1  CFF21CAx        Rx   d 8 1F 00 80 0C 28 46 00 24
   3.597000 1  18F100D0x       Rx   d 8 0C FF FF FF FF FF FF FF
   3.604000 1  CFF21CAx        Rx   d 8 1F 00 80 0C 28 46 00 24
   3.613000 1  18F100D0x       Rx   d 8 0C FF FF FF FF FF FF FF
   3.617000 1  CFF21CAx        Rx   d 8 1F 00 80 0C 28 46 00 24
   3.629000 1  CFF21CAx        Rx   d 8 18 00 80 0C 28 46 00 24
   3.637000 1  18F100D0x       Rx   d 8 0C FF FF FF FF FF FF FF
   3.641000 1  CFF21CAx        Rx   d 8 18 00 80 0C 28 46 00 24
   3.653000 1  CFF21CAx        Rx   d 8 13 00 80 0C 28 46 00 24
   3.657000 1  18F100D0x       Rx   d 8 0C FF FF FF FF FF FF FF
   3.664000 1  18F100F3x       Rx   d 8 02 B6 7D 23 1B FA 14 00
   3.666000 1  CFF21CAx        Rx   d 8 13 00 80 0C 28 46 00 24
   3.668000 1  18F102F3x       Rx   d 8 0D 92 0D 8B 07 06 00 07
   3.670000 1  18F106F3x       Rx   d 8 45 E0 FC FF FF FF FF FF
   3.672000 1  18F107F3x       Rx   d 8 38 A4 32 C8 01 38 00 D0
   3.673000 1  18F108F3x       Rx   d 8 0C 00 00 00 00 00 00 03
   3.676000 1  18F155F3x       Rx   d 8 39 39 39 38 38 3A 3A 00
   3.677000 1  18F156F3x       Rx   d 8 00 00 00 00 00 00 00 00
   3.679000 1  18F157F3x       Rx   d 8 00 00 00 00 00 00 00 00
   3.681000 1  18F158F3x       Rx   d 8 00 00 00 00 00 00 00 00
   3.683000 1  18F159F3x       Rx   d 8 00 00 00 00 00 00 00 00
   3.685000 1  18F15AF3x       Rx   d 8 00 00 00 00 00 00 00 00
   3.687000 1  18F15BF3x       Rx   d 7 00 00 00 00 00 00 00
   3.689000 1  CFF21CAx        Rx   d 8 13 00 80 0C 28 46 00 24
   3.690000 1  18F100D0x       Rx   d 8 0C FF FF FF FF FF FF FF
   3.692000 1  18F15CF3x       Rx   d 8 00 00 00 00 00 00 00 00
   3.694000 1  18F15DF3x       Rx   d 8 00 00 00 00 00 00 00 00
   3.696000 1  18F15EF3x       Rx   d 8 00 00 00 00 00 00 00 00
   3.698000 1  CFF21CAx        Rx   d 8 0F 00 80 0C 28 46 00 24
   3.700000 1  18F100D0x       Rx   d 8 0C FF FF FF FF FF FF FF
   3.702000 1  CFF21CAx        Rx   d 8 0F 00 80 0C 28 46 00 24
   3.713000 1  CFF21CAx        Rx   d 8 0F 00 80 0C 28 46 00 24
   3.714000 1  18FF2112x       Rx   d 8 01 00 00 00 00 00 00 00
   3.717000 1  18F100D0x       Rx   d 8 0C FF FF FF FF FF FF FF
   3.725000 1  CFF21CAx        Rx   d 8 0C 00 80 0C 28 46 00 24
   3.737000 1  CFF21CAx        Rx   d 8 0C 00 80 0C 28 46 00 24
   3.741000 1  18F100D0x       Rx   d 8 0C FF FF FF FF FF FF FF
   3.749000 1  CFF21CAx        Rx   d 8 0A 00 80 0C 28 46 00 24
   3.761000 1  CFF21CAx        Rx   d 8 0A 00 80 0C 28 46 00 24
   3.762000 1  18F100D0x       Rx   d 8 0C FF FF FF FF FF FF FF
   3.764000 1  18F100F3x       Rx   d 8 02 B6 7D 23 1B FA 14 00
   3.765000 1  18F102F3x       Rx   d 8 0D 92 0D 8B 07 06 00 07
   3.767000 1  18F106F3x       Rx   d 8 45 E0 FC FF FF FF FF FF
   3.768000 1  18F107F3x       Rx   d 8 38 A4 32 C8 01 38 00 D0
   3.770000 1  18F108F3x       Rx   d 8 0C 00 00 00 00 00 00 03
   3.773000 1  18F155F3x       Rx   d 8 39 39 39 38 38 3A 3A 00
   3.774000 1  18F156F3x       Rx   d 8 00 00 00 00 00 00 00 00
   3.776000 1  18F157F3x       Rx   d 8 00 00 00 00 00 00 00 00
   3.778000 1  18F158F3x       Rx   d 8 00 00 00 00 00 00 00 00
   3.780000 1  CFF21CAx        Rx   d 8 0A 00 80 0C 28 46 00 24
   3.782000 1  18F159F3x       Rx   d 8 00 00 00 00 00 00 00 00
   3.784000 1  18F15AF3x       Rx   d 8 00 00 00 00 00 00 00 00
   3.786000 1  18F15BF3x       Rx   d 7 00 00 00 00 00 00 00
   3.788000 1  18F15CF3x       Rx   d 8 00 00 00 00 00 00 00 00
   3.790000 1  18F15DF3x       Rx   d 8 00 00 00 00 00 00 00 00
   3.792000 1  18F15EF3x       Rx   d 8 00 00 00 00 00 00 00 00
   3.793000 1  18F100D0x       Rx   d 8 0C FF FF FF FF FF FF FF
   3.795000 1  CFF21CAx        Rx   d 8 08 00 80 0C 28 46 00 24
   3.798000 1  CFF21CAx        Rx   d 8 08 00 80 0C 28 46 00 24
   3.805000 1  18F100D0x       Rx   d 8 0C FF FF FF FF FF FF FF
   3.809000 1  CFF21CAx        Rx   d 8 08 00 80 0C 28 46 00 24
   3.812000 1  18FF2112x       Rx   d 8 01 00 00 00 00 00 00 00
   3.821000 1  CFF21CAx        Rx   d 8 06 00 80 0C 28 46 00 24
   3.825000 1  18F100D0x       Rx   d 8 0C FF FF FF FF FF FF FF
   3.833000 1  CFF21CAx        Rx   d 8 06 00 80 0C 28 46 00 24
   3.846000 1  CFF21CAx        Rx   d 8 06 00 80 0C 28 46 00 24
   3.847000 1  18F100D0x       Rx   d 8 0C FF FF FF FF FF FF FF
   3.857000 1  CFF21CAx        Rx   d 8 06 00 80 0C 28 46 00 24
   3.864000 1  18F100F3x       Rx   d 8 02 B6 7D 14 1B FA 14 00
   3.865000 1  18F102F3x       Rx   d 8 0D 92 0D 8B 07 06 00 07
   3.867000 1  18F106F3x       Rx   d 8 45 E0 FC FF FF FF FF FF
   3.869000 1  18F107F3x       Rx   d 8 38 A4 32 C8 01 38 00 D0
   3.870000 1  18F108F3x       Rx   d 8 0C 00 00 00 00 00 00 03
   3.872000 1  CFF21CAx        Rx   d 8 06 00 80 0C 28 46 00 24
   3.874000 1  18F100D0x       Rx   d 8 0C FF FF FF FF FF FF FF
   3.876000 1  18F155F3x       Rx   d 8 39 39 39 38 38 3A 3A 00
   3.878000 1  18F156F3x       Rx   d 8 00 00 00 00 00 00 00 00
   3.880000 1  18F157F3x       Rx   d 8 00 00 00 00 00 00 00 00
   3.882000 1  18F158F3x       Rx   d 8 00 00 00 00 00 00 00 00
   3.883000 1  18F159F3x       Rx   d 8 00 00 00 00 00 00 00 00
   3.885000 1  18F15AF3x       Rx   d 8 00 00 00 00 00 00 00 00
   3.887000 1  18F15BF3x       Rx   d 7 00 00 00 00 00 00 00
   3.889000 1  18F15CF3x       Rx   d 8 00 00 00 00 00 00 00 00
   3.891000 1  18F15DF3x       Rx   d 8 00 00 00 00 00 00 00 00
   3.893000 1  18F15EF3x       Rx   d 8 00 00 00 00 00 00 00 00
   3.894000 1  CFF21CAx        Rx   d 8 05 00 80 0C 28 46 00 24
   3.896000 1  CFF21CAx        Rx   d 8 05 00 80 0C 28 46 00 24
   3.898000 1  18F100D0x       Rx   d 8 0C FF FF FF FF FF FF FF
   3.906000 1  CFF21CAx        Rx   d 8 05 00 80 0C 28 46 00 24
   3.909000 1  18FF2112x       Rx   d 8 01 00 00 00 00 00 00 00
   3.914000 1  18F100D0x       Rx   d 8 0C FF FF FF FF FF FF FF
   3.918000 1  CFF21CAx        Rx   d 8 04 00 80 0C 28 46 00 24
   3.926000 1  18FECACAx       Rx   d 8 00 00 00 00 00 00 FF FF
   3.930000 1  CFF21CAx        Rx   d 8 04 00 80 0C 28 46 00 24
   3.934000 1  18F100D0x       Rx   d 8 0C FF FF FF FF FF FF FF
   3.942000 1  CFF21CAx        Rx   d 8 04 00 80 0C 28 46 00 24
   3.954000 1  CFF21CAx        Rx   d 8 04 00 80 0C 28 46 00 24
   3.958000 1  18F100D0x       Rx   d 8 0C FF FF FF FF FF FF FF
   3.963000 1  18F104F3x       Rx   d 8 3A 38 06 04 02 FF FF FF
   3.965000 1  18F113F3x       Rx   d 8 0D 91 0D 8D 0D 90 0D 8E
   3.966000 1  18F100F3x       Rx   d 8 02 B6 7D 14 1B FA 14 00
   3.968000 1  18F102F3x       Rx   d 8 0D 92 0D 8B 07 06 00 07
   3.970000 1  CFF21CAx        Rx   d 8 04 00 80 0C 28 46 00 24
   3.971000 1  18F106F3x       Rx   d 8 45 E0 FC FF FF FF FF FF
   3.973000 1  18F107F3x       Rx   d 8 38 A4 32 C8 01 38 00 D0
   3.975000 1  18F108F3x       Rx   d 8 0C 00 00 00 00 00 00 03
   3.977000 1  18F114F3x       Rx   d 8 0D 8D 0D 8B 0D 92 0D 8E
   3.979000 1  18F115F3x       Rx   d 8 0D 8C 0D 8B 0D 8D 0D 8E
   3.981000 1  18F116F3x       Rx   d 8 0D 91 0D 8B 0D 8E 0D 8F
   3.983000 1  18F117F3x       Rx   d 8 0D 8B 0D 8E 0D 91 0D 90
   3.985000 1  18F118F3x       Rx   d 8 00 00 00 00 00 00 00 00
   3.986000 1  18F119F3x       Rx   d 8 00 00 00 00 00 00 00 00
   3.987000 1  18F11AF3x       Rx   d 8 00 00 00 00 00 00 00 00
   3.988000 1  CFF21CAx        Rx   d 8 03 00 80 0C 28 46 00 24
   3.990000 1  18F11BF3x       Rx   d 8 00 00 00 00 00 00 00 00
   3.991000 1  18F11CF3x       Rx   d 8 00 00 00 00 00 00 00 00
   3.992000 1  18F11DF3x       Rx   d 8 00 00 00 00 00 00 00 00
   4.042000 1  18F11EF3x       Rx   d 8 00 00 00 00 00 00 00 00
   4.047000 1  18F100D0x       Rx   d 8 0C FF FF FF FF FF FF FF
   4.048000 1  18F11FF3x       Rx   d 8 00 00 00 00 00 00 00 00
   4.050000 1  18F120F3x       Rx   d 8 00 00 00 00 00 00 00 00
   4.051000 1  18F121F3x       Rx   d 8 00 00 00 00 00 00 00 00
   4.053000 1  18F122F3x       Rx   d 8 00 00 00 00 00 00 00 00
   4.056000 1  18F123F3x       Rx   d 8 00 00 00 00 00 00 00 00
   4.057000 1  18F124F3x       Rx   d 8 00 00 00 00 00 00 00 00
   4.059000 1  18F125F3x       Rx   d 8 00 00 00 00 00 00 00 00
   4.060000 1  18F126F3x       Rx   d 8 00 00 00 00 00 00 00 00
   4.062000 1  CFF21CAx        Rx   d 8 03 00 80 0C 28 46 00 24
   4.064000 1  18F127F3x       Rx   d 8 00 00 00 00 00 00 00 00
   4.066000 1  18F128F3x       Rx   d 8 00 00 00 00 00 00 00 00
   4.067000 1  18F129F3x       Rx   d 8 00 00 00 00 00 00 00 00
   4.069000 1  18F12AF3x       Rx   d 8 00 00 00 00 00 00 00 00
   4.070000 1  18F12BF3x       Rx   d 8 00 00 00 00 00 00 00 00
   4.107000 1  18F12CF3x       Rx   d 8 00 00 00 00 00 00 00 00
   4.109000 1  18F12DF3x       Rx   d 8 00 00 00 00 00 00 00 00
   4.111000 1  18F12EF3x       Rx   d 8 00 00 00 00 00 00 00 00
   4.113000 1  18F12FF3x       Rx   d 8 00 00 00 00 00 00 00 00
   4.115000 1  18F130F3x       Rx   d 8 00 00 00 00 00 00 00 00
   4.116000 1  18F131F3x       Rx   d 8 00 00 00 00 00 00 00 00
   4.118000 1  18F132F3x       Rx   d 8 00 00 00 00 00 00 00 00
   4.120000 1  18F133F3x       Rx   d 8 00 00 00 00 00 00 00 00
   4.122000 1  CFF21CAx        Rx   d 8 03 00 80 0C 28 46 00 24
   4.124000 1  18F100D0x       Rx   d 8 0C FF FF FF FF FF FF FF
   4.126000 1  18F134F3x       Rx   d 8 00 00 00 00 00 00 00 00
   4.127000 1  18F135F3x       Rx   d 8 00 00 00 00 00 00 00 00
   4.129000 1  18F136F3x       Rx   d 8 00 00 00 00 00 00 00 00
   4.130000 1  18FF2112x       Rx   d 8 01 00 00 00 00 00 00 00
   4.131000 1  18F137F3x       Rx   d 8 00 00 00 00 00 00 00 00
   4.133000 1  18F138F3x       Rx   d 8 00 00 00 00 00 00 00 00
   4.134000 1  18F139F3x       Rx   d 8 00 00 00 00 00 00 00 00
   4.165000 1  18F13AF3x       Rx   d 8 00 00 00 00 00 00 00 00
   4.167000 1  18F13BF3x       Rx   d 8 00 00 00 00 00 00 00 00
   4.169000 1  18F13CF3x       Rx   d 8 00 00 00 00 00 00 00 00
   4.171000 1  18F155F3x       Rx   d 8 39 39 39 38 38 3A 3A 00
   4.173000 1  18F156F3x       Rx   d 8 00 00 00 00 00 00 00 00
   4.175000 1  18F157F3x       Rx   d 8 00 00 00 00 00 00 00 00
   4.176000 1  CFF21CAx        Rx   d 8 03 00 80 0C 28 46 00 24
   4.178000 1  18F158F3x       Rx   d 8 00 00 00 00 00 00 00 00
   4.180000 1  18F159F3x       Rx   d 8 00 00 00 00 00 00 00 00
   4.182000 1  18F15AF3x       Rx   d 8 00 00 00 00 00 00 00 00
   4.184000 1  18F15BF3x       Rx   d 7 00 00 00 00 00 00 00
   4.186000 1  18F15CF3x       Rx   d 8 00 00 00 00 00 00 00 00
   4.188000 1  18F15DF3x       Rx   d 8 00 00 00 00 00 00 00 00
   4.189000 1  18F15EF3x       Rx   d 8 00 00 00 00 00 00 00 00
   4.191000 1  18F100D0x       Rx   d 8 0C FF FF FF FF FF FF FF
   4.192000 1  CFF21CAx        Rx   d 8 03 00 80 0C 28 46 00 24
   4.193000 1  CFF21CAx        Rx   d 8 03 00 80 0C 28 46 00 24
   4.194000 1  18F100D0x       Rx   d 8 0C FF FF FF FF FF FF FF
   4.196000 1  CFF21CAx        Rx   d 8 03 00 80 0C 28 46 00 24
   4.197000 1  CFF21CAx        Rx   d 8 03 00 80 0C 28 46 00 24
   4.226000 1  18F100F3x       Rx   d 8 02 B6 7D 14 1B FA 14 00
   4.231000 1  18F102F3x       Rx   d 8 0D 92 0D 8B 07 06 00 07
   4.233000 1  18F100D0x       Rx   d 8 0C FF FF FF FF FF FF FF
   4.234000 1  18F106F3x       Rx   d 8 45 E0 FC FF FF FF FF FF
   4.236000 1  18F107F3x       Rx   d 8 38 A4 32 C8 01 38 00 D0
   4.238000 1  18F108F3x       Rx   d 8 0C 00 00 00 00 00 00 03
   4.240000 1  18F155F3x       Rx   d 8 39 39 39 38 38 3A 3A 00
   4.241000 1  18F156F3x       Rx   d 8 00 00 00 00 00 00 00 00
   4.243000 1  18F157F3x       Rx   d 8 00 00 00 00 00 00 00 00
   4.245000 1  18F158F3x       Rx   d 8 00 00 00 00 00 00 00 00
   4.247000 1  CFF21CAx        Rx   d 8 03 00 80 0C 28 46 00 24
   4.249000 1  18F159F3x       Rx   d 8 00 00 00 00 00 00 00 00
   4.251000 1  18F15AF3x       Rx   d 8 00 00 00 00 00 00 00 00
   4.252000 1  18F15BF3x       Rx   d 7 00 00 00 00 00 00 00
   4.254000 1  18F15CF3x       Rx   d 8 00 00 00 00 00 00 00 00
   4.256000 1  18F15DF3x       Rx   d 8 00 00 00 00 00 00 00 00
   4.257000 1  18F15EF3x       Rx   d 8 00 00 00 00 00 00 00 00
   4.259000 1  CFF21CAx        Rx   d 8 03 00 80 0C 28 46 00 24
   4.261000 1  18F100D0x       Rx   d 8 0C FF FF FF FF FF FF FF
   4.263000 1  CFF21CAx        Rx   d 8 03 00 80 0C 28 46 00 24
   4.265000 1  18FF2112x       Rx   d 8 01 00 00 00 00 00 00 00
   4.266000 1  CFF21CAx        Rx   d 8 03 00 80 0C 28 46 00 24
   4.268000 1  18F100D0x       Rx   d 8 0C FF FF FF FF FF FF FF
   4.271000 1  CFF21CAx        Rx   d 8 03 00 80 0C 28 46 00 24
   4.272000 1  18F100D0x       Rx   d 8 0C FF FF FF FF FF FF FF
   4.274000 1  CFF21CAx        Rx   d 8 03 00 80 0C 28 46 00 24
   4.276000 1  CFF21CAx        Rx   d 8 03 00 80 0C 28 46 00 24
   4.278000 1  CFF21CAx        Rx   d 8 03 00 80 0C 28 46 00 24
   4.279000 1  18F100D0x       Rx   d 8 0C FF FF FF FF FF FF FF
   4.280000 1  18F100F3x       Rx   d 8 02 B6 7D 15 1B FA 14 00
   4.283000 1  18F102F3x       Rx   d 8 0D 92 0D 8B 07 06 00 07
   4.285000 1  18F106F3x       Rx   d 8 45 E0 FC FF FF FF FF FF
   4.286000 1  18F107F3x       Rx   d 8 38 A4 32 C8 01 38 00 D0
   4.288000 1  18F108F3x       Rx   d 8 0C 00 00 00 00 00 00 03
   4.290000 1  18F155F3x       Rx   d 8 39 39 39 39 38 3A 3A 00
   4.292000 1  CFF21CAx        Rx   d 8 03 00 80 0C 28 46 00 24
   4.293000 1  18F156F3x       Rx   d 8 00 00 00 00 00 00 00 00
   4.295000 1  18F157F3x       Rx   d 8 00 00 00 00 00 00 00 00
   4.297000 1  18F158F3x       Rx   d 8 00 00 00 00 00 00 00 00
   4.299000 1  18F159F3x       Rx   d 8 00 00 00 00 00 00 00 00
   4.301000 1  18F15AF3x       Rx   d 8 00 00 00 00 00 00 00 00
   4.303000 1  18F15BF3x       Rx   d 7 00 00 00 00 00 00 00
   4.304000 1  18F15CF3x       Rx   d 8 00 00 00 00 00 00 00 00
   4.306000 1  18F15DF3x       Rx   d 8 00 00 00 00 00 00 00 00
   4.308000 1  18F15EF3x       Rx   d 8 00 00 00 00 00 00 00 00
   4.310000 1  CFF21CAx        Rx   d 8 03 00 80 0C 28 46 00 24
   4.312000 1  18F100D0x       Rx   d 8 0C FF FF FF FF FF FF FF
   4.314000 1  CFF21CAx        Rx   d 8 03 00 80 0C 28 46 00 24
   4.316000 1  18FF2112x       Rx   d 8 01 00 00 00 00 00 00 00
   4.318000 1  CFF21CAx        Rx   d 8 03 00 80 0C 28 46 00 24
   4.319000 1  18F100D0x       Rx   d 8 0C FF FF FF FF FF FF FF
   4.321000 1  CFF21CAx        Rx   d 8 03 00 80 0C 28 46 00 24
   4.323000 1  18F100D0x       Rx   d 8 0C FF FF FF FF FF FF FF
   4.324000 1  CFF21CAx        Rx   d 8 03 00 80 0C 28 46 00 24
   4.327000 1  CFF21CAx        Rx   d 8 03 00 80 0C 51 46 00 24
   4.328000 1  18F100D0x       Rx   d 8 0C FF FF FF FF FF FF FF
   4.330000 1  CFF21CAx        Rx   d 8 03 00 80 0C 51 46 00 24
   4.332000 1  18F100F3x       Rx   d 8 02 B6 7D 15 1B FA 14 00
   4.334000 1  18F102F3x       Rx   d 8 0D 92 0D 8B 07 06 00 07
   4.336000 1  18F106F3x       Rx   d 8 45 E0 FC FF FF FF FF FF
   4.338000 1  CFF21CAx        Rx   d 8 03 00 80 0C 51 46 00 24
   4.340000 1  18F107F3x       Rx   d 8 38 A4 32 C8 01 38 00 D0
   4.342000 1  18F108F3x       Rx   d 8 0C 00 00 00 00 00 00 03
   4.343000 1  18F155F3x       Rx   d 8 39 39 39 39 38 3A 3A 00
   4.345000 1  18F156F3x       Rx   d 8 00 00 00 00 00 00 00 00
   4.346000 1  18F100D0x       Rx   d 8 0C FF FF FF FF FF FF FF
   4.349000 1  18F157F3x       Rx   d 8 00 00 00 00 00 00 00 00
   4.350000 1  18F158F3x       Rx   d 8 00 00 00 00 00 00 00 00
   4.352000 1  18F159F3x       Rx   d 8 00 00 00 00 00 00 00 00
   4.354000 1  18F15AF3x       Rx   d 8 00 00 00 00 00 00 00 00
   4.356000 1  18F15BF3x       Rx   d 7 00 00 00 00 00 00 00
   4.358000 1  18F15CF3x       Rx   d 8 00 00 00 00 00 00 00 00
   4.360000 1  18F15DF3x       Rx   d 8 00 00 00 00 00 00 00 00
   4.361000 1  18F15EF3x       Rx   d 8 00 00 00 00 00 00 00 00
   4.363000 1  CFF21CAx        Rx   d 8 03 00 80 0C 51 46 00 24
   4.365000 1  CFF21CAx        Rx   d 8 03 00 80 0C 51 46 00 24
   4.367000 1  18F100D0x       Rx   d 8 0C FF FF FF FF FF FF FF
   4.369000 1  18FF2112x       Rx   d 8 01 00 00 00 00 00 00 00
   4.371000 1  CFF21CAx        Rx   d 8 03 00 80 0C 51 46 00 24
   4.372000 1  18F100D0x       Rx   d 8 0C FF FF FF FF FF FF FF
   4.374000 1  CFF21CAx        Rx   d 8 03 00 80 0C 51 46 00 24
   4.376000 1  CFF21CAx        Rx   d 8 03 00 80 0C 51 46 00 24
   4.378000 1  18F100D0x       Rx   d 8 0C FF FF FF FF FF FF FF
   4.380000 1  CFF21CAx        Rx   d 8 03 00 80 0C 51 46 00 24
   4.381000 1  CFF21CAx        Rx   d 8 03 00 80 0C 51 46 00 24
   4.382000 1  18F100D0x       Rx   d 8 0C FF FF FF FF FF FF FF
   4.385000 1  CFF21CAx        Rx   d 8 03 00 80 0C 51 46 00 24
   4.386000 1  18F100F3x       Rx   d 8 02 B6 7D 17 1B FA 14 00
   4.388000 1  18F102F3x       Rx   d 8 0D 92 0D 8B 07 06 00 07
   4.390000 1  18F106F3x       Rx   d 8 45 E0 FC FF FF FF FF FF
   4.392000 1  18F107F3x       Rx   d 8 38 A4 32 C8 01 38 00 D0
   4.394000 1  18F108F3x       Rx   d 8 0C 00 00 00 00 00 00 03
   4.395000 1  18F155F3x       Rx   d 8 39 39 39 39 38 3A 3A 00
   4.397000 1  18F156F3x       Rx   d 8 00 00 00 00 00 00 00 00
   4.398000 1  18F157F3x       Rx   d 8 00 00 00 00 00 00 00 00
   4.400000 1  18F158F3x       Rx   d 8 00 00 00 00 00 00 00 00
   4.402000 1  18F159F3x       Rx   d 8 00 00 00 00 00 00 00 00
   4.404000 1  18F15AF3x       Rx   d 8 00 00 00 00 00 00 00 00
   4.406000 1  CFF21CAx        Rx   d 8 03 00 80 0C 51 46 00 24
   4.407000 1  18F15BF3x       Rx   d 7 00 00 00 00 00 00 00
   4.409000 1  18F15CF3x       Rx   d 8 00 00 00 00 00 00 00 00
   4.411000 1  18F15DF3x       Rx   d 8 00 00 00 00 00 00 00 00
   4.413000 1  18F15EF3x       Rx   d 8 00 00 00 00 00 00 00 00
   4.415000 1  18F100D0x       Rx   d 8 0C FF FF FF FF FF FF FF
   4.417000 1  CFF21CAx        Rx   d 8 03 00 80 0C 51 46 00 24
   4.418000 1  18FF2112x       Rx   d 8 01 00 00 00 00 00 00 00
   4.420000 1  CFF21CAx        Rx   d 8 02 00 80 0C 51 46 00 24
   4.422000 1  18F100D0x       Rx   d 8 0C FF FF FF FF FF FF FF
   4.424000 1  CFF21CAx        Rx   d 8 02 00 80 0C 51 46 00 24
   4.426000 1  CFF21CAx        Rx   d 8 02 00 80 0C 51 46 00 24
   4.428000 1  18F100D0x       Rx   d 8 0C FF FF FF FF FF FF FF
   4.436000 1  CFF21CAx        Rx   d 8 02 00 80 0C 51 46 00 24
   4.448000 1  CFF21CAx        Rx   d 8 02 00 80 0C 51 46 00 24
   4.449000 1  18F100D0x       Rx   d 8 0C FF FF FF FF FF FF FF
   4.460000 1  CFF21CAx        Rx   d 8 02 00 80 0C 51 46 00 24
   4.464000 1  18F100F3x       Rx   d 8 02 B6 7D 17 1B FA 14 00
   4.465000 1  18F102F3x       Rx   d 8 0D 92 0D 8B 07 06 00 07
   4.467000 1  18F106F3x       Rx   d 8 45 E0 FC FF FF FF FF FF
   4.469000 1  18F107F3x       Rx   d 8 38 A4 32 C8 01 38 00 D0
   4.471000 1  18F100D0x       Rx   d 8 0C FF FF FF FF FF FF FF
   4.473000 1  18F108F3x       Rx   d 8 0C 00 00 00 00 00 00 03
   4.475000 1  18F155F3x       Rx   d 8 39 39 39 39 38 3A 3A 00
   4.476000 1  18F156F3x       Rx   d 8 00 00 00 00 00 00 00 00
   4.479000 1  CFF21CAx        Rx   d 8 02 00 80 0C 51 46 00 24
   4.480000 1  18F157F3x       Rx   d 8 00 00 00 00 00 00 00 00
   4.482000 1  18F158F3x       Rx   d 8 00 00 00 00 00 00 00 00
   4.483000 1  18F159F3x       Rx   d 8 00 00 00 00 00 00 00 00
   4.485000 1  18F15AF3x       Rx   d 8 00 00 00 00 00 00 00 00
   4.486000 1  18F15BF3x       Rx   d 7 00 00 00 00 00 00 00
   4.487000 1  18F15CF3x       Rx   d 8 00 00 00 00 00 00 00 00
   4.489000 1  18F15DF3x       Rx   d 8 00 00 00 00 00 00 00 00
   4.491000 1  18F15EF3x       Rx   d 8 00 00 00 00 00 00 00 00
   4.494000 1  CFF21CAx        Rx   d 8 02 00 80 0C 51 46 00 24
   4.496000 1  18F100D0x       Rx   d 8 0C FF FF FF FF FF FF FF
   4.497000 1  18FF2112x       Rx   d 8 01 00 00 00 00 00 00 00
   4.499000 1  CFF21CAx        Rx   d 8 03 00 80 0C 51 46 00 24
   4.508000 1  CFF21CAx        Rx   d 8 03 00 80 0C 51 46 00 24
   4.512000 1  18F100D0x       Rx   d 8 0C FF FF FF FF FF FF FF
   4.520000 1  CFF21CAx        Rx   d 8 02 00 80 0C 51 46 00 24
   4.532000 1  CFF21CAx        Rx   d 8 02 00 80 0C 51 46 00 24
   4.533000 1  18F100D0x       Rx   d 8 0C FF FF FF FF FF FF FF
   4.544000 1  CFF21CAx        Rx   d 8 02 00 80 0C 51 46 00 24
   4.552000 1  18F100D0x       Rx   d 8 0C FF FF FF FF FF FF FF
   4.556000 1  CFF21CAx        Rx   d 8 02 00 80 0C 50 46 00 24
   4.564000 1  18F100F3x       Rx   d 8 02 B6 7D 17 1B FA 14 00
   4.565000 1  18F102F3x       Rx   d 8 0D 92 0D 8B 07 06 00 07
   4.567000 1  18F106F3x       Rx   d 8 45 E0 FC FF FF FF FF FF
   4.569000 1  18F107F3x       Rx   d 8 38 A4 32 C8 01 38 00 D0
   4.571000 1  CFF21CAx        Rx   d 8 02 00 80 0C 50 46 00 24
   4.573000 1  18F108F3x       Rx   d 8 0C 00 00 00 00 00 00 03
   4.575000 1  18F155F3x       Rx   d 8 39 39 39 38 38 3A 3A 00
   4.577000 1  18F156F3x       Rx   d 8 00 00 00 00 00 00 00 00
   4.579000 1  18F157F3x       Rx   d 8 00 00 00 00 00 00 00 00
   4.580000 1  18F158F3x       Rx   d 8 00 00 00 00 00 00 00 00
   4.582000 1  18F159F3x       Rx   d 8 00 00 00 00 00 00 00 00
   4.583000 1  18F15AF3x       Rx   d 8 00 00 00 00 00 00 00 00
   4.585000 1  18F15BF3x       Rx   d 7 00 00 00 00 00 00 00
   4.586000 1  18F100D0x       Rx   d 8 0C FF FF FF FF FF FF FF
   4.587000 1  18F15CF3x       Rx   d 8 00 00 00 00 00 00 00 00
   4.590000 1  18F15DF3x       Rx   d 8 00 00 00 00 00 00 00 00
   4.592000 1  18F15EF3x       Rx   d 8 00 00 00 00 00 00 00 00
   4.594000 1  CFF21CAx        Rx   d 8 02 00 80 0C 50 46 00 24
   4.596000 1  18FF2112x       Rx   d 8 01 00 00 00 00 00 00 00
   4.597000 1  CFF21CAx        Rx   d 8 02 00 80 0C 50 46 00 24
   4.599000 1  18F100D0x       Rx   d 8 0C FF FF FF FF FF FF FF
   4.604000 1  CFF21CAx        Rx   d 8 02 00 80 0C 50 46 00 24
   4.617000 1  CFF21CAx        Rx   d 8 02 00 80 0C 50 46 00 24
   4.621000 1  18F100D0x       Rx   d 8 0C FF FF FF FF FF FF FF
   4.629000 1  CFF21CAx        Rx   d 8 02 00 80 0C 50 46 00 24
   4.641000 1  CFF21CAx        Rx   d 8 02 00 80 0C 50 46 00 24
   4.649000 1  18F100D0x       Rx   d 8 0C FF FF FF FF FF FF FF
   4.653000 1  CFF21CAx        Rx   d 8 02 00 80 0C 50 46 00 24
   4.664000 1  18F100F3x       Rx   d 8 02 B6 7D 18 1B FA 14 00
   4.665000 1  CFF21CAx        Rx   d 8 02 00 80 0C 50 46 00 24
   4.667000 1  18F102F3x       Rx   d 8 0D 92 0D 8B 07 06 00 07
   4.669000 1  18F106F3x       Rx   d 8 45 E0 FC FF FF FF FF FF
   4.671000 1  18F107F3x       Rx   d 8 38 A4 32 C8 01 38 00 D0
   4.673000 1  18F108F3x       Rx   d 8 0C 00 00 00 00 00 00 03
   4.674000 1  18F155F3x       Rx   d 8 39 39 39 38 38 3A 3A 00
   4.676000 1  18F156F3x       Rx   d 8 00 00 00 00 00 00 00 00
   4.679000 1  18F157F3x       Rx   d 8 00 00 00 00 00 00 00 00
   4.680000 1  18F100D0x       Rx   d 8 0C FF FF FF FF FF FF FF
   4.682000 1  18F158F3x       Rx   d 8 00 00 00 00 00 00 00 00
   4.684000 1  18F159F3x       Rx   d 8 00 00 00 00 00 00 00 00
   4.685000 1  18F15AF3x       Rx   d 8 00 00 00 00 00 00 00 00
   4.687000 1  18F15BF3x       Rx   d 7 00 00 00 00 00 00 00
   4.689000 1  CFF21CAx        Rx   d 8 02 00 80 0C 50 46 00 24
   4.690000 1  18F15CF3x       Rx   d 8 00 00 00 00 00 00 00 00
   4.692000 1  18F15DF3x       Rx   d 8 00 00 00 00 00 00 00 00
   4.694000 1  18F15EF3x       Rx   d 8 00 00 00 00 00 00 00 00
   4.696000 1  18FF2112x       Rx   d 8 01 00 00 00 00 00 00 00
   4.698000 1  CFF21CAx        Rx   d 8 02 00 80 0C 50 46 00 24
   4.700000 1  18F100D0x       Rx   d 8 0C FF FF FF FF FF FF FF
   4.702000 1  CFF21CAx        Rx   d 8 02 00 80 0C 50 46 00 24
   4.713000 1  CFF21CAx        Rx   d 8 03 00 80 0C 50 46 00 24
   4.714000 1  18F100D0x       Rx   d 8 0C FF FF FF FF FF FF FF
   4.725000 1  CFF21CAx        Rx   d 8 03 00 80 0C 50 46 00 24
   4.737000 1  CFF21CAx        Rx   d 8 03 00 80 0C 50 46 00 24
   4.738000 1  18F100D0x       Rx   d 8 0C FF FF FF FF FF FF FF
   4.749000 1  CFF21CAx        Rx   d 8 03 00 80 0C 50 46 00 24
   4.757000 1  18F100D0x       Rx   d 8 0C FF FF FF FF FF FF FF
   4.761000 1  CFF21CAx        Rx   d 8 03 00 80 0C 50 46 00 24
   4.764000 1  18F100F3x       Rx   d 8 02 B6 7D 18 1B FA 14 00
   4.765000 1  18F102F3x       Rx   d 8 0D 92 0D 8B 07 06 00 07
   4.768000 1  18F106F3x       Rx   d 8 45 E0 FC FF FF FF FF FF
   4.769000 1  18F107F3x       Rx   d 8 38 A4 32 C8 01 38 00 D0
   4.771000 1  18F108F3x       Rx   d 8 0C 00 00 00 00 00 00 03
   4.773000 1  18F155F3x       Rx   d 8 39 39 39 38 38 3A 3A 00
   4.775000 1  18F156F3x       Rx   d 8 00 00 00 00 00 00 00 00
   4.777000 1  18F157F3x       Rx   d 8 00 00 00 00 00 00 00 00
   4.778000 1  18F158F3x       Rx   d 8 00 00 00 00 00 00 00 00
   4.780000 1  CFF21CAx        Rx   d 8 03 00 80 0C 50 46 00 24
   4.782000 1  18F159F3x       Rx   d 8 00 00 00 00 00 00 00 00
   4.784000 1  18F15AF3x       Rx   d 8 00 00 00 00 00 00 00 00
   4.786000 1  18F15BF3x       Rx   d 7 00 00 00 00 00 00 00
   4.787000 1  18F15CF3x       Rx   d 8 00 00 00 00 00 00 00 00
   4.789000 1  18F15DF3x       Rx   d 8 00 00 00 00 00 00 00 00
   4.791000 1  18F15EF3x       Rx   d 8 00 00 00 00 00 00 00 00
   4.792000 1  18F100D0x       Rx   d 8 0C FF FF FF FF FF FF FF
   4.794000 1  18FF2112x       Rx   d 8 01 00 00 00 00 00 00 00
   4.796000 1  CFF21CAx        Rx   d 8 03 00 80 0C 50 46 00 24
   4.798000 1  CFF21CAx        Rx   d 8 03 00 80 0C 50 46 00 24
   4.809000 1  CFF21CAx        Rx   d 8 03 00 80 0C 50 46 00 24
   4.810000 1  18F100D0x       Rx   d 8 0C FF FF FF FF FF FF FF
   4.821000 1  CFF21CAx        Rx   d 8 03 00 80 0C 50 46 00 24
   4.829000 1  18F100D0x       Rx   d 8 0C FF FF FF FF FF FF FF
   4.833000 1  CFF21CAx        Rx   d 8 03 00 80 0C 50 46 00 24
   4.845000 1  CFF21CAx        Rx   d 8 03 00 80 0C 50 46 00 24
   4.854000 1  18F100D0x       Rx   d 8 0C FF FF FF FF FF FF FF
   4.857000 1  CFF21CAx        Rx   d 8 03 00 80 0C 50 46 00 24
   4.864000 1  18F100F3x       Rx   d 8 02 B6 7D 1B 1B FA 14 00
   4.865000 1  18F102F3x       Rx   d 8 0D 92 0D 8B 07 06 00 07
   4.867000 1  18F106F3x       Rx   d 8 45 E0 FC FF FF FF FF FF
   4.869000 1  18F107F3x       Rx   d 8 38 A4 32 C8 01 38 00 D0
   4.871000 1  18F108F3x       Rx   d 8 0C 00 00 00 00 00 00 03
   4.873000 1  CFF21CAx        Rx   d 8 03 00 80 0C 50 46 00 24
   4.875000 1  18F155F3x       Rx   d 8 39 39 39 38 38 3A 3A 00
   4.877000 1  18F156F3x       Rx   d 8 00 00 00 00 00 00 00 00
   4.878000 1  18F157F3x       Rx   d 8 00 00 00 00 00 00 00 00
   4.880000 1  18F158F3x       Rx   d 8 00 00 00 00 00 00 00 00
   4.882000 1  18F100D0x       Rx   d 8 0C FF FF FF FF FF FF FF
   4.884000 1  18F159F3x       Rx   d 8 00 00 00 00 00 00 00 00
   4.886000 1  18F15AF3x       Rx   d 8 00 00 00 00 00 00 00 00
   4.887000 1  18F15BF3x       Rx   d 7 00 00 00 00 00 00 00
   4.889000 1  18F15CF3x       Rx   d 8 00 00 00 00 00 00 00 00
   4.891000 1  18F15DF3x       Rx   d 8 00 00 00 00 00 00 00 00
   4.892000 1  18F15EF3x       Rx   d 8 00 00 00 00 00 00 00 00
   4.893000 1  CFF21CAx        Rx   d 8 03 00 80 0C 50 46 00 24
   4.895000 1  18FF2112x       Rx   d 8 01 00 00 00 00 00 00 00
   4.897000 1  CFF21CAx        Rx   d 8 03 00 80 0C 50 46 00 24
   4.899000 1  18F100D0x       Rx   d 8 0C FF FF FF FF FF FF FF
   4.906000 1  CFF21CAx        Rx   d 8 03 00 80 0C 50 46 00 24
   4.918000 1  CFF21CAx        Rx   d 8 03 00 80 0C 50 46 00 24
   4.919000 1  18F100D0x       Rx   d 8 0C FF FF FF FF FF FF FF
   4.930000 1  CFF21CAx        Rx   d 8 03 00 80 0C 50 46 00 24
   4.942000 1  CFF21CAx        Rx   d 8 03 00 80 0C 50 46 00 24
   4.943000 1  18F100D0x       Rx   d 8 0C FF FF FF FF FF FF FF
   4.945000 1  18FECACAx       Rx   d 8 00 00 00 00 00 00 FF FF
   4.954000 1  CFF21CAx        Rx   d 8 03 00 80 0C 50 46 00 24
   4.963000 1  18F104F3x       Rx   d 8 3A 38 06 04 02 FF FF FF
   4.964000 1  18F113F3x       Rx   d 8 0D 91 0D 8D 0D 91 0D 8E
   4.966000 1  18F100F3x       Rx   d 8 02 B6 7D 1B 1B FA 14 00
   4.968000 1  18F102F3x       Rx   d 8 0D 92 0D 8B 07 06 00 07
   4.969000 1  CFF21CAx        Rx   d 8 03 00 80 0C 50 46 00 24
   4.971000 1  18F100D0x       Rx   d 8 0C FF FF FF FF FF FF FF
   4.972000 1  18F106F3x       Rx   d 8 45 E0 FC FF FF FF FF FF
   4.975000 1  18F107F3x       Rx   d 8 38 A4 32 C8 01 38 00 D0
   4.976000 1  18F108F3x       Rx   d 8 0C 00 00 00 00 00 00 03
   4.979000 1  18F114F3x       Rx   d 8 0D 8D 0D 8B 0D 92 0D 8E
   4.980000 1  18F115F3x       Rx   d 8 0D 8D 0D 8B 0D 8D 0D 8E
   4.982000 1  18F116F3x       Rx   d 8 0D 91 0D 8B 0D 8F 0D 8E
   4.984000 1  18F117F3x       Rx   d 8 0D 8B 0D 8E 0D 92 0D 90
   4.986000 1  18F118F3x       Rx   d 8 00 00 00 00 00 00 00 00
   4.988000 1  18F119F3x       Rx   d 8 00 00 00 00 00 00 00 00
   4.990000 1  18F11AF3x       Rx   d 8 00 00 00 00 00 00 00 00
   4.992000 1  CFF21CAx        Rx   d 8 03 00 80 0C 50 46 00 24
   4.994000 1  18F11BF3x       Rx   d 8 00 00 00 00 00 00 00 00
   4.995000 1  18FF2112x       Rx   d 8 01 00 00 00 00 00 00 00
   4.996000 1  18F11CF3x       Rx   d 8 00 00 00 00 00 00 00 00
   4.998000 1  18F11DF3x       Rx   d 8 00 00 00 00 00 00 00 00
   5.000000 1  18F11EF3x       Rx   d 8 00 00 00 00 00 00 00 00
   5.002000 1  18F11FF3x       Rx   d 8 00 00 00 00 00 00 00 00
   5.005000 1  18F120F3x       Rx   d 8 00 00 00 00 00 00 00 00
   5.006000 1  18F121F3x       Rx   d 8 00 00 00 00 00 00 00 00
   5.008000 1  18F122F3x       Rx   d 8 00 00 00 00 00 00 00 00
   5.010000 1  18F100D0x       Rx   d 8 0C FF FF FF FF FF FF FF
   5.011000 1  18F123F3x       Rx   d 8 00 00 00 00 00 00 00 00
   5.013000 1  18F124F3x       Rx   d 8 00 00 00 00 00 00 00 00
   5.015000 1  18F125F3x       Rx   d 8 00 00 00 00 00 00 00 00
   5.017000 1  18F126F3x       Rx   d 8 00 00 00 00 00 00 00 00
   5.019000 1  18F127F3x       Rx   d 8 00 00 00 00 00 00 00 00
   5.020000 1  CFF21CAx        Rx   d 8 03 00 80 0C 50 46 00 24
   5.022000 1  18F128F3x       Rx   d 8 00 00 00 00 00 00 00 00
   5.023000 1  18F129F3x       Rx   d 8 00 00 00 00 00 00 00 00
   5.025000 1  18F12AF3x       Rx   d 8 00 00 00 00 00 00 00 00
   5.027000 1  18F12BF3x       Rx   d 8 00 00 00 00 00 00 00 00
   5.029000 1  18F12CF3x       Rx   d 8 00 00 00 00 00 00 00 00
   5.031000 1  18F12DF3x       Rx   d 8 00 00 00 00 00 00 00 00
   5.032000 1  18F12EF3x       Rx   d 8 00 00 00 00 00 00 00 00
   5.034000 1  18F12FF3x       Rx   d 8 00 00 00 00 00 00 00 00
   5.037000 1  18F130F3x       Rx   d 8 00 00 00 00 00 00 00 00
   5.038000 1  18F131F3x       Rx   d 8 00 00 00 00 00 00 00 00
   5.040000 1  18F132F3x       Rx   d 8 00 00 00 00 00 00 00 00
   5.042000 1  18F133F3x       Rx   d 8 00 00 00 00 00 00 00 00
   5.044000 1  CFF21CAx        Rx   d 8 03 00 80 0C 50 46 00 24
   5.045000 1  18F134F3x       Rx   d 8 00 00 00 00 00 00 00 00
   5.048000 1  18F135F3x       Rx   d 8 00 00 00 00 00 00 00 00
   5.049000 1  18F136F3x       Rx   d 8 00 00 00 00 00 00 00 00
   5.051000 1  18F137F3x       Rx   d 8 00 00 00 00 00 00 00 00
   5.053000 1  18F138F3x       Rx   d 8 00 00 00 00 00 00 00 00
   5.055000 1  18F139F3x       Rx   d 8 00 00 00 00 00 00 00 00
   5.057000 1  18F13AF3x       Rx   d 8 00 00 00 00 00 00 00 00
   5.058000 1  18F13BF3x       Rx   d 8 00 00 00 00 00 00 00 00
   5.060000 1  18F100D0x       Rx   d 8 0C FF FF FF FF FF FF FF
   5.062000 1  18F13CF3x       Rx   d 8 00 00 00 00 00 00 00 00
   5.063000 1  18F155F3x       Rx   d 8 39 39 39 38 38 3A 3A 00
   5.065000 1  18F156F3x       Rx   d 8 00 00 00 00 00 00 00 00
   5.067000 1  18F157F3x       Rx   d 8 00 00 00 00 00 00 00 00
   5.069000 1  CFF21CAx        Rx   d 8 03 00 80 0C 50 46 00 24
   5.071000 1  18F158F3x       Rx   d 8 00 00 00 00 00 00 00 00
   5.073000 1  18F159F3x       Rx   d 8 00 00 00 00 00 00 00 00
   5.075000 1  18F15AF3x       Rx   d 8 00 00 00 00 00 00 00 00
   5.077000 1  18F15BF3x       Rx   d 7 00 00 00 00 00 00 00
   5.079000 1  18F15CF3x       Rx   d 8 00 00 00 00 00 00 00 00
   5.081000 1  18F15DF3x       Rx   d 8 00 00 00 00 00 00 00 00
   5.083000 1  18F15EF3x       Rx   d 8 00 00 00 00 00 00 00 00
   5.084000 1  CFF21CAx        Rx   d 8 03 00 80 0C 50 46 00 24
   5.086000 1  18F100D0x       Rx   d 8 0C FF FF FF FF FF FF FF
   5.088000 1  CFF21CAx        Rx   d 8 03 00 80 0C 50 46 00 24
   5.090000 1  CFF21CAx        Rx   d 8 03 00 80 0C 50 46 00 24
   5.092000 1  18F100D0x       Rx   d 8 0C FF FF FF FF FF FF FF
   5.093000 1  CFF21CAx        Rx   d 8 03 00 80 0C 50 46 00 24
   5.095000 1  18F100F3x       Rx   d 8 02 B6 7D 1B 1B FA 14 00
   5.096000 1  18F102F3x       Rx   d 8 0D 92 0D 8B 07 06 00 07
   5.098000 1  18F106F3x       Rx   d 8 45 E0 FC FF FF FF FF FF
   5.099000 1  18F107F3x       Rx   d 8 38 A4 32 C8 01 38 00 D0
   5.101000 1  18F108F3x       Rx   d 8 0C 00 00 00 00 00 00 03
   5.103000 1  18F155F3x       Rx   d 8 39 39 39 38 38 3A 3A 00
   5.105000 1  18F156F3x       Rx   d 8 00 00 00 00 00 00 00 00
   5.107000 1  18F157F3x       Rx   d 8 00 00 00 00 00 00 00 00
   5.109000 1  18F158F3x       Rx   d 8 00 00 00 00 00 00 00 00
   5.111000 1  18F159F3x       Rx   d 8 00 00 00 00 00 00 00 00
   5.113000 1  CFF21CAx        Rx   d 8 02 00 80 0C 50 46 00 24
   5.114000 1  18F100D0x       Rx   d 8 0C FF FF FF FF FF FF FF
   5.116000 1  18F15AF3x       Rx   d 8 00 00 00 00 00 00 00 00
   5.119000 1  18FF2112x       Rx   d 8 01 00 00 00 00 00 00 00
   5.120000 1  18F15BF3x       Rx   d 7 00 00 00 00 00 00 00
   5.122000 1  18F15CF3x       Rx   d 8 00 00 00 00 00 00 00 00
   5.124000 1  18F15DF3x       Rx   d 8 00 00 00 00 00 00 00 00
   5.126000 1  18F15EF3x       Rx   d 8 00 00 00 00 00 00 00 00
   5.128000 1  CFF21CAx        Rx   d 8 02 00 80 0C 50 46 00 24
   5.129000 1  18F100D0x       Rx   d 8 0C FF FF FF FF FF FF FF
   5.131000 1  CFF21CAx        Rx   d 8 02 00 80 0C 50 46 00 24
   5.133000 1  CFF21CAx        Rx   d 8 03 00 80 0C 50 46 00 24
   5.135000 1  18F100D0x       Rx   d 8 0C FF FF FF FF FF FF FF
   5.137000 1  CFF21CAx        Rx   d 8 03 00 80 0C 50 46 00 24
   5.139000 1  CFF21CAx        Rx   d 8 02 00 80 0C 50 46 00 24
   5.140000 1  18F100D0x       Rx   d 8 0C FF FF FF FF FF FF FF
   5.147000 1  CFF21CAx        Rx   d 8 02 00 80 0C 50 46 00 24
   5.159000 1  CFF21CAx        Rx   d 8 02 00 80 0C 50 46 00 24
   5.164000 1  18F100F3x       Rx   d 8 02 B6 7D 1F 1B FA 14 00
   5.165000 1  18F102F3x       Rx   d 8 0D 92 0D 8B 07 06 00 07
   5.167000 1  18F106F3x       Rx   d 8 45 E0 FC FF FF FF FF FF
   5.169000 1  18F100D0x       Rx   d 8 0C FF FF FF FF FF FF FF
   5.171000 1  18F107F3x       Rx   d 8 38 A4 32 C8 01 38 00 D0
   5.173000 1  18F108F3x       Rx   d 8 0C 00 00 00 00 00 00 03
   5.175000 1  18F155F3x       Rx   d 8 39 39 39 38 38 3A 3A 00
   5.176000 1  CFF21CAx        Rx   d 8 02 00 80 0C 50 46 00 24
   5.178000 1  18F156F3x       Rx   d 8 00 00 00 00 00 00 00 00
   5.180000 1  18F157F3x       Rx   d 8 00 00 00 00 00 00 00 00
   5.182000 1  18FF2112x       Rx   d 8 01 00 00 00 00 00 00 00
   5.184000 1  18F158F3x       Rx   d 8 00 00 00 00 00 00 00 00
   5.186000 1  18F159F3x       Rx   d 8 00 00 00 00 00 00 00 00
   5.188000 1  18F15AF3x       Rx   d 8 00 00 00 00 00 00 00 00
   5.189000 1  18F15BF3x       Rx   d 7 00 00 00 00 00 00 00
   5.191000 1  18F15CF3x       Rx   d 8 00 00 00 00 00 00 00 00
   5.193000 1  18F15DF3x       Rx   d 8 00 00 00 00 00 00 00 00
   5.195000 1  18F15EF3x       Rx   d 8 00 00 00 00 00 00 00 00
   5.197000 1  CFF21CAx        Rx   d 8 02 00 80 0C 50 46 00 24
   5.198000 1  18F100D0x       Rx   d 8 0C FF FF FF FF FF FF FF
   5.200000 1  CFF21CAx        Rx   d 8 02 00 80 0C 50 46 00 24
   5.207000 1  CFF21CAx        Rx   d 8 03 00 80 0C 50 46 00 24
   5.211000 1  18F100D0x       Rx   d 8 0C FF FF FF FF FF FF FF
   5.219000 1  CFF21CAx        Rx   d 8 03 00 80 0C 50 46 00 24
   5.231000 1  CFF21CAx        Rx   d 8 02 00 80 0C 50 46 00 24
   5.235000 1  18F100D0x       Rx   d 8 0C FF FF FF FF FF FF FF
   5.243000 1  CFF21CAx        Rx   d 8 02 00 80 0C 50 46 00 24
   5.255000 1  CFF21CAx        Rx   d 8 02 00 80 0C 50 46 00 24
   5.256000 1  18F100D0x       Rx   d 8 0C FF FF FF FF FF FF FF
   5.264000 1  18F100F3x       Rx   d 8 02 B6 7D 1F 1B FA 14 00
   5.265000 1  18F102F3x       Rx   d 8 0D 92 0D 8B 07 06 00 07
   5.267000 1  18F106F3x       Rx   d 8 45 E0 FC FF FF FF FF FF
   5.269000 1  CFF21CAx        Rx   d 8 02 00 80 0C 50 46 00 24
   5.271000 1  18F107F3x       Rx   d 8 38 A4 32 C8 01 38 00 D0
   5.272000 1  18F108F3x       Rx   d 8 0C 00 00 00 00 00 00 03
   5.274000 1  18F155F3x       Rx   d 8 39 39 39 38 38 3A 3A 00
   5.275000 1  18FF2112x       Rx   d 8 01 00 00 00 00 00 00 00
   5.276000 1  18F156F3x       Rx   d 8 00 00 00 00 00 00 00 00
   5.277000 1  18F157F3x       Rx   d 8 00 00 00 00 00 00 00 00
   5.279000 1  18F158F3x       Rx   d 8 00 00 00 00 00 00 00 00
   5.295000 1  18F159F3x       Rx   d 8 00 00 00 00 00 00 00 00
   5.296000 1  18F100D0x       Rx   d 8 0C FF FF FF FF FF FF FF
   5.298000 1  18F15AF3x       Rx   d 8 00 00 00 00 00 00 00 00
   5.300000 1  18F15BF3x       Rx   d 7 00 00 00 00 00 00 00
   5.301000 1  18F15CF3x       Rx   d 8 00 00 00 00 00 00 00 00
   5.303000 1  18F15DF3x       Rx   d 8 00 00 00 00 00 00 00 00
   5.304000 1  18F15EF3x       Rx   d 8 00 00 00 00 00 00 00 00
   5.306000 1  CFF21CAx        Rx   d 8 02 00 80 0C 50 46 00 24
   5.307000 1  CFF21CAx        Rx   d 8 02 00 80 0C 50 46 00 24
   5.309000 1  18F100D0x       Rx   d 8 0C FF FF FF FF FF FF FF
   5.311000 1  CFF21CAx        Rx   d 8 02 00 80 0C 50 46 00 24
   5.315000 1  CFF21CAx        Rx   d 8 02 00 80 0C 50 46 00 24
   5.328000 1  CFF21CAx        Rx   d 8 03 00 80 0C 50 46 00 24
   5.329000 1  18F100D0x       Rx   d 8 0C FF FF FF FF FF FF FF
   5.339000 1  CFF21CAx        Rx   d 8 03 00 80 0C 50 46 00 24
   5.351000 1  CFF21CAx        Rx   d 8 03 00 80 0C 50 46 00 24
   5.360000 1  18F100D0x       Rx   d 8 0C FF FF FF FF FF FF FF
   5.363000 1  CFF21CAx        Rx   d 8 02 00 80 0C 50 46 00 24
   5.365000 1  18F100F3x       Rx   d 8 02 B6 7D 29 1B FA 14 00
   5.367000 1  18F102F3x       Rx   d 8 0D 92 0D 8B 07 06 00 07
   5.368000 1  18F106F3x       Rx   d 8 45 E0 FC FF FF FF FF FF
   5.370000 1  18F107F3x       Rx   d 8 38 A4 32 C8 01 38 00 D0
   5.372000 1  18FF2112x       Rx   d 8 01 00 00 00 00 00 00 00
   5.373000 1  18F108F3x       Rx   d 8 0C 00 00 00 00 00 00 03
   5.375000 1  18F155F3x       Rx   d 8 39 39 39 38 38 3A 3A 00
   5.377000 1  18F156F3x       Rx   d 8 00 00 00 00 00 00 00 00
   5.378000 1  18F157F3x       Rx   d 8 00 00 00 00 00 00 00 00
   5.380000 1  18F158F3x       Rx   d 8 00 00 00 00 00 00 00 00
   5.382000 1  18F159F3x       Rx   d 8 00 00 00 00 00 00 00 00
   5.384000 1  18F15AF3x       Rx   d 8 00 00 00 00 00 00 00 00
   5.385000 1  18F15BF3x       Rx   d 7 00 00 00 00 00 00 00
   5.386000 1  CFF21CAx        Rx   d 8 02 00 80 0C 50 46 00 24
   5.388000 1  18F15CF3x       Rx   d 8 00 00 00 00 00 00 00 00
   5.389000 1  18F15DF3x       Rx   d 8 00 00 00 00 00 00 00 00
   5.390000 1  18F15EF3x       Rx   d 8 00 00 00 00 00 00 00 00
   5.391000 1  18F100D0x       Rx   d 8 0C FF FF FF FF FF FF FF
   5.421000 1  CFF21CAx        Rx   d 8 03 00 80 0C 50 46 00 24
   5.425000 1  CFF21CAx        Rx   d 8 03 00 80 0C 50 46 00 24
   5.427000 1  18F100D0x       Rx   d 8 0C FF FF FF FF FF FF FF
   5.428000 1  CFF21CAx        Rx   d 8 03 00 80 0C 50 46 00 24
   5.430000 1  CFF21CAx        Rx   d 8 03 00 80 0C 50 46 00 24
   5.432000 1  18F100D0x       Rx   d 8 0C FF FF FF FF FF FF FF
   5.436000 1  CFF21CAx        Rx   d 8 03 00 80 0C 50 46 00 24
   5.444000 1  18F100D0x       Rx   d 8 0C FF FF FF FF FF FF FF
   5.448000 1  CFF21CAx        Rx   d 8 03 00 80 0C 50 46 00 24
   5.460000 1  CFF21CAx        Rx   d 8 03 00 80 0C 50 46 00 24
   5.464000 1  18F100D0x       Rx   d 8 0C FF FF FF FF FF FF FF
   5.465000 1  18F100F3x       Rx   d 8 02 B6 7D 29 1B FA 14 00
   5.466000 1  18FF2112x       Rx   d 8 01 00 00 00 00 00 00 00
   5.468000 1  18F102F3x       Rx   d 8 0D 92 0D 8B 07 06 00 07
   5.469000 1  18F106F3x       Rx   d 8 45 E0 FC FF FF FF FF FF
   5.470000 1  18F107F3x       Rx   d 8 38 A4 32 C8 01 38 00 D0
   5.485000 1  18F108F3x       Rx   d 8 0C 00 00 00 00 00 00 03
   5.487000 1  18F155F3x       Rx   d 8 39 39 39 38 38 3A 3A 00
   5.489000 1  CFF21CAx        Rx   d 8 03 00 80 0C 50 46 00 24
   5.492000 1  18F156F3x       Rx   d 8 00 00 00 00 00 00 00 00
   5.493000 1  18F157F3x       Rx   d 8 00 00 00 00 00 00 00 00
   5.495000 1  18F158F3x       Rx   d 8 00 00 00 00 00 00 00 00
   5.497000 1  18F159F3x       Rx   d 8 00 00 00 00 00 00 00 00
   5.499000 1  18F15AF3x       Rx   d 8 00 00 00 00 00 00 00 00
   5.500000 1  18F15BF3x       Rx   d 7 00 00 00 00 00 00 00
   5.502000 1  18F15CF3x       Rx   d 8 00 00 00 00 00 00 00 00
   5.503000 1  18F15DF3x       Rx   d 8 00 00 00 00 00 00 00 00
   5.505000 1  18F15EF3x       Rx   d 8 00 00 00 00 00 00 00 00
   5.506000 1  CFF21CAx        Rx   d 8 03 00 80 0C 50 46 00 24
   5.508000 1  18F100D0x       Rx   d 8 0C FF FF FF FF FF FF FF
   5.545000 1  CFF21CAx        Rx   d 8 03 00 80 0C 50 46 00 24
   5.547000 1  CFF21CAx        Rx   d 8 03 00 80 0C 50 46 00 24
   5.549000 1  18F100D0x       Rx   d 8 0C FF FF FF FF FF FF FF
   5.551000 1  CFF21CAx        Rx   d 8 03 00 80 0C 50 46 00 24
   5.552000 1  CFF21CAx        Rx   d 8 03 00 80 0C 50 46 00 24
   5.554000 1  18F100D0x       Rx   d 8 0C FF FF FF FF FF FF FF
   5.556000 1  CFF21CAx        Rx   d 8 03 00 80 0C 50 46 00 24
   5.558000 1  18F100D0x       Rx   d 8 0C FF FF FF FF FF FF FF
   5.559000 1  CFF21CAx        Rx   d 8 03 00 80 0C 50 46 00 24
   5.564000 1  18F100F3x       Rx   d 8 02 B6 7D 29 1B FA 14 00
   5.566000 1  18F102F3x       Rx   d 8 0D 92 0D 8B 07 06 00 07
   5.567000 1  18F106F3x       Rx   d 8 45 E0 FC FF FF FF FF FF
   5.569000 1  18F107F3x       Rx   d 8 38 A4 32 C8 01 38 00 D0
   5.570000 1  CFF21CAx        Rx   d 8 03 00 80 0C 50 46 00 24
   5.571000 1  18F108F3x       Rx   d 8 0C 00 00 00 00 00 00 03
   5.572000 1  18F155F3x       Rx   d 8 39 39 39 39 38 3A 3A 00
   5.574000 1  18F156F3x       Rx   d 8 00 00 00 00 00 00 00 00
   5.575000 1  18F157F3x       Rx   d 8 00 00 00 00 00 00 00 00
   5.603000 1  18F100D0x       Rx   d 8 0C FF FF FF FF FF FF FF
   5.606000 1  18F158F3x       Rx   d 8 00 00 00 00 00 00 00 00
   5.614000 1  18F159F3x       Rx   d 8 00 00 00 00 00 00 00 00
   5.616000 1  18F15AF3x       Rx   d 8 00 00 00 00 00 00 00 00
   5.618000 1  18F15BF3x       Rx   d 7 00 00 00 00 00 00 00
   5.620000 1  18F15CF3x       Rx   d 8 00 00 00 00 00 00 00 00
   5.621000 1  18F15DF3x       Rx   d 8 00 00 00 00 00 00 00 00
   5.623000 1  18F15EF3x       Rx   d 8 00 00 00 00 00 00 00 00
   5.625000 1  CFF21CAx        Rx   d 8 03 00 80 0C 50 46 00 24
   5.627000 1  CFF21CAx        Rx   d 8 03 00 80 0C 50 46 00 24
   5.629000 1  18F100D0x       Rx   d 8 0C FF FF FF FF FF FF FF
   5.630000 1  CFF21CAx        Rx   d 8 03 00 80 0C 50 46 00 24
   5.632000 1  CFF21CAx        Rx   d 8 03 00 80 0C 50 46 00 24
   5.634000 1  18F100D0x       Rx   d 8 0C FF FF FF FF FF FF FF
   5.636000 1  CFF21CAx        Rx   d 8 03 00 80 0C 50 46 00 24
   5.637000 1  18F100D0x       Rx   d 8 0C FF FF FF FF FF FF FF
   5.641000 1  CFF21CAx        Rx   d 8 03 00 80 0C 50 46 00 24
   5.653000 1  CFF21CAx        Rx   d 8 03 00 80 0C 50 46 00 24
   5.661000 1  18F100D0x       Rx   d 8 0C FF FF FF FF FF FF FF
   5.662000 1  18FF2112x       Rx   d 8 01 00 00 00 00 00 00 00
   5.664000 1  18F100F3x       Rx   d 8 02 B6 7D 56 1B FA 14 00
   5.666000 1  CFF21CAx        Rx   d 8 03 00 80 0C 50 46 00 24
   5.668000 1  18F102F3x       Rx   d 8 0D 92 0D 8B 07 06 00 07
   5.670000 1  18F106F3x       Rx   d 8 45 E0 FC FF FF FF FF FF
   5.672000 1  18F107F3x       Rx   d 8 38 A4 32 C8 01 38 00 D0
   5.674000 1  18F108F3x       Rx   d 8 0C 00 00 00 00 00 00 03
   5.675000 1  18F155F3x       Rx   d 8 39 39 39 39 38 3A 3A 00
   5.677000 1  18F156F3x       Rx   d 8 00 00 00 00 00 00 00 00
   5.679000 1  18F157F3x       Rx   d 8 00 00 00 00 00 00 00 00
   5.681000 1  18F158F3x       Rx   d 8 00 00 00 00 00 00 00 00
   5.682000 1  18F159F3x       Rx   d 8 00 00 00 00 00 00 00 00
   5.685000 1  18F15AF3x       Rx   d 8 00 00 00 00 00 00 00 00
   5.687000 1  18F15BF3x       Rx   d 7 00 00 00 00 00 00 00
   5.688000 1  CFF21CAx        Rx   d 8 03 00 80 0C 50 46 00 24
   5.690000 1  18F15CF3x       Rx   d 8 00 00 00 00 00 00 00 00
   5.692000 1  18F15DF3x       Rx   d 8 00 00 00 00 00 00 00 00
   5.694000 1  18F15EF3x       Rx   d 8 00 00 00 00 00 00 00 00
   5.696000 1  18F100D0x       Rx   d 8 0C FF FF FF FF FF FF FF
   5.697000 1  CFF21CAx        Rx   d 8 03 00 80 0C 50 46 00 24
   5.701000 1  CFF21CAx        Rx   d 8 03 00 80 0C 50 46 00 24
   5.713000 1  CFF21CAx        Rx   d 8 02 00 80 0C 50 46 00 24
   5.714000 1  18F100D0x       Rx   d 8 0C FF FF FF FF FF FF FF
   5.725000 1  CFF21CAx        Rx   d 8 02 00 80 0C 50 46 00 24
   5.733000 1  18F100D0x       Rx   d 8 0C FF FF FF FF FF FF FF
   5.737000 1  CFF21CAx        Rx   d 8 02 00 80 0C 50 46 00 24
   5.749000 1  CFF21CAx        Rx   d 8 03 00 80 0C 50 46 00 24
   5.757000 1  18F100D0x       Rx   d 8 0C FF FF FF FF FF FF FF
   5.758000 1  18FF2112x       Rx   d 8 01 00 00 00 00 00 00 00
   5.761000 1  CFF21CAx        Rx   d 8 03 00 80 0C 50 46 00 24
   5.764000 1  18F100F3x       Rx   d 8 02 B6 7D 56 1B FA 14 00
   5.765000 1  18F102F3x       Rx   d 8 0D 92 0D 8B 07 06 00 07
   5.767000 1  18F106F3x       Rx   d 8 45 E0 FC FF FF FF FF FF
   5.768000 1  18F107F3x       Rx   d 8 38 A4 32 C8 01 38 00 D0
   5.771000 1  18F108F3x       Rx   d 8 0C 00 00 00 00 00 00 03
   5.772000 1  18F155F3x       Rx   d 8 39 39 39 39 38 3A 3A 00
   5.774000 1  18F156F3x       Rx   d 8 00 00 00 00 00 00 00 00
   5.776000 1  18F157F3x       Rx   d 8 00 00 00 00 00 00 00 00
   5.778000 1  CFF21CAx        Rx   d 8 03 00 80 0C 50 46 00 24
   5.780000 1  18F158F3x       Rx   d 8 00 00 00 00 00 00 00 00
   5.782000 1  18F159F3x       Rx   d 8 00 00 00 00 00 00 00 00
   5.783000 1  18F15AF3x       Rx   d 8 00 00 00 00 00 00 00 00
   5.785000 1  18F15BF3x       Rx   d 7 00 00 00 00 00 00 00
   5.787000 1  18F100D0x       Rx   d 8 0C FF FF FF FF FF FF FF
   5.789000 1  18F15CF3x       Rx   d 8 00 00 00 00 00 00 00 00
   5.791000 1  18F15DF3x       Rx   d 8 00 00 00 00 00 00 00 00
   5.793000 1  18F15EF3x       Rx   d 8 00 00 00 00 00 00 00 00
   5.794000 1  CFF21CAx        Rx   d 8 03 00 80 0C 50 46 00 24
   5.798000 1  CFF21CAx        Rx   d 8 03 00 80 0C 50 46 00 24
   5.800000 1  18F100D0x       Rx   d 8 0C FF FF FF FF FF FF FF
