date Wed Jun 03 06:53:20.760 PM 2026
base hex  timestamps absolute
internal events logged
// version 8.0.0
Begin Triggerblock Wed Jun 03 06:53:20.760 PM 2026
   0.000000 Start of measurement
   0.000000 1  18F100D0x       Rx   d 8 0C FF FF FF FF FF FF FF
   0.004000 1  CFF21CAx        Rx   d 8 02 00 80 0C 49 45 00 20
   0.015000 1  18F100F3x       Rx   d 8 02 D3 7D 11 66 FA 14 00
   0.016000 1  CFF21CAx        Rx   d 8 02 00 80 0C 49 45 00 20
   0.018000 1  18F102F3x       Rx   d 8 0E 21 0E 1D 10 02 00 04
   0.020000 1  18F106F3x       Rx   d 8 45 E0 FC FF FF FF FF FF
   0.021000 1  18F107F3x       Rx   d 8 38 A4 30 70 01 45 00 AE
   0.023000 1  18F108F3x       Rx   d 8 00 00 00 00 00 00 00 00
   0.025000 1  18F155F3x       Rx   d 8 3A 39 3A 39 39 3B 3A 00
   0.027000 1  18F156F3x       Rx   d 8 00 00 00 00 00 00 00 00
   0.029000 1  18F157F3x       Rx   d 8 00 00 00 00 00 00 00 00
   0.030000 1  18F158F3x       Rx   d 8 00 00 00 00 00 00 00 00
   0.032000 1  18F159F3x       Rx   d 8 00 00 00 00 00 00 00 00
   0.033000 1  18F15AF3x       Rx   d 8 00 00 00 00 00 00 00 00
   0.035000 1  18F15BF3x       Rx   d 7 00 00 00 00 00 00 00
   0.037000 1  18F15CF3x       Rx   d 8 00 00 00 00 00 00 00 00
   0.039000 1  CFF21CAx        Rx   d 8 02 00 80 0C 49 45 00 20
   0.040000 1  18F100D0x       Rx   d 8 0C FF FF FF FF FF FF FF
   0.041000 1  18F15DF3x       Rx   d 8 00 00 00 00 00 00 00 00
   0.042000 1  18F15EF3x       Rx   d 8 00 00 00 00 00 00 00 00
   0.047000 1  CFF21CAx        Rx   d 8 02 00 80 0C 49 45 00 20
   0.050000 1  18FF2112x       Rx   d 8 01 00 00 00 00 00 00 00
   0.052000 1  CFF21CAx        Rx   d 8 02 00 80 0C 49 45 00 20
   0.053000 1  18F100D0x       Rx   d 8 0C FF FF FF FF FF FF FF
   0.064000 1  CFF21CAx        Rx   d 8 02 00 80 0C 49 45 00 20
   0.076000 1  CFF21CAx        Rx   d 8 02 00 80 0C 49 45 00 20
   0.077000 1  18F100D0x       Rx   d 8 0C FF FF FF FF FF FF FF
   0.088000 1  CFF21CAx        Rx   d 8 02 00 80 0C 49 45 00 20
   0.100000 1  CFF21CAx        Rx   d 8 02 00 80 0C 49 45 00 20
   0.104000 1  18F100D0x       Rx   d 8 0C FF FF FF FF FF FF FF
   0.110000 1  18F104F3x       Rx   d 8 3B 39 06 02 02 FF FF FF
   0.111000 1  18F113F3x       Rx   d 8 0E 1E 0E 1D 0E 1F 0E 20
   0.113000 1  18F114F3x       Rx   d 8 0E 1F 0E 1F 0E 20 0E 1F
   0.115000 1  CFF21CAx        Rx   d 8 02 00 80 0C 49 45 00 20
   0.116000 1  18F115F3x       Rx   d 8 0E 1F 0E 1F 0E 1F 0E 1D
   0.118000 1  18F116F3x       Rx   d 8 0E 1F 0E 1F 0E 20 0E 21
   0.119000 1  18F117F3x       Rx   d 8 0E 1F 0E 21 0E 21 0E 20
   0.120000 1  18F100F3x       Rx   d 8 02 D3 7D 11 66 FA 14 00
   0.122000 1  18F102F3x       Rx   d 8 0E 21 0E 1D 10 02 00 04
   0.153000 1  18F106F3x       Rx   d 8 45 E0 FC FF FF FF FF FF
   0.155000 1  18F107F3x       Rx   d 8 38 A4 30 70 01 45 00 AE
   0.156000 1  18F108F3x       Rx   d 8 00 00 00 00 00 00 00 00
   0.157000 1  18F118F3x       Rx   d 8 00 00 00 00 00 00 00 00
   0.167000 1  18F119F3x       Rx   d 8 00 00 00 00 00 00 00 00
   0.169000 1  18F11AF3x       Rx   d 8 00 00 00 00 00 00 00 00
   0.170000 1  CFF21CAx        Rx   d 8 02 00 80 0C 49 45 00 20
   0.172000 1  18F11BF3x       Rx   d 8 00 00 00 00 00 00 00 00
   0.174000 1  18F11CF3x       Rx   d 8 00 00 00 00 00 00 00 00
   0.176000 1  18F11DF3x       Rx   d 8 00 00 00 00 00 00 00 00
   0.177000 1  18F11EF3x       Rx   d 8 00 00 00 00 00 00 00 00
   0.178000 1  18F100D0x       Rx   d 8 0C FF FF FF FF FF FF FF
   0.180000 1  18F11FF3x       Rx   d 8 00 00 00 00 00 00 00 00
   0.181000 1  18F120F3x       Rx   d 8 00 00 00 00 00 00 00 00
   0.182000 1  18F121F3x       Rx   d 8 00 00 00 00 00 00 00 00
   0.183000 1  18F122F3x       Rx   d 8 00 00 00 00 00 00 00 00
   0.214000 1  18F123F3x       Rx   d 8 00 00 00 00 00 00 00 00
   0.216000 1  18F124F3x       Rx   d 8 00 00 00 00 00 00 00 00
   0.219000 1  18F125F3x       Rx   d 8 00 00 00 00 00 00 00 00
   0.221000 1  18F126F3x       Rx   d 8 00 00 00 00 00 00 00 00
   0.223000 1  CFF21CAx        Rx   d 8 02 00 80 0C 49 45 00 20
   0.224000 1  18F127F3x       Rx   d 8 00 00 00 00 00 00 00 00
   0.226000 1  18F128F3x       Rx   d 8 00 00 00 00 00 00 00 00
   0.228000 1  18F129F3x       Rx   d 8 00 00 00 00 00 00 00 00
   0.230000 1  18F12AF3x       Rx   d 8 00 00 00 00 00 00 00 00
   0.232000 1  18F12BF3x       Rx   d 8 00 00 00 00 00 00 00 00
   0.233000 1  18F12CF3x       Rx   d 8 00 00 00 00 00 00 00 00
   0.235000 1  18F12DF3x       Rx   d 8 00 00 00 00 00 00 00 00
   0.237000 1  18F12EF3x       Rx   d 8 00 00 00 00 00 00 00 00
   0.238000 1  18F12FF3x       Rx   d 8 00 00 00 00 00 00 00 00
   0.240000 1  18F130F3x       Rx   d 8 00 00 00 00 00 00 00 00
   0.242000 1  18F131F3x       Rx   d 8 00 00 00 00 00 00 00 00
   0.244000 1  18F132F3x       Rx   d 8 00 00 00 00 00 00 00 00
   0.245000 1  18FF2112x       Rx   d 8 01 00 00 00 00 00 00 00
   0.247000 1  CFF21CAx        Rx   d 8 02 00 80 0C 49 45 00 20
   0.249000 1  18F133F3x       Rx   d 8 00 00 00 00 00 00 00 00
   0.251000 1  18F134F3x       Rx   d 8 00 00 00 00 00 00 00 00
   0.252000 1  18F135F3x       Rx   d 8 00 00 00 00 00 00 00 00
   0.254000 1  18F136F3x       Rx   d 8 00 00 00 00 00 00 00 00
   0.256000 1  18F137F3x       Rx   d 8 00 00 00 00 00 00 00 00
   0.257000 1  18F138F3x       Rx   d 8 00 00 00 00 00 00 00 00
   0.259000 1  18F139F3x       Rx   d 8 00 00 00 00 00 00 00 00
   0.260000 1  18F13AF3x       Rx   d 8 00 00 00 00 00 00 00 00
   0.261000 1  18F100D0x       Rx   d 8 0C FF FF FF FF FF FF FF
   0.263000 1  18F13BF3x       Rx   d 8 00 00 00 00 00 00 00 00
   0.268000 1  18F13CF3x       Rx   d 8 00 00 00 00 00 00 00 00
   0.269000 1  18F155F3x       Rx   d 8 3A 39 3A 39 39 3B 3A 00
   0.271000 1  18F156F3x       Rx   d 8 00 00 00 00 00 00 00 00
   0.273000 1  CFF21CAx        Rx   d 8 02 00 80 0C 49 45 00 20
   0.274000 1  18F157F3x       Rx   d 8 00 00 00 00 00 00 00 00
   0.276000 1  18F158F3x       Rx   d 8 00 00 00 00 00 00 00 00
   0.278000 1  18F159F3x       Rx   d 8 00 00 00 00 00 00 00 00
   0.280000 1  18F15AF3x       Rx   d 8 00 00 00 00 00 00 00 00
   0.281000 1  18F15BF3x       Rx   d 7 00 00 00 00 00 00 00
   0.283000 1  18F15CF3x       Rx   d 8 00 00 00 00 00 00 00 00
   0.285000 1  18F15DF3x       Rx   d 8 00 00 00 00 00 00 00 00
   0.287000 1  18F15EF3x       Rx   d 8 00 00 00 00 00 00 00 00
   0.288000 1  CFF21CAx        Rx   d 8 02 00 80 0C 49 45 00 20
   0.290000 1  18F100D0x       Rx   d 8 0C FF FF FF FF FF FF FF
   0.292000 1  CFF21CAx        Rx   d 8 02 00 80 0C 49 45 00 20
   0.294000 1  CFF21CAx        Rx   d 8 02 00 80 0C 49 45 00 20
   0.295000 1  18F100D0x       Rx   d 8 0C FF FF FF FF FF FF FF
   0.297000 1  CFF21CAx        Rx   d 8 02 00 80 0C 49 45 00 20
   0.299000 1  18F100F3x       Rx   d 8 02 D3 7D 11 66 FA 14 00
   0.301000 1  18F102F3x       Rx   d 8 0E 21 0E 1D 10 02 00 04
   0.302000 1  18F106F3x       Rx   d 8 45 E0 FC FF FF FF FF FF
   0.304000 1  18F107F3x       Rx   d 8 38 A4 30 70 01 45 00 AE
   0.306000 1  18F108F3x       Rx   d 8 00 00 00 00 00 00 00 00
   0.307000 1  CFF21CAx        Rx   d 8 02 00 80 0C 49 45 00 20
   0.309000 1  18F155F3x       Rx   d 8 3A 39 3A 39 39 3B 3A 00
   0.311000 1  18F156F3x       Rx   d 8 00 00 00 00 00 00 00 00
   0.313000 1  18F157F3x       Rx   d 8 00 00 00 00 00 00 00 00
   0.314000 1  18F158F3x       Rx   d 8 00 00 00 00 00 00 00 00
   0.316000 1  18F159F3x       Rx   d 8 00 00 00 00 00 00 00 00
   0.318000 1  18F15AF3x       Rx   d 8 00 00 00 00 00 00 00 00
   0.320000 1  18F15BF3x       Rx   d 7 00 00 00 00 00 00 00
   0.322000 1  18F15CF3x       Rx   d 8 00 00 00 00 00 00 00 00
   0.323000 1  18F100D0x       Rx   d 8 0C FF FF FF FF FF FF FF
   0.325000 1  18F15DF3x       Rx   d 8 00 00 00 00 00 00 00 00
   0.327000 1  18F15EF3x       Rx   d 8 00 00 00 00 00 00 00 00
   0.329000 1  CFF21CAx        Rx   d 8 03 00 80 0C 49 45 00 20
   0.331000 1  CFF21CAx        Rx   d 8 03 00 80 0C 49 45 00 20
   0.332000 1  18FF2112x       Rx   d 8 01 00 00 00 00 00 00 00
   0.334000 1  CFF21CAx        Rx   d 8 03 00 80 0C 49 45 00 20
   0.336000 1  18F100D0x       Rx   d 8 0C FF FF FF FF FF FF FF
   0.337000 1  CFF21CAx        Rx   d 8 03 00 80 0C 49 45 00 20
   0.339000 1  CFF21CAx        Rx   d 8 03 00 80 0C 49 45 00 20
   0.341000 1  18F100D0x       Rx   d 8 0C FF FF FF FF FF FF FF
   0.343000 1  CFF21CAx        Rx   d 8 03 00 80 0C 49 45 00 20
   0.344000 1  CFF21CAx        Rx   d 8 02 00 80 0C 49 45 00 20
   0.346000 1  18F100D0x       Rx   d 8 0C FF FF FF FF FF FF FF
   0.348000 1  18F100F3x       Rx   d 8 02 D3 7D 11 66 FA 14 00
   0.349000 1  18F102F3x       Rx   d 8 0E 24 0E 1F 13 0C 00 05
   0.351000 1  18F106F3x       Rx   d 8 45 E0 FC FF FF FF FF FF
   0.353000 1  CFF21CAx        Rx   d 8 02 00 80 0C 49 45 00 20
   0.354000 1  18F107F3x       Rx   d 8 38 A4 30 70 01 45 00 AE
   0.356000 1  18F108F3x       Rx   d 8 00 00 00 00 00 00 00 00
   0.357000 1  18F155F3x       Rx   d 8 3A 39 3A 39 39 3B 3A 00
   0.359000 1  18F156F3x       Rx   d 8 00 00 00 00 00 00 00 00
   0.360000 1  18F157F3x       Rx   d 8 00 00 00 00 00 00 00 00
   0.362000 1  18F158F3x       Rx   d 8 00 00 00 00 00 00 00 00
   0.363000 1  18F159F3x       Rx   d 8 00 00 00 00 00 00 00 00
   0.365000 1  18F15AF3x       Rx   d 8 00 00 00 00 00 00 00 00
   0.367000 1  18F15BF3x       Rx   d 7 00 00 00 00 00 00 00
   0.369000 1  18F15CF3x       Rx   d 8 00 00 00 00 00 00 00 00
   0.370000 1  18F15DF3x       Rx   d 8 00 00 00 00 00 00 00 00
   0.372000 1  CFF21CAx        Rx   d 8 03 00 80 0C 49 45 00 20
   0.374000 1  18F15EF3x       Rx   d 8 00 00 00 00 00 00 00 00
   0.376000 1  18F100D0x       Rx   d 8 0C FF FF FF FF FF FF FF
   0.377000 1  CFF21CAx        Rx   d 8 03 00 80 0C 49 45 00 20
   0.379000 1  18FF2112x       Rx   d 8 01 00 00 00 00 00 00 00
   0.381000 1  CFF21CAx        Rx   d 8 03 00 80 0C 49 45 00 20
   0.382000 1  18F100D0x       Rx   d 8 0C FF FF FF FF FF FF FF
   0.384000 1  CFF21CAx        Rx   d 8 03 00 80 0C 49 45 00 20
   0.386000 1  CFF21CAx        Rx   d 8 03 00 80 0C 49 45 00 20
   0.387000 1  18F100D0x       Rx   d 8 0C FF FF FF FF FF FF FF
   0.389000 1  CFF21CAx        Rx   d 8 03 00 80 0C 49 45 00 20
   0.401000 1  CFF21CAx        Rx   d 8 03 00 80 0C 49 45 00 20
   0.402000 1  18F100D0x       Rx   d 8 0C FF FF FF FF FF FF FF
   0.413000 1  CFF21CAx        Rx   d 8 03 00 80 0C 49 45 00 20
   0.416000 1  18F100F3x       Rx   d 8 02 D3 7D 11 66 FA 14 00
   0.418000 1  18F102F3x       Rx   d 8 0E 24 0E 1F 13 0C 00 05
   0.419000 1  18F106F3x       Rx   d 8 45 E0 FC FF FF FF FF FF
   0.421000 1  18F107F3x       Rx   d 8 38 A4 30 70 01 45 00 AE
   0.423000 1  18F108F3x       Rx   d 8 00 00 00 00 00 00 00 00
   0.425000 1  18F155F3x       Rx   d 8 3A 39 3A 39 39 3B 3A 00
   0.427000 1  18F156F3x       Rx   d 8 00 00 00 00 00 00 00 00
   0.428000 1  18F157F3x       Rx   d 8 00 00 00 00 00 00 00 00
   0.430000 1  18F158F3x       Rx   d 8 00 00 00 00 00 00 00 00
   0.432000 1  18F159F3x       Rx   d 8 00 00 00 00 00 00 00 00
   0.434000 1  CFF21CAx        Rx   d 8 02 00 80 0C 49 45 00 20
   0.435000 1  18F15AF3x       Rx   d 8 00 00 00 00 00 00 00 00
   0.437000 1  18F15BF3x       Rx   d 7 00 00 00 00 00 00 00
   0.439000 1  18F15CF3x       Rx   d 8 00 00 00 00 00 00 00 00
   0.441000 1  18F15DF3x       Rx   d 8 00 00 00 00 00 00 00 00
   0.442000 1  18F15EF3x       Rx   d 8 00 00 00 00 00 00 00 00
   0.444000 1  18F100D0x       Rx   d 8 0C FF FF FF FF FF FF FF
   0.446000 1  CFF21CAx        Rx   d 8 02 00 80 0C 49 45 00 20
   0.447000 1  18FF2112x       Rx   d 8 01 00 00 00 00 00 00 00
   0.449000 1  CFF21CAx        Rx   d 8 02 00 80 0C 49 45 00 20
   0.453000 1  18F100D0x       Rx   d 8 0C FF FF FF FF FF FF FF
   0.462000 1  CFF21CAx        Rx   d 8 02 00 80 0C 49 45 00 20
   0.473000 1  CFF21CAx        Rx   d 8 02 00 80 0C 49 45 00 20
   0.478000 1  18F100D0x       Rx   d 8 0C FF FF FF FF FF FF FF
   0.486000 1  CFF21CAx        Rx   d 8 03 00 80 0C 4A 45 00 20
   0.498000 1  CFF21CAx        Rx   d 8 03 00 80 0C 4A 45 00 20
   0.502000 1  18F100D0x       Rx   d 8 0C FF FF FF FF FF FF FF
   0.510000 1  CFF21CAx        Rx   d 8 03 00 80 0C 4A 45 00 20
   0.515000 1  18F100F3x       Rx   d 8 02 D3 7D 11 66 FA 14 00
   0.516000 1  18F102F3x       Rx   d 8 0E 24 0E 1F 13 0C 00 05
   0.518000 1  18F106F3x       Rx   d 8 45 E0 FC FF FF FF FF FF
   0.520000 1  18F107F3x       Rx   d 8 38 A4 30 70 01 45 00 AE
   0.522000 1  18F108F3x       Rx   d 8 00 00 00 00 00 00 00 00
   0.524000 1  18F155F3x       Rx   d 8 3A 39 3A 39 39 3B 3A 00
   0.526000 1  CFF21CAx        Rx   d 8 02 00 80 0C 4A 45 00 20
   0.527000 1  18F100D0x       Rx   d 8 0C FF FF FF FF FF FF FF
   0.529000 1  18F156F3x       Rx   d 8 00 00 00 00 00 00 00 00
   0.531000 1  18F157F3x       Rx   d 8 00 00 00 00 00 00 00 00
   0.532000 1  18F158F3x       Rx   d 8 00 00 00 00 00 00 00 00
   0.534000 1  18F159F3x       Rx   d 8 00 00 00 00 00 00 00 00
   0.536000 1  18F15AF3x       Rx   d 8 00 00 00 00 00 00 00 00
   0.538000 1  18F15BF3x       Rx   d 7 00 00 00 00 00 00 00
   0.539000 1  18F15CF3x       Rx   d 8 00 00 00 00 00 00 00 00
   0.541000 1  18F15DF3x       Rx   d 8 00 00 00 00 00 00 00 00
   0.543000 1  18F15EF3x       Rx   d 8 00 00 00 00 00 00 00 00
   0.544000 1  CFF21CAx        Rx   d 8 02 00 80 0C 4A 45 00 20
   0.546000 1  18FF2112x       Rx   d 8 01 00 00 00 00 00 00 00
   0.548000 1  CFF21CAx        Rx   d 8 02 00 80 0C 4A 45 00 20
   0.550000 1  18F100D0x       Rx   d 8 0C FF FF FF FF FF FF FF
   0.558000 1  CFF21CAx        Rx   d 8 03 00 80 0C 4A 45 00 20
   0.570000 1  CFF21CAx        Rx   d 8 03 00 80 0C 4A 45 00 20
   0.574000 1  18F100D0x       Rx   d 8 0C FF FF FF FF FF FF FF
   0.582000 1  CFF21CAx        Rx   d 8 02 00 80 0C 4A 45 00 20
   0.594000 1  CFF21CAx        Rx   d 8 02 00 80 0C 4A 45 00 20
   0.598000 1  18F100D0x       Rx   d 8 0C FF FF FF FF FF FF FF
   0.606000 1  CFF21CAx        Rx   d 8 02 00 80 0C 4A 45 00 20
   0.615000 1  18F100F3x       Rx   d 8 02 D3 7D 11 66 FA 14 00
   0.616000 1  18F102F3x       Rx   d 8 0E 24 0E 1F 13 0C 00 05
   0.618000 1  18F106F3x       Rx   d 8 45 E0 FC FF FF FF FF FF
   0.620000 1  CFF21CAx        Rx   d 8 03 00 80 0C 4A 45 00 20
   0.622000 1  18F107F3x       Rx   d 8 38 A4 30 70 01 45 00 AE
   0.623000 1  18F108F3x       Rx   d 8 00 00 00 00 00 00 00 00
   0.625000 1  18F155F3x       Rx   d 8 3A 39 3A 39 39 3B 3A 00
   0.627000 1  18F100D0x       Rx   d 8 0C FF FF FF FF FF FF FF
   0.629000 1  18F156F3x       Rx   d 8 00 00 00 00 00 00 00 00
   0.631000 1  18F157F3x       Rx   d 8 00 00 00 00 00 00 00 00
   0.632000 1  18F158F3x       Rx   d 8 00 00 00 00 00 00 00 00
   0.634000 1  18F159F3x       Rx   d 8 00 00 00 00 00 00 00 00
   0.636000 1  18F15AF3x       Rx   d 8 00 00 00 00 00 00 00 00
   0.637000 1  18F15BF3x       Rx   d 7 00 00 00 00 00 00 00
   0.639000 1  18F15CF3x       Rx   d 8 00 00 00 00 00 00 00 00
   0.641000 1  18F15DF3x       Rx   d 8 00 00 00 00 00 00 00 00
   0.643000 1  18F15EF3x       Rx   d 8 00 00 00 00 00 00 00 00
   0.644000 1  CFF21CAx        Rx   d 8 03 00 80 0C 4A 45 00 20
   0.646000 1  18FF2112x       Rx   d 8 01 00 00 00 00 00 00 00
   0.648000 1  CFF21CAx        Rx   d 8 03 00 80 0C 4A 45 00 20
   0.649000 1  18F100D0x       Rx   d 8 0C FF FF FF FF FF FF FF
   0.654000 1  CFF21CAx        Rx   d 8 02 00 80 0C 4A 45 00 20
   0.666000 1  CFF21CAx        Rx   d 8 02 00 80 0C 4A 45 00 20
   0.670000 1  18F100D0x       Rx   d 8 0C FF FF FF FF FF FF FF
   0.678000 1  CFF21CAx        Rx   d 8 03 00 80 0C 4A 45 00 20
   0.690000 1  CFF21CAx        Rx   d 8 03 00 80 0C 4A 45 00 20
   0.694000 1  18F100D0x       Rx   d 8 0C FF FF FF FF FF FF FF
   0.702000 1  CFF21CAx        Rx   d 8 03 00 80 0C 4A 45 00 20
   0.714000 1  CFF21CAx        Rx   d 8 02 00 80 0C 4A 45 00 20
   0.715000 1  18F100F3x       Rx   d 8 02 D4 7D 11 66 FA 14 00
   0.717000 1  18F102F3x       Rx   d 8 0E 26 0E 21 13 0C 00 05
   0.719000 1  18F106F3x       Rx   d 8 45 E0 FC FF FF FF FF FF
   0.721000 1  18F100D0x       Rx   d 8 0C FF FF FF FF FF FF FF
   0.722000 1  18F107F3x       Rx   d 8 38 A4 30 70 01 46 00 AE
   0.724000 1  18F108F3x       Rx   d 8 00 00 00 00 00 00 00 00
   0.726000 1  18F155F3x       Rx   d 8 3A 39 3A 39 39 3B 3A 00
   0.728000 1  18F156F3x       Rx   d 8 00 00 00 00 00 00 00 00
   0.730000 1  18F157F3x       Rx   d 8 00 00 00 00 00 00 00 00
   0.731000 1  18F158F3x       Rx   d 8 00 00 00 00 00 00 00 00
   0.733000 1  18F159F3x       Rx   d 8 00 00 00 00 00 00 00 00
   0.735000 1  CFF21CAx        Rx   d 8 02 00 80 0C 4A 45 00 20
   0.737000 1  18F15AF3x       Rx   d 8 00 00 00 00 00 00 00 00
   0.738000 1  18F15BF3x       Rx   d 7 00 00 00 00 00 00 00
   0.740000 1  18F15CF3x       Rx   d 8 00 00 00 00 00 00 00 00
   0.742000 1  18F15DF3x       Rx   d 8 00 00 00 00 00 00 00 00
   0.743000 1  18F15EF3x       Rx   d 8 00 00 00 00 00 00 00 00
   0.745000 1  18FF2112x       Rx   d 8 01 00 00 00 00 00 00 00
   0.747000 1  CFF21CAx        Rx   d 8 02 00 80 0C 4A 45 00 20
   0.749000 1  18F100D0x       Rx   d 8 0C FF FF FF FF FF FF FF
   0.751000 1  CFF21CAx        Rx   d 8 03 00 80 0C 4A 45 00 20
   0.763000 1  CFF21CAx        Rx   d 8 03 00 80 0C 4A 45 00 20
   0.771000 1  18F100D0x       Rx   d 8 0C FF FF FF FF FF FF FF
   0.775000 1  CFF21CAx        Rx   d 8 03 00 80 0C 4A 45 00 20
   0.787000 1  CFF21CAx        Rx   d 8 02 00 80 0C 4A 45 00 20
   0.799000 1  CFF21CAx        Rx   d 8 02 00 80 0C 4A 45 00 20
   0.800000 1  18F100D0x       Rx   d 8 0C FF FF FF FF FF FF FF
   0.801000 1  18FECACAx       Rx   d 8 00 00 00 00 00 00 FF FF
   0.811000 1  CFF21CAx        Rx   d 8 03 00 80 0C 4A 45 00 20
   0.815000 1  18F100F3x       Rx   d 8 02 D4 7D 11 66 FA 14 00
   0.816000 1  18F102F3x       Rx   d 8 0E 26 0E 21 13 0C 00 05
   0.818000 1  18F106F3x       Rx   d 8 45 E0 FC FF FF FF FF FF
   0.820000 1  18F107F3x       Rx   d 8 38 A4 30 70 01 46 00 AE
   0.822000 1  18F108F3x       Rx   d 8 00 00 00 00 00 00 00 00
   0.824000 1  18F155F3x       Rx   d 8 3A 39 3A 39 39 3B 3A 00
   0.825000 1  18F156F3x       Rx   d 8 00 00 00 00 00 00 00 00
   0.827000 1  CFF21CAx        Rx   d 8 03 00 80 0C 4A 45 00 20
   0.829000 1  18F100D0x       Rx   d 8 0C FF FF FF FF FF FF FF
   0.831000 1  18F157F3x       Rx   d 8 00 00 00 00 00 00 00 00
   0.832000 1  18F158F3x       Rx   d 8 00 00 00 00 00 00 00 00
   0.834000 1  18F159F3x       Rx   d 8 00 00 00 00 00 00 00 00
   0.836000 1  18F15AF3x       Rx   d 8 00 00 00 00 00 00 00 00
   0.838000 1  18F15BF3x       Rx   d 7 00 00 00 00 00 00 00
   0.839000 1  18F15CF3x       Rx   d 8 00 00 00 00 00 00 00 00
   0.841000 1  18FF2112x       Rx   d 8 01 00 00 00 00 00 00 00
   0.843000 1  18F15DF3x       Rx   d 8 00 00 00 00 00 00 00 00
   0.845000 1  18F15EF3x       Rx   d 8 00 00 00 00 00 00 00 00
   0.846000 1  CFF21CAx        Rx   d 8 03 00 80 0C 4A 45 00 20
   0.848000 1  CFF21CAx        Rx   d 8 03 00 80 0C 4A 45 00 20
   0.851000 1  18F100D0x       Rx   d 8 0C FF FF FF FF FF FF FF
   0.859000 1  CFF21CAx        Rx   d 8 03 00 80 0C 4A 45 00 20
   0.871000 1  CFF21CAx        Rx   d 8 03 00 80 0C 4A 45 00 20
   0.875000 1  18F100D0x       Rx   d 8 0C FF FF FF FF FF FF FF
   0.884000 1  CFF21CAx        Rx   d 8 03 00 80 0C 4A 45 00 20
   0.895000 1  CFF21CAx        Rx   d 8 03 00 80 0C 4A 45 00 20
   0.903000 1  18F100D0x       Rx   d 8 0C FF FF FF FF FF FF FF
   0.907000 1  CFF21CAx        Rx   d 8 03 00 80 0C 4A 45 00 20
   0.915000 1  18F100F3x       Rx   d 8 02 D4 7D 11 66 FA 14 00
   0.916000 1  18F102F3x       Rx   d 8 0E 26 0E 21 13 0C 00 05
   0.917000 1  18F106F3x       Rx   d 8 45 E0 FC FF FF FF FF FF
   0.919000 1  18F107F3x       Rx   d 8 38 A4 30 70 01 46 00 AE
   0.920000 1  CFF21CAx        Rx   d 8 03 00 80 0C 4A 45 00 20
   0.921000 1  18F108F3x       Rx   d 8 00 00 00 00 00 00 00 00
   0.922000 1  18F155F3x       Rx   d 8 3A 39 3A 39 39 3B 3A 00
   0.924000 1  18F156F3x       Rx   d 8 00 00 00 00 00 00 00 00
   0.950000 1  18F157F3x       Rx   d 8 00 00 00 00 00 00 00 00
   0.951000 1  18F158F3x       Rx   d 8 00 00 00 00 00 00 00 00
   0.953000 1  18F159F3x       Rx   d 8 00 00 00 00 00 00 00 00
   0.955000 1  18F15AF3x       Rx   d 8 00 00 00 00 00 00 00 00
   0.956000 1  18FF2112x       Rx   d 8 01 00 00 00 00 00 00 00
   0.958000 1  18F15BF3x       Rx   d 7 00 00 00 00 00 00 00
   0.960000 1  18F100D0x       Rx   d 8 0C FF FF FF FF FF FF FF
   0.961000 1  18F15CF3x       Rx   d 8 00 00 00 00 00 00 00 00
   0.963000 1  18F15DF3x       Rx   d 8 00 00 00 00 00 00 00 00
   0.965000 1  18F15EF3x       Rx   d 8 00 00 00 00 00 00 00 00
   0.966000 1  CFF21CAx        Rx   d 8 03 00 80 0C 4A 45 00 20
   0.968000 1  CFF21CAx        Rx   d 8 03 00 80 0C 4A 45 00 20
   0.970000 1  CFF21CAx        Rx   d 8 03 00 80 0C 4A 45 00 20
   0.972000 1  18F100D0x       Rx   d 8 0C FF FF FF FF FF FF FF
   0.973000 1  CFF21CAx        Rx   d 8 02 00 80 0C 4A 45 00 20
   0.980000 1  CFF21CAx        Rx   d 8 02 00 80 0C 4A 45 00 20
   0.981000 1  18F100D0x       Rx   d 8 0C FF FF FF FF FF FF FF
   0.992000 1  CFF21CAx        Rx   d 8 02 00 80 0C 4A 45 00 20
   1.004000 1  CFF21CAx        Rx   d 8 02 00 80 0C 4A 45 00 20
   1.005000 1  18F100D0x       Rx   d 8 0C FF FF FF FF FF FF FF
   1.015000 1  18F100F3x       Rx   d 8 02 D4 7D 11 66 FA 14 00
   1.016000 1  CFF21CAx        Rx   d 8 02 00 80 0C 4A 45 00 20
   1.018000 1  18F102F3x       Rx   d 8 0E 26 0E 21 13 0C 00 05
   1.020000 1  18F106F3x       Rx   d 8 45 E0 FC FF FF FF FF FF
   1.021000 1  18F107F3x       Rx   d 8 38 A4 30 70 01 46 00 AE
   1.023000 1  18F108F3x       Rx   d 8 00 00 00 00 00 00 00 00
   1.025000 1  18F155F3x       Rx   d 8 3A 39 3A 39 39 3B 3A 00
   1.027000 1  18F156F3x       Rx   d 8 00 00 00 00 00 00 00 00
   1.029000 1  18F157F3x       Rx   d 8 00 00 00 00 00 00 00 00
   1.031000 1  18FF2112x       Rx   d 8 01 00 00 00 00 00 00 00
   1.032000 1  18F158F3x       Rx   d 8 00 00 00 00 00 00 00 00
   1.034000 1  18F159F3x       Rx   d 8 00 00 00 00 00 00 00 00
   1.036000 1  18F15AF3x       Rx   d 8 00 00 00 00 00 00 00 00
   1.037000 1  18F15BF3x       Rx   d 7 00 00 00 00 00 00 00
   1.038000 1  18F15CF3x       Rx   d 8 00 00 00 00 00 00 00 00
   1.039000 1  CFF21CAx        Rx   d 8 02 00 80 0C 4A 45 00 20
   1.040000 1  18F15DF3x       Rx   d 8 00 00 00 00 00 00 00 00
   1.058000 1  18F15EF3x       Rx   d 8 00 00 00 00 00 00 00 00
   1.060000 1  18F100D0x       Rx   d 8 0C FF FF FF FF FF FF FF
   1.063000 1  CFF21CAx        Rx   d 8 02 00 80 0C 4A 45 00 20
   1.064000 1  CFF21CAx        Rx   d 8 02 00 80 0C 4A 45 00 20
   1.066000 1  18F100D0x       Rx   d 8 0C FF FF FF FF FF FF FF
   1.068000 1  CFF21CAx        Rx   d 8 03 00 80 0C 4A 45 00 20
   1.076000 1  CFF21CAx        Rx   d 8 03 00 80 0C 4A 45 00 20
   1.084000 1  18F100D0x       Rx   d 8 0C FF FF FF FF FF FF FF
   1.088000 1  CFF21CAx        Rx   d 8 03 00 80 0C 4A 45 00 20
   1.100000 1  CFF21CAx        Rx   d 8 02 00 80 0C 4A 45 00 20
   1.108000 1  18F100D0x       Rx   d 8 0C FF FF FF FF FF FF FF
   1.109000 1  18F104F3x       Rx   d 8 3B 39 06 02 02 FF FF FF
   1.111000 1  18F113F3x       Rx   d 8 0E 22 0E 22 0E 23 0E 23
   1.113000 1  18F114F3x       Rx   d 8 0E 24 0E 23 0E 24 0E 23
   1.114000 1  CFF21CAx        Rx   d 8 02 00 80 0C 4A 45 00 20
   1.116000 1  18F115F3x       Rx   d 8 0E 23 0E 23 0E 23 0E 21
   1.118000 1  18F116F3x       Rx   d 8 0E 23 0E 23 0E 23 0E 25
   1.119000 1  18F117F3x       Rx   d 8 0E 23 0E 25 0E 26 0E 23
   1.121000 1  18F100F3x       Rx   d 8 02 D4 7D 11 66 FA 14 00
   1.123000 1  18F102F3x       Rx   d 8 0E 26 0E 21 13 0C 00 05
   1.124000 1  18F106F3x       Rx   d 8 45 E0 FC FF FF FF FF FF
   1.126000 1  18F107F3x       Rx   d 8 38 A4 30 70 01 46 00 AE
   1.128000 1  18FF2112x       Rx   d 8 01 00 00 00 00 00 00 00
   1.130000 1  18F108F3x       Rx   d 8 00 00 00 00 00 00 00 00
   1.132000 1  18F118F3x       Rx   d 8 00 00 00 00 00 00 00 00
   1.134000 1  18F119F3x       Rx   d 8 00 00 00 00 00 00 00 00
   1.135000 1  CFF21CAx        Rx   d 8 02 00 80 0C 4A 45 00 20
   1.137000 1  18F11AF3x       Rx   d 8 00 00 00 00 00 00 00 00
   1.139000 1  18F11BF3x       Rx   d 8 00 00 00 00 00 00 00 00
   1.140000 1  18F11CF3x       Rx   d 8 00 00 00 00 00 00 00 00
   1.142000 1  18F11DF3x       Rx   d 8 00 00 00 00 00 00 00 00
   1.144000 1  18F11EF3x       Rx   d 8 00 00 00 00 00 00 00 00
   1.146000 1  18F11FF3x       Rx   d 8 00 00 00 00 00 00 00 00
   1.147000 1  18F120F3x       Rx   d 8 00 00 00 00 00 00 00 00
   1.149000 1  18F121F3x       Rx   d 8 00 00 00 00 00 00 00 00
   1.151000 1  18F122F3x       Rx   d 8 00 00 00 00 00 00 00 00
   1.153000 1  18F123F3x       Rx   d 8 00 00 00 00 00 00 00 00
   1.155000 1  18F124F3x       Rx   d 8 00 00 00 00 00 00 00 00
   1.157000 1  18F125F3x       Rx   d 8 00 00 00 00 00 00 00 00
   1.158000 1  CFF21CAx        Rx   d 8 03 00 80 0C 4A 45 00 20
   1.160000 1  18F100D0x       Rx   d 8 0C FF FF FF FF FF FF FF
   1.162000 1  18F126F3x       Rx   d 8 00 00 00 00 00 00 00 00
   1.164000 1  18F127F3x       Rx   d 8 00 00 00 00 00 00 00 00
   1.165000 1  18F128F3x       Rx   d 8 00 00 00 00 00 00 00 00
   1.167000 1  18F129F3x       Rx   d 8 00 00 00 00 00 00 00 00
   1.169000 1  18F12AF3x       Rx   d 8 00 00 00 00 00 00 00 00
   1.170000 1  18F12BF3x       Rx   d 8 00 00 00 00 00 00 00 00
   1.172000 1  18F12CF3x       Rx   d 8 00 00 00 00 00 00 00 00
   1.174000 1  18F12DF3x       Rx   d 8 00 00 00 00 00 00 00 00
   1.176000 1  18F12EF3x       Rx   d 8 00 00 00 00 00 00 00 00
   1.177000 1  18F12FF3x       Rx   d 8 00 00 00 00 00 00 00 00
   1.179000 1  18F130F3x       Rx   d 8 00 00 00 00 00 00 00 00
   1.180000 1  18F131F3x       Rx   d 8 00 00 00 00 00 00 00 00
   1.181000 1  CFF21CAx        Rx   d 8 03 00 80 0C 4A 45 00 20
   1.183000 1  18F132F3x       Rx   d 8 00 00 00 00 00 00 00 00
   1.185000 1  18F133F3x       Rx   d 8 00 00 00 00 00 00 00 00
   1.187000 1  18F134F3x       Rx   d 8 00 00 00 00 00 00 00 00
   1.189000 1  18F135F3x       Rx   d 8 00 00 00 00 00 00 00 00
   1.190000 1  18F136F3x       Rx   d 8 00 00 00 00 00 00 00 00
   1.192000 1  18F137F3x       Rx   d 8 00 00 00 00 00 00 00 00
   1.193000 1  18F138F3x       Rx   d 8 00 00 00 00 00 00 00 00
   1.195000 1  18F139F3x       Rx   d 8 00 00 00 00 00 00 00 00
   1.197000 1  18F13AF3x       Rx   d 8 00 00 00 00 00 00 00 00
   1.199000 1  18F13BF3x       Rx   d 8 00 00 00 00 00 00 00 00
   1.201000 1  18F13CF3x       Rx   d 8 00 00 00 00 00 00 00 00
   1.202000 1  18F155F3x       Rx   d 8 3A 39 3A 39 39 3B 3A 00
   1.204000 1  18F156F3x       Rx   d 8 00 00 00 00 00 00 00 00
   1.206000 1  CFF21CAx        Rx   d 8 03 00 80 0C 4A 45 00 20
   1.208000 1  18F100D0x       Rx   d 8 0C FF FF FF FF FF FF FF
   1.209000 1  18F157F3x       Rx   d 8 00 00 00 00 00 00 00 00
   1.211000 1  18F158F3x       Rx   d 8 00 00 00 00 00 00 00 00
   1.213000 1  18F159F3x       Rx   d 8 00 00 00 00 00 00 00 00
   1.214000 1  18F15AF3x       Rx   d 8 00 00 00 00 00 00 00 00
   1.216000 1  18F15BF3x       Rx   d 7 00 00 00 00 00 00 00
   1.218000 1  18F15CF3x       Rx   d 8 00 00 00 00 00 00 00 00
   1.219000 1  18F15DF3x       Rx   d 8 00 00 00 00 00 00 00 00
   1.221000 1  18F15EF3x       Rx   d 8 00 00 00 00 00 00 00 00
   1.223000 1  CFF21CAx        Rx   d 8 03 00 80 0C 4A 45 00 20
   1.225000 1  CFF21CAx        Rx   d 8 03 00 80 0C 4A 45 00 20
   1.227000 1  18F100D0x       Rx   d 8 0C FF FF FF FF FF FF FF
   1.228000 1  CFF21CAx        Rx   d 8 03 00 80 0C 4A 45 00 20
   1.230000 1  CFF21CAx        Rx   d 8 03 00 80 0C 4A 45 00 20
   1.232000 1  18F100D0x       Rx   d 8 0C FF FF FF FF FF FF FF
   1.234000 1  18F100F3x       Rx   d 8 02 D4 7D 11 66 FA 14 00
   1.235000 1  18F102F3x       Rx   d 8 0E 26 0E 21 13 0C 00 05
   1.237000 1  18F106F3x       Rx   d 8 45 E0 FC FF FF FF FF FF
   1.239000 1  18FF2112x       Rx   d 8 01 00 00 00 00 00 00 00
   1.241000 1  18F107F3x       Rx   d 8 38 A4 30 70 01 46 00 AE
   1.242000 1  18F108F3x       Rx   d 8 00 00 00 00 00 00 00 00
   1.244000 1  CFF21CAx        Rx   d 8 03 00 80 0C 4A 45 00 20
   1.246000 1  18F155F3x       Rx   d 8 3A 39 3A 39 39 3B 3A 00
   1.247000 1  18F156F3x       Rx   d 8 00 00 00 00 00 00 00 00
   1.249000 1  18F157F3x       Rx   d 8 00 00 00 00 00 00 00 00
   1.251000 1  18F158F3x       Rx   d 8 00 00 00 00 00 00 00 00
   1.252000 1  18F159F3x       Rx   d 8 00 00 00 00 00 00 00 00
   1.254000 1  18F15AF3x       Rx   d 8 00 00 00 00 00 00 00 00
   1.256000 1  18F15BF3x       Rx   d 7 00 00 00 00 00 00 00
   1.257000 1  18F15CF3x       Rx   d 8 00 00 00 00 00 00 00 00
   1.259000 1  18F15DF3x       Rx   d 8 00 00 00 00 00 00 00 00
   1.261000 1  18F15EF3x       Rx   d 8 00 00 00 00 00 00 00 00
   1.262000 1  CFF21CAx        Rx   d 8 03 00 80 0C 4A 45 00 20
   1.264000 1  18F100D0x       Rx   d 8 0C FF FF FF FF FF FF FF
   1.266000 1  CFF21CAx        Rx   d 8 03 00 80 0C 4A 45 00 20
   1.268000 1  CFF21CAx        Rx   d 8 03 00 80 0C 4A 45 00 20
   1.269000 1  18F100D0x       Rx   d 8 0C FF FF FF FF FF FF FF
   1.271000 1  CFF21CAx        Rx   d 8 03 00 80 0C 4A 45 00 20
   1.281000 1  CFF21CAx        Rx   d 8 03 00 80 0C 4A 45 00 20
   1.289000 1  18F100D0x       Rx   d 8 0C FF FF FF FF FF FF FF
   1.293000 1  CFF21CAx        Rx   d 8 03 00 80 0C 4A 45 00 20
   1.305000 1  CFF21CAx        Rx   d 8 03 00 80 0C 4A 45 00 20
   1.313000 1  18F100D0x       Rx   d 8 0C FF FF FF FF FF FF FF
   1.316000 1  18FF2112x       Rx   d 8 01 00 00 00 00 00 00 00
   1.318000 1  18F100F3x       Rx   d 8 02 D4 7D 11 66 FA 14 00
   1.320000 1  18F102F3x       Rx   d 8 0E 26 0E 21 13 0C 00 05
   1.321000 1  CFF21CAx        Rx   d 8 03 00 80 0C 4A 45 00 20
   1.323000 1  18F106F3x       Rx   d 8 45 E0 FC FF FF FF FF FF
   1.325000 1  18F107F3x       Rx   d 8 38 A4 30 70 01 46 00 AE
   1.327000 1  18F108F3x       Rx   d 8 00 00 00 00 00 00 00 00
   1.329000 1  18F155F3x       Rx   d 8 3A 39 3A 39 39 3B 3A 00
   1.331000 1  18F156F3x       Rx   d 8 00 00 00 00 00 00 00 00
   1.332000 1  18F157F3x       Rx   d 8 00 00 00 00 00 00 00 00
   1.334000 1  18F158F3x       Rx   d 8 00 00 00 00 00 00 00 00
   1.335000 1  18F159F3x       Rx   d 8 00 00 00 00 00 00 00 00
   1.337000 1  18F15AF3x       Rx   d 8 00 00 00 00 00 00 00 00
   1.339000 1  18F15BF3x       Rx   d 7 00 00 00 00 00 00 00
   1.341000 1  18F15CF3x       Rx   d 8 00 00 00 00 00 00 00 00
   1.342000 1  CFF21CAx        Rx   d 8 03 00 80 0C 4A 45 00 20
   1.344000 1  18F15DF3x       Rx   d 8 00 00 00 00 00 00 00 00
   1.346000 1  18F15EF3x       Rx   d 8 00 00 00 00 00 00 00 00
   1.347000 1  18F100D0x       Rx   d 8 0C FF FF FF FF FF FF FF
   1.349000 1  CFF21CAx        Rx   d 8 03 00 80 0C 4A 45 00 20
   1.353000 1  CFF21CAx        Rx   d 8 03 00 80 0C 4A 45 00 20
   1.357000 1  18F100D0x       Rx   d 8 0C FF FF FF FF FF FF FF
   1.365000 1  CFF21CAx        Rx   d 8 03 00 80 0C 4A 45 00 20
   1.377000 1  CFF21CAx        Rx   d 8 03 00 80 0C 4A 45 00 20
   1.385000 1  18F100D0x       Rx   d 8 0C FF FF FF FF FF FF FF
   1.390000 1  CFF21CAx        Rx   d 8 03 00 80 0C 4A 45 00 20
   1.401000 1  CFF21CAx        Rx   d 8 03 00 80 0C 4A 45 00 20
   1.409000 1  18F100D0x       Rx   d 8 0C FF FF FF FF FF FF FF
   1.412000 1  18FF2112x       Rx   d 8 01 00 00 00 00 00 00 00
   1.414000 1  CFF21CAx        Rx   d 8 03 00 80 0C 4A 45 00 20
   1.415000 1  18F100F3x       Rx   d 8 02 D4 7D 11 66 FA 14 00
   1.417000 1  18F102F3x       Rx   d 8 0E 26 0E 21 13 0C 00 05
   1.419000 1  18F106F3x       Rx   d 8 45 E0 FC FF FF FF FF FF
   1.420000 1  18F107F3x       Rx   d 8 38 A4 30 70 01 46 00 AE
   1.422000 1  18F108F3x       Rx   d 8 00 00 00 00 00 00 00 00
   1.424000 1  18F155F3x       Rx   d 8 3A 39 3A 39 39 3B 3A 00
   1.426000 1  18F156F3x       Rx   d 8 00 00 00 00 00 00 00 00
   1.428000 1  18F157F3x       Rx   d 8 00 00 00 00 00 00 00 00
   1.430000 1  18F158F3x       Rx   d 8 00 00 00 00 00 00 00 00
   1.431000 1  18F159F3x       Rx   d 8 00 00 00 00 00 00 00 00
   1.433000 1  CFF21CAx        Rx   d 8 02 00 80 0C 4A 45 00 20
   1.435000 1  18F15AF3x       Rx   d 8 00 00 00 00 00 00 00 00
   1.437000 1  18F15BF3x       Rx   d 7 00 00 00 00 00 00 00
   1.438000 1  18F15CF3x       Rx   d 8 00 00 00 00 00 00 00 00
   1.440000 1  18F15DF3x       Rx   d 8 00 00 00 00 00 00 00 00
   1.441000 1  18F15EF3x       Rx   d 8 00 00 00 00 00 00 00 00
   1.443000 1  CFF21CAx        Rx   d 8 02 00 80 0C 4A 45 00 20
   1.445000 1  18F100D0x       Rx   d 8 0C FF FF FF FF FF FF FF
   1.449000 1  CFF21CAx        Rx   d 8 03 00 80 0C 4A 45 00 20
   1.461000 1  CFF21CAx        Rx   d 8 03 00 80 0C 4A 45 00 20
   1.462000 1  18F100D0x       Rx   d 8 0C FF FF FF FF FF FF FF
   1.473000 1  CFF21CAx        Rx   d 8 03 00 80 0C 4A 45 00 20
   1.486000 1  CFF21CAx        Rx   d 8 03 00 80 0C 49 45 00 20
   1.487000 1  18F100D0x       Rx   d 8 0C FF FF FF FF FF FF FF
   1.498000 1  CFF21CAx        Rx   d 8 03 00 80 0C 49 45 00 20
   1.510000 1  CFF21CAx        Rx   d 8 02 00 80 0C 49 45 00 20
   1.511000 1  18FF2112x       Rx   d 8 01 00 00 00 00 00 00 00
   1.514000 1  18F100D0x       Rx   d 8 0C FF FF FF FF FF FF FF
   1.515000 1  18F100F3x       Rx   d 8 02 D4 7D 11 66 FA 14 00
   1.516000 1  18F102F3x       Rx   d 8 0E 26 0E 21 13 0C 00 05
   1.518000 1  18F106F3x       Rx   d 8 45 E0 FC FF FF FF FF FF
   1.519000 1  18F107F3x       Rx   d 8 38 A4 30 70 01 46 00 AE
   1.520000 1  18F108F3x       Rx   d 8 00 00 00 00 00 00 00 00
   1.548000 1  18F155F3x       Rx   d 8 3A 39 3A 39 39 3B 3A 00
   1.550000 1  CFF21CAx        Rx   d 8 02 00 80 0C 49 45 00 20
   1.552000 1  18F156F3x       Rx   d 8 00 00 00 00 00 00 00 00
   1.554000 1  18F157F3x       Rx   d 8 00 00 00 00 00 00 00 00
   1.556000 1  18F158F3x       Rx   d 8 00 00 00 00 00 00 00 00
   1.558000 1  18F159F3x       Rx   d 8 00 00 00 00 00 00 00 00
   1.560000 1  18F15AF3x       Rx   d 8 00 00 00 00 00 00 00 00
   1.562000 1  18F15BF3x       Rx   d 7 00 00 00 00 00 00 00
   1.563000 1  18F15CF3x       Rx   d 8 00 00 00 00 00 00 00 00
   1.565000 1  18F15DF3x       Rx   d 8 00 00 00 00 00 00 00 00
   1.567000 1  18F15EF3x       Rx   d 8 00 00 00 00 00 00 00 00
   1.569000 1  CFF21CAx        Rx   d 8 02 00 80 0C 49 45 00 20
   1.571000 1  18F100D0x       Rx   d 8 0C FF FF FF FF FF FF FF
   1.572000 1  CFF21CAx        Rx   d 8 02 00 80 0C 49 45 00 20
   1.574000 1  CFF21CAx        Rx   d 8 02 00 80 0C 49 45 00 20
   1.576000 1  18F100D0x       Rx   d 8 0C FF FF FF FF FF FF FF
   1.578000 1  CFF21CAx        Rx   d 8 02 00 80 0C 49 45 00 20
   1.582000 1  CFF21CAx        Rx   d 8 02 00 80 0C 49 45 00 20
   1.590000 1  18F100D0x       Rx   d 8 0C FF FF FF FF FF FF FF
   1.594000 1  CFF21CAx        Rx   d 8 02 00 80 0C 49 45 00 20
   1.606000 1  CFF21CAx        Rx   d 8 02 00 80 0C 49 45 00 20
   1.607000 1  18FF2112x       Rx   d 8 01 00 00 00 00 00 00 00
   1.614000 1  18F100D0x       Rx   d 8 0C FF FF FF FF FF FF FF
   1.615000 1  18F100F3x       Rx   d 8 02 D4 7D 11 66 FA 14 00
   1.616000 1  18F102F3x       Rx   d 8 0E 26 0E 21 13 0C 00 05
   1.618000 1  18F106F3x       Rx   d 8 45 E0 FC FF FF FF FF FF
   1.619000 1  CFF21CAx        Rx   d 8 02 00 80 0C 49 45 00 20
   1.620000 1  18F107F3x       Rx   d 8 38 A4 30 70 01 46 00 AE
   1.621000 1  18F108F3x       Rx   d 8 00 00 00 00 00 00 00 00
   1.623000 1  18F155F3x       Rx   d 8 3A 39 3A 39 39 3B 3A 00
   1.649000 1  18F156F3x       Rx   d 8 00 00 00 00 00 00 00 00
   1.653000 1  18F157F3x       Rx   d 8 00 00 00 00 00 00 00 00
   1.654000 1  18F158F3x       Rx   d 8 00 00 00 00 00 00 00 00
   1.656000 1  18F159F3x       Rx   d 8 00 00 00 00 00 00 00 00
   1.658000 1  18F15AF3x       Rx   d 8 00 00 00 00 00 00 00 00
   1.659000 1  18F15BF3x       Rx   d 7 00 00 00 00 00 00 00
   1.661000 1  18F15CF3x       Rx   d 8 00 00 00 00 00 00 00 00
   1.663000 1  18F15DF3x       Rx   d 8 00 00 00 00 00 00 00 00
   1.665000 1  18F15EF3x       Rx   d 8 00 00 00 00 00 00 00 00
   1.667000 1  CFF21CAx        Rx   d 8 02 00 80 0C 49 45 00 20
   1.668000 1  CFF21CAx        Rx   d 8 02 00 80 0C 4A 45 00 20
   1.670000 1  18F100D0x       Rx   d 8 0C FF FF FF FF FF FF FF
   1.672000 1  CFF21CAx        Rx   d 8 02 00 80 0C 4A 45 00 20
   1.673000 1  CFF21CAx        Rx   d 8 02 00 80 0C 4A 45 00 20
   1.674000 1  18F100D0x       Rx   d 8 0C FF FF FF FF FF FF FF
   1.678000 1  CFF21CAx        Rx   d 8 03 00 80 0C 4A 45 00 20
   1.690000 1  CFF21CAx        Rx   d 8 03 00 80 0C 4A 45 00 20
   1.691000 1  18F100D0x       Rx   d 8 0C FF FF FF FF FF FF FF
   1.702000 1  CFF21CAx        Rx   d 8 03 00 80 0C 4A 45 00 20
   1.713000 1  18FF2112x       Rx   d 8 01 00 00 00 00 00 00 00
   1.715000 1  CFF21CAx        Rx   d 8 03 00 80 0C 4A 45 00 20
   1.718000 1  18F100D0x       Rx   d 8 0C FF FF FF FF FF FF FF
   1.720000 1  18F100F3x       Rx   d 8 02 D4 7D 11 66 FA 14 00
   1.722000 1  18F102F3x       Rx   d 8 0E 26 0E 21 10 0C 00 05
   1.724000 1  18F106F3x       Rx   d 8 45 E0 FC FF FF FF FF FF
   1.726000 1  18F107F3x       Rx   d 8 38 A4 30 70 01 46 00 AE
   1.728000 1  18F108F3x       Rx   d 8 00 00 00 00 00 00 00 00
   1.730000 1  18F155F3x       Rx   d 8 3A 39 3A 39 39 3B 3A 00
   1.732000 1  18F156F3x       Rx   d 8 00 00 00 00 00 00 00 00
   1.733000 1  18F157F3x       Rx   d 8 00 00 00 00 00 00 00 00
   1.735000 1  18F158F3x       Rx   d 8 00 00 00 00 00 00 00 00
   1.737000 1  18F159F3x       Rx   d 8 00 00 00 00 00 00 00 00
   1.739000 1  18F15AF3x       Rx   d 8 00 00 00 00 00 00 00 00
   1.741000 1  CFF21CAx        Rx   d 8 03 00 80 0C 4A 45 00 20
   1.743000 1  18F15BF3x       Rx   d 7 00 00 00 00 00 00 00
   1.745000 1  18F15CF3x       Rx   d 8 00 00 00 00 00 00 00 00
   1.746000 1  18F15DF3x       Rx   d 8 00 00 00 00 00 00 00 00
   1.748000 1  18F15EF3x       Rx   d 8 00 00 00 00 00 00 00 00
   1.750000 1  CFF21CAx        Rx   d 8 03 00 80 0C 4A 45 00 20
   1.752000 1  18F100D0x       Rx   d 8 0C FF FF FF FF FF FF FF
   1.754000 1  CFF21CAx        Rx   d 8 03 00 80 0C 4A 45 00 20
   1.763000 1  CFF21CAx        Rx   d 8 03 00 80 0C 4A 45 00 20
   1.771000 1  18F100D0x       Rx   d 8 0C FF FF FF FF FF FF FF
   1.775000 1  CFF21CAx        Rx   d 8 03 00 80 0C 49 45 00 20
   1.787000 1  CFF21CAx        Rx   d 8 03 00 80 0C 49 45 00 20
   1.795000 1  18F100D0x       Rx   d 8 0C FF FF FF FF FF FF FF
   1.799000 1  CFF21CAx        Rx   d 8 03 00 80 0C 49 45 00 20
   1.802000 1  18FF2112x       Rx   d 8 01 00 00 00 00 00 00 00
   1.811000 1  CFF21CAx        Rx   d 8 03 00 80 0C 49 45 00 20
   1.815000 1  18F100F3x       Rx   d 8 02 D4 7D 11 66 FA 14 00
   1.817000 1  18F102F3x       Rx   d 8 0E 26 0E 21 10 0C 00 05
   1.819000 1  18F106F3x       Rx   d 8 45 E0 FC FF FF FF FF FF
   1.820000 1  18F107F3x       Rx   d 8 38 A4 30 70 01 46 00 AE
   1.822000 1  18F100D0x       Rx   d 8 0C FF FF FF FF FF FF FF
   1.824000 1  18FECACAx       Rx   d 8 00 00 00 00 00 00 FF FF
   1.826000 1  18F108F3x       Rx   d 8 00 00 00 00 00 00 00 00
   1.828000 1  18F155F3x       Rx   d 8 3A 39 3A 39 39 3B 3A 00
   1.830000 1  18F156F3x       Rx   d 8 00 00 00 00 00 00 00 00
   1.832000 1  CFF21CAx        Rx   d 8 03 00 80 0C 49 45 00 20
   1.834000 1  18F157F3x       Rx   d 8 00 00 00 00 00 00 00 00
   1.836000 1  18F158F3x       Rx   d 8 00 00 00 00 00 00 00 00
   1.837000 1  18F159F3x       Rx   d 8 00 00 00 00 00 00 00 00
   1.839000 1  18F15AF3x       Rx   d 8 00 00 00 00 00 00 00 00
   1.841000 1  18F15BF3x       Rx   d 7 00 00 00 00 00 00 00
   1.843000 1  18F15CF3x       Rx   d 8 00 00 00 00 00 00 00 00
   1.845000 1  18F15DF3x       Rx   d 8 00 00 00 00 00 00 00 00
   1.846000 1  18F15EF3x       Rx   d 8 00 00 00 00 00 00 00 00
   1.848000 1  CFF21CAx        Rx   d 8 03 00 80 0C 49 45 00 20
   1.850000 1  18F100D0x       Rx   d 8 0C FF FF FF FF FF FF FF
   1.852000 1  CFF21CAx        Rx   d 8 03 00 80 0C 49 45 00 20
   1.859000 1  CFF21CAx        Rx   d 8 03 00 80 0C 49 45 00 20
   1.867000 1  18F100D0x       Rx   d 8 0C FF FF FF FF FF FF FF
   1.871000 1  CFF21CAx        Rx   d 8 03 00 80 0C 49 45 00 20
   1.883000 1  CFF21CAx        Rx   d 8 03 00 80 0C 49 45 00 20
   1.891000 1  18F100D0x       Rx   d 8 0C FF FF FF FF FF FF FF
   1.895000 1  CFF21CAx        Rx   d 8 03 00 80 0C 49 45 00 20
   1.899000 1  18FF2112x       Rx   d 8 01 00 00 00 00 00 00 00
   1.907000 1  CFF21CAx        Rx   d 8 03 00 80 0C 49 45 00 20
   1.915000 1  18F100F3x       Rx   d 8 02 D4 7D 11 66 FA 14 00
   1.916000 1  18F100D0x       Rx   d 8 0C FF FF FF FF FF FF FF
   1.918000 1  18F102F3x       Rx   d 8 0E 26 0E 21 10 0C 00 05
   1.920000 1  18F106F3x       Rx   d 8 45 E0 FC FF FF FF FF FF
   1.923000 1  18F107F3x       Rx   d 8 38 A4 30 70 01 46 00 AE
   1.924000 1  CFF21CAx        Rx   d 8 03 00 80 0C 49 45 00 20
   1.926000 1  18F108F3x       Rx   d 8 00 00 00 00 00 00 00 00
   1.928000 1  18F155F3x       Rx   d 8 3A 39 3A 39 39 3B 3A 00
   1.930000 1  18F156F3x       Rx   d 8 00 00 00 00 00 00 00 00
   1.931000 1  18F157F3x       Rx   d 8 00 00 00 00 00 00 00 00
   1.933000 1  18F158F3x       Rx   d 8 00 00 00 00 00 00 00 00
   1.935000 1  18F159F3x       Rx   d 8 00 00 00 00 00 00 00 00
   1.937000 1  18F15AF3x       Rx   d 8 00 00 00 00 00 00 00 00
   1.939000 1  18F15BF3x       Rx   d 7 00 00 00 00 00 00 00
   1.940000 1  18F15CF3x       Rx   d 8 00 00 00 00 00 00 00 00
   1.942000 1  18F15DF3x       Rx   d 8 00 00 00 00 00 00 00 00
   1.944000 1  18F15EF3x       Rx   d 8 00 00 00 00 00 00 00 00
   1.946000 1  CFF21CAx        Rx   d 8 03 00 80 0C 49 45 00 20
   1.948000 1  CFF21CAx        Rx   d 8 03 00 80 0C 49 45 00 20
   1.950000 1  18F100D0x       Rx   d 8 0C FF FF FF FF FF FF FF
   1.955000 1  CFF21CAx        Rx   d 8 03 00 80 0C 49 45 00 20
   1.967000 1  CFF21CAx        Rx   d 8 04 00 80 0C 49 45 00 20
   1.972000 1  18F100D0x       Rx   d 8 0C FF FF FF FF FF FF FF
   1.980000 1  CFF21CAx        Rx   d 8 04 00 80 0C 49 45 00 20
   1.992000 1  CFF21CAx        Rx   d 8 03 00 80 0C 49 45 00 20
   1.996000 1  18F100D0x       Rx   d 8 0C FF FF FF FF FF FF FF
   1.997000 1  18FF2112x       Rx   d 8 01 00 00 00 00 00 00 00
   2.004000 1  CFF21CAx        Rx   d 8 03 00 80 0C 49 45 00 20
   2.015000 1  18F100F3x       Rx   d 8 02 D4 7D 11 66 FA 14 00
   2.016000 1  CFF21CAx        Rx   d 8 03 00 80 0C 49 45 00 20
   2.018000 1  18F102F3x       Rx   d 8 0E 26 0E 21 10 0C 00 05
   2.020000 1  18F106F3x       Rx   d 8 45 E0 FC FF FF FF FF FF
   2.022000 1  18F107F3x       Rx   d 8 38 A4 30 70 01 46 00 AE
   2.024000 1  18F100D0x       Rx   d 8 0C FF FF FF FF FF FF FF
   2.026000 1  18F108F3x       Rx   d 8 00 00 00 00 00 00 00 00
   2.027000 1  18F155F3x       Rx   d 8 3A 39 3A 39 39 3B 3A 00
   2.029000 1  18F156F3x       Rx   d 8 00 00 00 00 00 00 00 00
   2.031000 1  18F157F3x       Rx   d 8 00 00 00 00 00 00 00 00
   2.033000 1  18F158F3x       Rx   d 8 00 00 00 00 00 00 00 00
   2.034000 1  18F159F3x       Rx   d 8 00 00 00 00 00 00 00 00
   2.036000 1  18F15AF3x       Rx   d 8 00 00 00 00 00 00 00 00
   2.038000 1  18F15BF3x       Rx   d 7 00 00 00 00 00 00 00
   2.040000 1  CFF21CAx        Rx   d 8 03 00 80 0C 49 45 00 20
   2.042000 1  18F15CF3x       Rx   d 8 00 00 00 00 00 00 00 00
   2.044000 1  18F15DF3x       Rx   d 8 00 00 00 00 00 00 00 00
   2.046000 1  18F15EF3x       Rx   d 8 00 00 00 00 00 00 00 00
   2.048000 1  CFF21CAx        Rx   d 8 03 00 80 0C 49 45 00 20
   2.050000 1  18F100D0x       Rx   d 8 0C FF FF FF FF FF FF FF
   2.053000 1  CFF21CAx        Rx   d 8 03 00 80 0C 49 45 00 20
   2.064000 1  CFF21CAx        Rx   d 8 03 00 80 0C 49 45 00 20
   2.072000 1  18F100D0x       Rx   d 8 0C FF FF FF FF FF FF FF
   2.076000 1  CFF21CAx        Rx   d 8 03 00 80 0C 49 45 00 20
   2.088000 1  CFF21CAx        Rx   d 8 03 00 80 0C 49 45 00 20
   2.093000 1  18FF2112x       Rx   d 8 01 00 00 00 00 00 00 00
   2.096000 1  18F100D0x       Rx   d 8 0C FF FF FF FF FF FF FF
   2.100000 1  CFF21CAx        Rx   d 8 02 00 80 0C 49 45 00 20
   2.110000 1  18F104F3x       Rx   d 8 3B 39 06 02 02 FF FF FF
   2.111000 1  18F113F3x       Rx   d 8 0E 22 0E 22 0E 23 0E 24
   2.113000 1  18F114F3x       Rx   d 8 0E 24 0E 23 0E 25 0E 23
   2.115000 1  CFF21CAx        Rx   d 8 02 00 80 0C 49 45 00 20
   2.116000 1  18F115F3x       Rx   d 8 0E 23 0E 23 0E 23 0E 21
   2.118000 1  18F116F3x       Rx   d 8 0E 23 0E 23 0E 24 0E 26
   2.120000 1  18F117F3x       Rx   d 8 0E 23 0E 25 0E 26 0E 24
   2.122000 1  18F100F3x       Rx   d 8 02 D4 7D 11 66 FA 14 00
   2.124000 1  18F102F3x       Rx   d 8 0E 26 0E 21 10 0C 00 05
   2.126000 1  18F106F3x       Rx   d 8 45 E0 FC FF FF FF FF FF
   2.128000 1  18F107F3x       Rx   d 8 38 A4 30 70 01 46 00 AE
   2.130000 1  18F108F3x       Rx   d 8 00 00 00 00 00 00 00 00
   2.131000 1  18F118F3x       Rx   d 8 00 00 00 00 00 00 00 00
   2.134000 1  18F119F3x       Rx   d 8 00 00 00 00 00 00 00 00
   2.135000 1  18F11AF3x       Rx   d 8 00 00 00 00 00 00 00 00
   2.137000 1  18F11BF3x       Rx   d 8 00 00 00 00 00 00 00 00
   2.139000 1  CFF21CAx        Rx   d 8 02 00 80 0C 49 45 00 20
   2.141000 1  18F100D0x       Rx   d 8 0C FF FF FF FF FF FF FF
   2.143000 1  18F11CF3x       Rx   d 8 00 00 00 00 00 00 00 00
   2.145000 1  18F11DF3x       Rx   d 8 00 00 00 00 00 00 00 00
   2.147000 1  18F11EF3x       Rx   d 8 00 00 00 00 00 00 00 00
   2.149000 1  18F11FF3x       Rx   d 8 00 00 00 00 00 00 00 00
   2.151000 1  18F120F3x       Rx   d 8 00 00 00 00 00 00 00 00
   2.153000 1  18F121F3x       Rx   d 8 00 00 00 00 00 00 00 00
   2.155000 1  18F122F3x       Rx   d 8 00 00 00 00 00 00 00 00
   2.157000 1  18F123F3x       Rx   d 8 00 00 00 00 00 00 00 00
   2.159000 1  18F124F3x       Rx   d 8 00 00 00 00 00 00 00 00
   2.161000 1  18F125F3x       Rx   d 8 00 00 00 00 00 00 00 00
   2.163000 1  18F126F3x       Rx   d 8 00 00 00 00 00 00 00 00
   2.165000 1  CFF21CAx        Rx   d 8 02 00 80 0C 49 45 00 20
   2.166000 1  18F127F3x       Rx   d 8 00 00 00 00 00 00 00 00
   2.168000 1  18F128F3x       Rx   d 8 00 00 00 00 00 00 00 00
   2.170000 1  18F129F3x       Rx   d 8 00 00 00 00 00 00 00 00
   2.172000 1  18F12AF3x       Rx   d 8 00 00 00 00 00 00 00 00
   2.174000 1  18F12BF3x       Rx   d 8 00 00 00 00 00 00 00 00
   2.176000 1  18F12CF3x       Rx   d 8 00 00 00 00 00 00 00 00
   2.178000 1  18F12DF3x       Rx   d 8 00 00 00 00 00 00 00 00
   2.180000 1  18F12EF3x       Rx   d 8 00 00 00 00 00 00 00 00
   2.182000 1  18F12FF3x       Rx   d 8 00 00 00 00 00 00 00 00
   2.183000 1  18F130F3x       Rx   d 8 00 00 00 00 00 00 00 00
   2.185000 1  18F131F3x       Rx   d 8 00 00 00 00 00 00 00 00
   2.187000 1  18F132F3x       Rx   d 8 00 00 00 00 00 00 00 00
   2.189000 1  CFF21CAx        Rx   d 8 02 00 80 0C 49 45 00 20
   2.191000 1  18F100D0x       Rx   d 8 0C FF FF FF FF FF FF FF
   2.192000 1  18F133F3x       Rx   d 8 00 00 00 00 00 00 00 00
   2.194000 1  18F134F3x       Rx   d 8 00 00 00 00 00 00 00 00
   2.196000 1  18F135F3x       Rx   d 8 00 00 00 00 00 00 00 00
   2.197000 1  18F136F3x       Rx   d 8 00 00 00 00 00 00 00 00
   2.199000 1  18F137F3x       Rx   d 8 00 00 00 00 00 00 00 00
   2.201000 1  18F138F3x       Rx   d 8 00 00 00 00 00 00 00 00
   2.202000 1  18F139F3x       Rx   d 8 00 00 00 00 00 00 00 00
   2.204000 1  18F13AF3x       Rx   d 8 00 00 00 00 00 00 00 00
   2.205000 1  18F13BF3x       Rx   d 8 00 00 00 00 00 00 00 00
   2.207000 1  18F13CF3x       Rx   d 8 00 00 00 00 00 00 00 00
   2.208000 1  18F155F3x       Rx   d 8 3A 39 3A 39 39 3B 3A 00
   2.213000 1  18F156F3x       Rx   d 8 00 00 00 00 00 00 00 00
   2.214000 1  18F157F3x       Rx   d 8 00 00 00 00 00 00 00 00
   2.216000 1  CFF21CAx        Rx   d 8 03 00 80 0C 49 45 00 20
   2.218000 1  18F158F3x       Rx   d 8 00 00 00 00 00 00 00 00
   2.220000 1  18F159F3x       Rx   d 8 00 00 00 00 00 00 00 00
   2.222000 1  18F15AF3x       Rx   d 8 00 00 00 00 00 00 00 00
   2.224000 1  18F15BF3x       Rx   d 7 00 00 00 00 00 00 00
   2.226000 1  18F15CF3x       Rx   d 8 00 00 00 00 00 00 00 00
   2.227000 1  18F15DF3x       Rx   d 8 00 00 00 00 00 00 00 00
   2.229000 1  18F15EF3x       Rx   d 8 00 00 00 00 00 00 00 00
   2.230000 1  CFF21CAx        Rx   d 8 03 00 80 0C 49 45 00 20
   2.231000 1  18F100D0x       Rx   d 8 0C FF FF FF FF FF FF FF
   2.232000 1  CFF21CAx        Rx   d 8 03 00 80 0C 49 45 00 20
   2.234000 1  18FF2112x       Rx   d 8 01 00 00 00 00 00 00 00
   2.247000 1  CFF21CAx        Rx   d 8 03 00 80 0C 49 45 00 20
   2.248000 1  18F100D0x       Rx   d 8 0C FF FF FF FF FF FF FF
   2.251000 1  CFF21CAx        Rx   d 8 03 00 80 0C 49 45 00 20
   2.253000 1  18F100F3x       Rx   d 8 02 D4 7D 11 66 FA 14 00
   2.254000 1  18F102F3x       Rx   d 8 0E 26 0E 21 10 0C 00 05
   2.256000 1  18F106F3x       Rx   d 8 45 E0 FC FF FF FF FF FF
   2.258000 1  18F107F3x       Rx   d 8 38 A4 30 70 01 46 00 AE
   2.260000 1  18F108F3x       Rx   d 8 00 00 00 00 00 00 00 00
   2.262000 1  CFF21CAx        Rx   d 8 03 00 80 0C 49 45 00 20
   2.264000 1  18F155F3x       Rx   d 8 3A 39 3A 39 39 3B 3A 00
   2.265000 1  18F156F3x       Rx   d 8 00 00 00 00 00 00 00 00
   2.267000 1  18F157F3x       Rx   d 8 00 00 00 00 00 00 00 00
   2.269000 1  18F158F3x       Rx   d 8 00 00 00 00 00 00 00 00
   2.271000 1  18F100D0x       Rx   d 8 0C FF FF FF FF FF FF FF
   2.272000 1  18F159F3x       Rx   d 8 00 00 00 00 00 00 00 00
   2.273000 1  18F15AF3x       Rx   d 8 00 00 00 00 00 00 00 00
   2.274000 1  18F15BF3x       Rx   d 7 00 00 00 00 00 00 00
   2.276000 1  18F15CF3x       Rx   d 8 00 00 00 00 00 00 00 00
   2.277000 1  18F15DF3x       Rx   d 8 00 00 00 00 00 00 00 00
   2.278000 1  18F15EF3x       Rx   d 8 00 00 00 00 00 00 00 00
   2.308000 1  CFF21CAx        Rx   d 8 03 00 80 0C 49 45 00 20
   2.312000 1  CFF21CAx        Rx   d 8 03 00 80 0C 49 45 00 20
   2.314000 1  18F100D0x       Rx   d 8 0C FF FF FF FF FF FF FF
   2.316000 1  CFF21CAx        Rx   d 8 03 00 80 0C 49 45 00 20
   2.317000 1  CFF21CAx        Rx   d 8 03 00 80 0C 49 45 00 20
   2.318000 1  18F100D0x       Rx   d 8 0C FF FF FF FF FF FF FF
