date Sat Jun 06 05:58:19.150 PM 2026
base hex  timestamps absolute
internal events logged
// version 8.0.0
Begin Triggerblock Sat Jun 06 05:58:19.150 PM 2026
   0.000000 Start of measurement
   0.000000 1  CFF21CAx        Rx   d 8 1F 00 84 0C 4F 45 00 24
   0.010000 1  CFF21CAx        Rx   d 8 1F 00 84 0C 4F 45 00 24
   0.019000 1  18F100D0x       Rx   d 8 0C FF FF FF FF FF FF FF
   0.022000 1  CFF21CAx        Rx   d 8 1F 00 84 0C 4F 45 00 24
   0.035000 1  CFF21CAx        Rx   d 8 1F 00 84 0C 4F 45 00 24
   0.038000 1  18F100D0x       Rx   d 8 0C FF FF FF FF FF FF FF
   0.047000 1  CFF21CAx        Rx   d 8 1F 00 84 0C 4F 45 00 24
   0.059000 1  CFF21CAx        Rx   d 8 1F 00 84 0C 4F 45 00 24
   0.063000 1  18F100D0x       Rx   d 8 0C FF FF FF FF FF FF FF
   0.067000 1  18FECACAx       Rx   d 8 00 00 00 00 00 00 FF FF
   0.069000 1  18FF2112x       Rx   d 8 01 00 00 00 00 00 00 00
   0.070000 1  18F100F3x       Rx   d 8 02 BB 7D 93 25 FA 14 00
   0.072000 1  CFF21CAx        Rx   d 8 1F 00 84 0C 4F 45 00 24
   0.074000 1  18F102F3x       Rx   d 8 0D AA 0D A3 07 0A 00 07
   0.075000 1  18F106F3x       Rx   d 8 45 E0 FC FF FF FF FF FF
   0.077000 1  18F107F3x       Rx   d 8 38 A4 32 C8 01 3B 00 D2
   0.079000 1  18F108F3x       Rx   d 8 0C 00 00 00 00 00 00 03
   0.081000 1  18F155F3x       Rx   d 8 38 38 38 38 38 39 39 00
   0.083000 1  18F156F3x       Rx   d 8 00 00 00 00 00 00 00 00
   0.084000 1  18F157F3x       Rx   d 8 00 00 00 00 00 00 00 00
   0.086000 1  18F158F3x       Rx   d 8 00 00 00 00 00 00 00 00
   0.088000 1  18F159F3x       Rx   d 8 00 00 00 00 00 00 00 00
   0.090000 1  18F15AF3x       Rx   d 8 00 00 00 00 00 00 00 00
   0.091000 1  18F15BF3x       Rx   d 7 00 00 00 00 00 00 00
   0.093000 1  18F15CF3x       Rx   d 8 00 00 00 00 00 00 00 00
   0.095000 1  CFF21CAx        Rx   d 8 1F 00 84 0C 4F 45 00 24
   0.096000 1  18F100D0x       Rx   d 8 0C FF FF FF FF FF FF FF
   0.098000 1  18F15DF3x       Rx   d 8 00 00 00 00 00 00 00 00
   0.100000 1  18F15EF3x       Rx   d 8 00 00 00 00 00 00 00 00
   0.101000 1  CFF21CAx        Rx   d 8 1F 00 84 0C 4F 45 00 24
   0.107000 1  CFF21CAx        Rx   d 8 1F 00 83 0C 4F 45 00 24
   0.108000 1  18F100D0x       Rx   d 8 0C FF FF FF FF FF FF FF
   0.119000 1  CFF21CAx        Rx   d 8 1F 00 83 0C 4F 44 00 24
   0.131000 1  CFF21CAx        Rx   d 8 1F 00 83 0C 4F 45 00 24
   0.132000 1  18F100D0x       Rx   d 8 0C FF FF FF FF FF FF FF
   0.143000 1  CFF21CAx        Rx   d 8 1F 00 82 0C 4F 45 00 24
   0.151000 1  18F100D0x       Rx   d 8 0C FF FF FF FF FF FF FF
   0.155000 1  CFF21CAx        Rx   d 8 1F 00 82 0C 4F 45 00 24
   0.166000 1  18FF2112x       Rx   d 8 01 00 00 00 00 00 00 00
   0.167000 1  CFF21CAx        Rx   d 8 1F 00 82 0C 4F 45 00 24
   0.170000 1  18F100F3x       Rx   d 8 02 BB 7D 93 25 FA 14 00
   0.172000 1  18F102F3x       Rx   d 8 0D AA 0D A3 07 0A 00 07
   0.173000 1  18F100D0x       Rx   d 8 0C FF FF FF FF FF FF FF
   0.175000 1  18F106F3x       Rx   d 8 45 E0 FC FF FF FF FF FF
   0.177000 1  18F107F3x       Rx   d 8 38 A4 32 C8 01 3B 00 D2
   0.179000 1  18F108F3x       Rx   d 8 0C 00 00 00 00 00 00 03
   0.180000 1  18F155F3x       Rx   d 8 38 38 38 38 38 39 39 00
   0.182000 1  18F156F3x       Rx   d 8 00 00 00 00 00 00 00 00
   0.184000 1  18F157F3x       Rx   d 8 00 00 00 00 00 00 00 00
   0.186000 1  18F158F3x       Rx   d 8 00 00 00 00 00 00 00 00
   0.187000 1  CFF21CAx        Rx   d 8 1F 00 82 0C 4F 45 00 24
   0.189000 1  18F159F3x       Rx   d 8 00 00 00 00 00 00 00 00
   0.191000 1  18F15AF3x       Rx   d 8 00 00 00 00 00 00 00 00
   0.193000 1  18F15BF3x       Rx   d 7 00 00 00 00 00 00 00
   0.194000 1  18F15CF3x       Rx   d 8 00 00 00 00 00 00 00 00
   0.196000 1  18F15DF3x       Rx   d 8 00 00 00 00 00 00 00 00
   0.197000 1  18F15EF3x       Rx   d 8 00 00 00 00 00 00 00 00
   0.199000 1  CFF21CAx        Rx   d 8 1F 00 82 0C 4F 45 00 24
   0.201000 1  18F100D0x       Rx   d 8 0C FF FF FF FF FF FF FF
   0.203000 1  CFF21CAx        Rx   d 8 1F 00 81 0C 4F 45 00 24
   0.215000 1  CFF21CAx        Rx   d 8 1F 00 81 0C 4F 45 00 24
   0.216000 1  18F100D0x       Rx   d 8 0C FF FF FF FF FF FF FF
   0.228000 1  CFF21CAx        Rx   d 8 1F 00 80 0C 4F 45 00 24
   0.239000 1  CFF21CAx        Rx   d 8 1F 00 80 0C 4F 45 00 24
   0.243000 1  18F100D0x       Rx   d 8 0C FF FF FF FF FF FF FF
   0.251000 1  CFF21CAx        Rx   d 8 1E 00 80 0C 4F 45 00 24
   0.263000 1  18FF2112x       Rx   d 8 01 00 00 00 00 00 00 00
   0.264000 1  CFF21CAx        Rx   d 8 1E 00 80 0C 4F 45 00 24
   0.267000 1  18F100D0x       Rx   d 8 0C FF FF FF FF FF FF FF
   0.270000 1  18F100F3x       Rx   d 8 02 BB 7D 92 25 FA 14 00
   0.271000 1  18F102F3x       Rx   d 8 0D AA 0D A3 07 0A 00 07
   0.273000 1  18F106F3x       Rx   d 8 45 E0 FC FF FF FF FF FF
   0.275000 1  18F107F3x       Rx   d 8 38 A4 32 C8 01 3B 00 D2
   0.276000 1  18F108F3x       Rx   d 8 0C 00 00 00 00 00 00 03
   0.279000 1  CFF21CAx        Rx   d 8 1E 00 80 0C 4F 44 00 24
   0.280000 1  18F155F3x       Rx   d 8 38 38 38 38 38 39 39 00
   0.282000 1  18F156F3x       Rx   d 8 00 00 00 00 00 00 00 00
   0.284000 1  18F157F3x       Rx   d 8 00 00 00 00 00 00 00 00
   0.286000 1  18F158F3x       Rx   d 8 00 00 00 00 00 00 00 00
   0.288000 1  18F159F3x       Rx   d 8 00 00 00 00 00 00 00 00
   0.289000 1  18F15AF3x       Rx   d 8 00 00 00 00 00 00 00 00
   0.290000 1  18F15BF3x       Rx   d 7 00 00 00 00 00 00 00
   0.292000 1  18F15CF3x       Rx   d 8 00 00 00 00 00 00 00 00
   0.293000 1  18F15DF3x       Rx   d 8 00 00 00 00 00 00 00 00
   0.294000 1  18F15EF3x       Rx   d 8 00 00 00 00 00 00 00 00
   0.295000 1  CFF21CAx        Rx   d 8 1E 00 80 0C 4F 45 00 24
   0.312000 1  18F100D0x       Rx   d 8 0C FF FF FF FF FF FF FF
   0.313000 1  CFF21CAx        Rx   d 8 1E 00 80 0C 4F 45 00 24
   0.320000 1  CFF21CAx        Rx   d 8 1E 00 80 0C 4F 44 00 24
   0.322000 1  18F100D0x       Rx   d 8 0C FF FF FF FF FF FF FF
   0.324000 1  CFF21CAx        Rx   d 8 1E 00 80 0C 4F 45 00 24
   0.332000 1  18F100D0x       Rx   d 8 0C FF FF FF FF FF FF FF
   0.336000 1  CFF21CAx        Rx   d 8 1E 00 80 0C 4F 45 00 24
   0.348000 1  CFF21CAx        Rx   d 8 1E 00 80 0C 4F 44 00 24
   0.356000 1  18F100D0x       Rx   d 8 0C FF FF FF FF FF FF FF
   0.360000 1  CFF21CAx        Rx   d 8 1E 00 80 0C 4F 45 00 24
   0.361000 1  18FF2112x       Rx   d 8 01 00 00 00 00 00 00 00
   0.363000 1  18F104F3x       Rx   d 8 39 38 06 01 01 FF FF FF
   0.365000 1  18F113F3x       Rx   d 8 0D A9 0D A4 0D A8 0D A7
   0.367000 1  18F114F3x       Rx   d 8 0D A6 0D A5 0D AA 0D A6
   0.369000 1  18F115F3x       Rx   d 8 0D A4 0D A3 0D A6 0D A6
   0.370000 1  18F116F3x       Rx   d 8 0D A9 0D A4 0D A7 0D A7
   0.372000 1  18F117F3x       Rx   d 8 0D A6 0D A7 0D A9 0D AA
   0.374000 1  18F118F3x       Rx   d 8 00 00 00 00 00 00 00 00
   0.376000 1  18F119F3x       Rx   d 8 00 00 00 00 00 00 00 00
   0.377000 1  18F11AF3x       Rx   d 8 00 00 00 00 00 00 00 00
   0.379000 1  18F100F3x       Rx   d 8 02 BB 7D 92 25 FA 14 00
   0.381000 1  18F102F3x       Rx   d 8 0D AA 0D A3 07 0A 00 07
   0.383000 1  CFF21CAx        Rx   d 8 1D 00 80 0C 4F 45 00 24
   0.385000 1  18F106F3x       Rx   d 8 45 E0 FC FF FF FF FF FF
   0.387000 1  18F107F3x       Rx   d 8 38 A4 32 C8 01 3B 00 D2
   0.388000 1  18F100D0x       Rx   d 8 0C FF FF FF FF FF FF FF
   0.390000 1  18F108F3x       Rx   d 8 0C 00 00 00 00 00 00 03
   0.392000 1  18F11BF3x       Rx   d 8 00 00 00 00 00 00 00 00
   0.394000 1  18F11CF3x       Rx   d 8 00 00 00 00 00 00 00 00
   0.395000 1  18F11DF3x       Rx   d 8 00 00 00 00 00 00 00 00
   0.397000 1  18F11EF3x       Rx   d 8 00 00 00 00 00 00 00 00
   0.399000 1  18F11FF3x       Rx   d 8 00 00 00 00 00 00 00 00
   0.401000 1  18F120F3x       Rx   d 8 00 00 00 00 00 00 00 00
   0.402000 1  18F121F3x       Rx   d 8 00 00 00 00 00 00 00 00
   0.404000 1  CFF21CAx        Rx   d 8 1D 00 80 0C 4F 45 00 24
   0.406000 1  18F122F3x       Rx   d 8 00 00 00 00 00 00 00 00
   0.407000 1  18F123F3x       Rx   d 8 00 00 00 00 00 00 00 00
   0.409000 1  18F124F3x       Rx   d 8 00 00 00 00 00 00 00 00
   0.411000 1  18F125F3x       Rx   d 8 00 00 00 00 00 00 00 00
   0.413000 1  18F126F3x       Rx   d 8 00 00 00 00 00 00 00 00
   0.414000 1  18F127F3x       Rx   d 8 00 00 00 00 00 00 00 00
   0.416000 1  18F128F3x       Rx   d 8 00 00 00 00 00 00 00 00
   0.418000 1  18F129F3x       Rx   d 8 00 00 00 00 00 00 00 00
   0.419000 1  18F12AF3x       Rx   d 8 00 00 00 00 00 00 00 00
   0.421000 1  18F12BF3x       Rx   d 8 00 00 00 00 00 00 00 00
   0.423000 1  18F12CF3x       Rx   d 8 00 00 00 00 00 00 00 00
   0.425000 1  18F12DF3x       Rx   d 8 00 00 00 00 00 00 00 00
   0.426000 1  CFF21CAx        Rx   d 8 1D 00 80 0C 4F 45 00 24
   0.428000 1  18F12EF3x       Rx   d 8 00 00 00 00 00 00 00 00
   0.429000 1  18F12FF3x       Rx   d 8 00 00 00 00 00 00 00 00
   0.431000 1  18F130F3x       Rx   d 8 00 00 00 00 00 00 00 00
   0.433000 1  18F131F3x       Rx   d 8 00 00 00 00 00 00 00 00
   0.435000 1  18F100D0x       Rx   d 8 0C FF FF FF FF FF FF FF
   0.436000 1  18F132F3x       Rx   d 8 00 00 00 00 00 00 00 00
   0.438000 1  18F133F3x       Rx   d 8 00 00 00 00 00 00 00 00
   0.440000 1  18F134F3x       Rx   d 8 00 00 00 00 00 00 00 00
   0.442000 1  18F135F3x       Rx   d 8 00 00 00 00 00 00 00 00
   0.443000 1  18F136F3x       Rx   d 8 00 00 00 00 00 00 00 00
   0.445000 1  18F137F3x       Rx   d 8 00 00 00 00 00 00 00 00
   0.447000 1  18F138F3x       Rx   d 8 00 00 00 00 00 00 00 00
   0.448000 1  18F139F3x       Rx   d 8 00 00 00 00 00 00 00 00
   0.450000 1  18F13AF3x       Rx   d 8 00 00 00 00 00 00 00 00
   0.452000 1  CFF21CAx        Rx   d 8 1E 00 80 0C 4F 45 00 24
   0.453000 1  18F13BF3x       Rx   d 8 00 00 00 00 00 00 00 00
   0.455000 1  18F13CF3x       Rx   d 8 00 00 00 00 00 00 00 00
   0.456000 1  18F155F3x       Rx   d 8 38 38 38 38 38 39 39 00
   0.458000 1  18F156F3x       Rx   d 8 00 00 00 00 00 00 00 00
   0.459000 1  18F157F3x       Rx   d 8 00 00 00 00 00 00 00 00
   0.461000 1  18F158F3x       Rx   d 8 00 00 00 00 00 00 00 00
   0.463000 1  18F159F3x       Rx   d 8 00 00 00 00 00 00 00 00
   0.464000 1  18F15AF3x       Rx   d 8 00 00 00 00 00 00 00 00
   0.466000 1  18F15BF3x       Rx   d 7 00 00 00 00 00 00 00
   0.468000 1  18F15CF3x       Rx   d 8 00 00 00 00 00 00 00 00
   0.470000 1  18F15DF3x       Rx   d 8 00 00 00 00 00 00 00 00
   0.471000 1  18F15EF3x       Rx   d 8 00 00 00 00 00 00 00 00
   0.473000 1  CFF21CAx        Rx   d 8 1E 00 80 0C 4F 45 00 24
   0.475000 1  18F100D0x       Rx   d 8 0C FF FF FF FF FF FF FF
   0.477000 1  CFF21CAx        Rx   d 8 1E 00 80 0C 4F 45 00 24
   0.479000 1  CFF21CAx        Rx   d 8 1E 00 80 0C 4F 45 00 24
   0.481000 1  18F100D0x       Rx   d 8 0C FF FF FF FF FF FF FF
   0.482000 1  CFF21CAx        Rx   d 8 1E 00 80 0C 4F 45 00 24
   0.484000 1  18FF2112x       Rx   d 8 01 00 00 00 00 00 00 00
   0.486000 1  CFF21CAx        Rx   d 8 1F 00 80 0C 4F 45 00 24
   0.487000 1  18F100D0x       Rx   d 8 0C FF FF FF FF FF FF FF
   0.489000 1  18F100F3x       Rx   d 8 02 BB 7D 92 25 FA 14 00
   0.491000 1  18F102F3x       Rx   d 8 0D AA 0D A3 07 0A 00 07
   0.492000 1  18F106F3x       Rx   d 8 45 E0 FC FF FF FF FF FF
   0.494000 1  18F107F3x       Rx   d 8 38 A4 32 C8 01 3B 00 D2
   0.496000 1  18F108F3x       Rx   d 8 0C 00 00 00 00 00 00 03
   0.498000 1  18F155F3x       Rx   d 8 38 38 38 38 38 39 39 00
   0.499000 1  18F156F3x       Rx   d 8 00 00 00 00 00 00 00 00
   0.501000 1  18F157F3x       Rx   d 8 00 00 00 00 00 00 00 00
   0.503000 1  18F158F3x       Rx   d 8 00 00 00 00 00 00 00 00
   0.505000 1  18F159F3x       Rx   d 8 00 00 00 00 00 00 00 00
   0.506000 1  CFF21CAx        Rx   d 8 1F 00 80 0C 4F 45 00 24
   0.508000 1  18F15AF3x       Rx   d 8 00 00 00 00 00 00 00 00
   0.509000 1  18F15BF3x       Rx   d 7 00 00 00 00 00 00 00
   0.510000 1  18F15CF3x       Rx   d 8 00 00 00 00 00 00 00 00
   0.511000 1  18F15DF3x       Rx   d 8 00 00 00 00 00 00 00 00
   0.512000 1  18F15EF3x       Rx   d 8 00 00 00 00 00 00 00 00
   0.530000 1  18F100D0x       Rx   d 8 0C FF FF FF FF FF FF FF
   0.532000 1  CFF21CAx        Rx   d 8 1F 00 80 0C 4F 45 00 24
   0.533000 1  CFF21CAx        Rx   d 8 1F 00 80 0C 4F 45 00 24
   0.535000 1  18F100D0x       Rx   d 8 0C FF FF FF FF FF FF FF
   0.537000 1  CFF21CAx        Rx   d 8 1F 00 80 0C 4F 45 00 24
   0.538000 1  CFF21CAx        Rx   d 8 1F 00 80 0C 4F 45 00 24
   0.540000 1  18F100D0x       Rx   d 8 0C FF FF FF FF FF FF FF
   0.542000 1  CFF21CAx        Rx   d 8 20 00 80 0C 4F 45 00 24
   0.553000 1  CFF21CAx        Rx   d 8 20 00 80 0C 4F 45 00 24
   0.556000 1  18FF2112x       Rx   d 8 01 00 00 00 00 00 00 00
   0.557000 1  18F100D0x       Rx   d 8 0C FF FF FF FF FF FF FF
   0.565000 1  CFF21CAx        Rx   d 8 21 00 80 0C 4F 45 00 24
   0.570000 1  18F100F3x       Rx   d 8 02 BB 7D 91 25 FA 14 00
   0.571000 1  18F102F3x       Rx   d 8 0D AB 0D A4 07 02 00 07
   0.573000 1  18F106F3x       Rx   d 8 45 E0 FC FF FF FF FF FF
   0.575000 1  18F107F3x       Rx   d 8 38 A4 32 C8 01 3B 00 D2
   0.577000 1  18F108F3x       Rx   d 8 0C 00 00 00 00 00 00 03
   0.578000 1  18F155F3x       Rx   d 8 38 38 38 38 38 39 39 00
   0.580000 1  CFF21CAx        Rx   d 8 21 00 80 0C 4F 45 00 24
   0.582000 1  18F100D0x       Rx   d 8 0C FF FF FF FF FF FF FF
   0.584000 1  18F156F3x       Rx   d 8 00 00 00 00 00 00 00 00
   0.585000 1  18F157F3x       Rx   d 8 00 00 00 00 00 00 00 00
   0.587000 1  18F158F3x       Rx   d 8 00 00 00 00 00 00 00 00
   0.589000 1  18F159F3x       Rx   d 8 00 00 00 00 00 00 00 00
   0.590000 1  18F15AF3x       Rx   d 8 00 00 00 00 00 00 00 00
   0.591000 1  18F15BF3x       Rx   d 7 00 00 00 00 00 00 00
   0.593000 1  18F15CF3x       Rx   d 8 00 00 00 00 00 00 00 00
   0.594000 1  18F15DF3x       Rx   d 8 00 00 00 00 00 00 00 00
   0.595000 1  18F15EF3x       Rx   d 8 00 00 00 00 00 00 00 00
   0.626000 1  CFF21CAx        Rx   d 8 21 00 80 0C 4F 45 00 24
   0.628000 1  CFF21CAx        Rx   d 8 20 00 80 0C 4F 44 00 24
   0.629000 1  18F100D0x       Rx   d 8 0C FF FF FF FF FF FF FF
   0.631000 1  CFF21CAx        Rx   d 8 20 00 80 0C 4F 45 00 24
   0.633000 1  18F100D0x       Rx   d 8 0C FF FF FF FF FF FF FF
   0.634000 1  CFF21CAx        Rx   d 8 20 00 80 0C 4F 45 00 24
   0.638000 1  CFF21CAx        Rx   d 8 21 00 80 0C 4F 44 00 24
   0.645000 1  18F100D0x       Rx   d 8 0C FF FF FF FF FF FF FF
   0.649000 1  CFF21CAx        Rx   d 8 21 00 80 0C 4F 44 00 24
   0.652000 1  18FF2112x       Rx   d 8 01 00 00 00 00 00 00 00
   0.661000 1  CFF21CAx        Rx   d 8 21 00 80 0C 4F 44 00 24
   0.665000 1  18F100D0x       Rx   d 8 0C FF FF FF FF FF FF FF
   0.670000 1  18F100F3x       Rx   d 8 02 BB 7D 91 25 FA 14 00
   0.671000 1  18F102F3x       Rx   d 8 0D AB 0D A4 07 02 00 07
   0.672000 1  18F106F3x       Rx   d 8 45 E0 FC FF FF FF FF FF
   0.674000 1  CFF21CAx        Rx   d 8 21 00 80 0C 4F 45 00 24
   0.675000 1  18F107F3x       Rx   d 8 38 A4 32 C8 01 3B 00 D2
   0.692000 1  18F108F3x       Rx   d 8 0C 00 00 00 00 00 00 03
   0.693000 1  18F155F3x       Rx   d 8 38 38 38 38 38 39 39 00
   0.695000 1  18F156F3x       Rx   d 8 00 00 00 00 00 00 00 00
   0.697000 1  18F157F3x       Rx   d 8 00 00 00 00 00 00 00 00
   0.698000 1  18F158F3x       Rx   d 8 00 00 00 00 00 00 00 00
   0.700000 1  18F159F3x       Rx   d 8 00 00 00 00 00 00 00 00
   0.702000 1  18F15AF3x       Rx   d 8 00 00 00 00 00 00 00 00
   0.704000 1  18F15BF3x       Rx   d 7 00 00 00 00 00 00 00
   0.705000 1  18F15CF3x       Rx   d 8 00 00 00 00 00 00 00 00
   0.707000 1  18F15DF3x       Rx   d 8 00 00 00 00 00 00 00 00
   0.708000 1  18F15EF3x       Rx   d 8 00 00 00 00 00 00 00 00
   0.710000 1  CFF21CAx        Rx   d 8 21 00 80 0C 4F 44 00 24
   0.712000 1  18F100D0x       Rx   d 8 0C FF FF FF FF FF FF FF
   0.714000 1  CFF21CAx        Rx   d 8 21 00 80 0C 4F 44 00 24
   0.715000 1  CFF21CAx        Rx   d 8 21 00 80 0C 4F 45 00 24
   0.717000 1  18F100D0x       Rx   d 8 0C FF FF FF FF FF FF FF
   0.721000 1  CFF21CAx        Rx   d 8 21 00 80 0C 4F 45 00 24
   0.729000 1  18F100D0x       Rx   d 8 0C FF FF FF FF FF FF FF
   0.733000 1  CFF21CAx        Rx   d 8 22 00 80 0C 4F 45 00 24
   0.745000 1  CFF21CAx        Rx   d 8 22 00 80 0C 4F 44 00 24
   0.749000 1  18F100D0x       Rx   d 8 0C FF FF FF FF FF FF FF
   0.750000 1  18FF2112x       Rx   d 8 01 00 00 00 00 00 00 00
   0.757000 1  CFF21CAx        Rx   d 8 22 00 80 0C 4F 44 00 24
   0.769000 1  CFF21CAx        Rx   d 8 22 00 80 0C 4F 44 00 24
   0.770000 1  18F100D0x       Rx   d 8 0C FF FF FF FF FF FF FF
   0.772000 1  18F100F3x       Rx   d 8 02 BB 7D 93 25 FA 14 00
   0.774000 1  18F102F3x       Rx   d 8 0D AB 0D A4 07 02 00 07
   0.776000 1  18F106F3x       Rx   d 8 45 E0 FC FF FF FF FF FF
   0.777000 1  18F107F3x       Rx   d 8 38 A4 32 C8 01 3B 00 D2
   0.779000 1  18F108F3x       Rx   d 8 0C 00 00 00 00 00 00 03
   0.781000 1  18F155F3x       Rx   d 8 38 38 38 38 38 39 39 00
   0.783000 1  18F156F3x       Rx   d 8 00 00 00 00 00 00 00 00
   0.785000 1  18F157F3x       Rx   d 8 00 00 00 00 00 00 00 00
   0.786000 1  18F158F3x       Rx   d 8 00 00 00 00 00 00 00 00
   0.788000 1  18F159F3x       Rx   d 8 00 00 00 00 00 00 00 00
   0.790000 1  18F15AF3x       Rx   d 8 00 00 00 00 00 00 00 00
   0.791000 1  CFF21CAx        Rx   d 8 22 00 80 0C 4F 45 00 24
   0.793000 1  18F15BF3x       Rx   d 7 00 00 00 00 00 00 00
   0.795000 1  18F15CF3x       Rx   d 8 00 00 00 00 00 00 00 00
   0.797000 1  18F15DF3x       Rx   d 8 00 00 00 00 00 00 00 00
   0.798000 1  18F15EF3x       Rx   d 8 00 00 00 00 00 00 00 00
   0.800000 1  18F100D0x       Rx   d 8 0C FF FF FF FF FF FF FF
   0.802000 1  CFF21CAx        Rx   d 8 22 00 80 0C 4F 45 00 24
   0.806000 1  CFF21CAx        Rx   d 8 22 00 80 0C 4F 45 00 24
   0.814000 1  18F100D0x       Rx   d 8 0C FF FF FF FF FF FF FF
   0.818000 1  CFF21CAx        Rx   d 8 22 00 80 0C 4F 45 00 24
   0.830000 1  CFF21CAx        Rx   d 8 22 00 80 0C 4F 44 00 24
   0.834000 1  18F100D0x       Rx   d 8 0C FF FF FF FF FF FF FF
   0.842000 1  CFF21CAx        Rx   d 8 22 00 80 0C 4F 45 00 24
   0.847000 1  18FF2112x       Rx   d 8 01 00 00 00 00 00 00 00
   0.854000 1  CFF21CAx        Rx   d 8 22 00 80 0C 4F 45 00 24
   0.858000 1  18F100D0x       Rx   d 8 0C FF FF FF FF FF FF FF
   0.866000 1  CFF21CAx        Rx   d 8 22 00 80 0C 4F 45 00 24
   0.870000 1  18F100F3x       Rx   d 8 02 BB 7D 93 25 FA 14 00
   0.872000 1  18F102F3x       Rx   d 8 0D AB 0D A4 07 02 00 07
   0.874000 1  18F106F3x       Rx   d 8 45 E0 FC FF FF FF FF FF
   0.875000 1  18F107F3x       Rx   d 8 38 A4 32 C8 01 3B 00 D2
   0.877000 1  18F108F3x       Rx   d 8 0C 00 00 00 00 00 00 03
   0.879000 1  18F155F3x       Rx   d 8 38 38 38 38 38 39 39 00
   0.881000 1  18F156F3x       Rx   d 8 00 00 00 00 00 00 00 00
   0.883000 1  CFF21CAx        Rx   d 8 22 00 80 0C 4F 45 00 24
   0.885000 1  18F157F3x       Rx   d 8 00 00 00 00 00 00 00 00
   0.886000 1  18F158F3x       Rx   d 8 00 00 00 00 00 00 00 00
   0.888000 1  18F159F3x       Rx   d 8 00 00 00 00 00 00 00 00
   0.890000 1  18F15AF3x       Rx   d 8 00 00 00 00 00 00 00 00
   0.892000 1  18F15BF3x       Rx   d 7 00 00 00 00 00 00 00
   0.893000 1  18F15CF3x       Rx   d 8 00 00 00 00 00 00 00 00
   0.895000 1  18F15DF3x       Rx   d 8 00 00 00 00 00 00 00 00
   0.897000 1  18F15EF3x       Rx   d 8 00 00 00 00 00 00 00 00
   0.898000 1  18F100D0x       Rx   d 8 0C FF FF FF FF FF FF FF
   0.900000 1  CFF21CAx        Rx   d 8 21 00 80 0C 4F 45 00 24
   0.902000 1  CFF21CAx        Rx   d 8 21 00 80 0C 4F 45 00 24
   0.910000 1  18F100D0x       Rx   d 8 0C FF FF FF FF FF FF FF
   0.914000 1  CFF21CAx        Rx   d 8 21 00 80 0C 4F 45 00 24
   0.926000 1  CFF21CAx        Rx   d 8 21 00 80 0C 4F 44 00 24
   0.931000 1  18F100D0x       Rx   d 8 0C FF FF FF FF FF FF FF
   0.938000 1  CFF21CAx        Rx   d 8 21 00 80 0C 4F 44 00 24
   0.944000 1  18FF2112x       Rx   d 8 01 00 00 00 00 00 00 00
   0.950000 1  CFF21CAx        Rx   d 8 21 00 80 0C 4F 45 00 24
   0.955000 1  18F100D0x       Rx   d 8 0C FF FF FF FF FF FF FF
   0.963000 1  CFF21CAx        Rx   d 8 21 00 80 0C 4F 45 00 24
   0.970000 1  18F100F3x       Rx   d 8 02 BB 7D 93 25 FA 14 00
   0.971000 1  18F102F3x       Rx   d 8 0D AB 0D A3 07 0A 00 08
   0.973000 1  18F106F3x       Rx   d 8 45 E0 FC FF FF FF FF FF
   0.975000 1  18F107F3x       Rx   d 8 38 A4 32 C8 01 3B 00 D2
   0.976000 1  CFF21CAx        Rx   d 8 21 00 80 0C 4F 45 00 24
   0.978000 1  18F100D0x       Rx   d 8 0C FF FF FF FF FF FF FF
   0.980000 1  18F108F3x       Rx   d 8 0C 00 00 00 00 00 00 03
   0.982000 1  18F155F3x       Rx   d 8 38 38 38 38 38 39 39 00
   0.984000 1  18F156F3x       Rx   d 8 00 00 00 00 00 00 00 00
   0.985000 1  18F157F3x       Rx   d 8 00 00 00 00 00 00 00 00
   0.988000 1  18F158F3x       Rx   d 8 00 00 00 00 00 00 00 00
   0.989000 1  18F159F3x       Rx   d 8 00 00 00 00 00 00 00 00
   0.991000 1  18F15AF3x       Rx   d 8 00 00 00 00 00 00 00 00
   0.993000 1  18F15BF3x       Rx   d 7 00 00 00 00 00 00 00
   0.994000 1  18F15CF3x       Rx   d 8 00 00 00 00 00 00 00 00
   0.996000 1  18F15DF3x       Rx   d 8 00 00 00 00 00 00 00 00
   0.998000 1  18F15EF3x       Rx   d 8 00 00 00 00 00 00 00 00
   0.999000 1  CFF21CAx        Rx   d 8 21 00 80 0C 4F 45 00 24
   1.001000 1  CFF21CAx        Rx   d 8 21 00 80 0C 4F 45 00 24
   1.002000 1  18F100D0x       Rx   d 8 0C FF FF FF FF FF FF FF
   1.011000 1  CFF21CAx        Rx   d 8 21 00 80 0C 4F 45 00 24
   1.022000 1  CFF21CAx        Rx   d 8 21 00 80 0C 4F 45 00 24
   1.023000 1  18F100D0x       Rx   d 8 0C FF FF FF FF FF FF FF
   1.035000 1  CFF21CAx        Rx   d 8 21 00 80 0C 4F 45 00 24
   1.041000 1  18FF2112x       Rx   d 8 01 00 00 00 00 00 00 00
   1.047000 1  CFF21CAx        Rx   d 8 21 00 80 0C 4F 45 00 24
   1.051000 1  18F100D0x       Rx   d 8 0C FF FF FF FF FF FF FF
   1.059000 1  CFF21CAx        Rx   d 8 21 00 80 0C 4F 45 00 24
   1.070000 1  18F100F3x       Rx   d 8 02 BB 7D 93 25 FA 14 00
   1.072000 1  CFF21CAx        Rx   d 8 21 00 80 0C 4F 45 00 24
   1.073000 1  18F102F3x       Rx   d 8 0D AB 0D A3 07 0A 00 08
   1.075000 1  18F106F3x       Rx   d 8 45 E0 FC FF FF FF FF FF
   1.076000 1  18F107F3x       Rx   d 8 38 A4 32 C8 01 3B 00 D2
   1.078000 1  18F108F3x       Rx   d 8 0C 00 00 00 00 00 00 03
   1.080000 1  18F155F3x       Rx   d 8 38 38 38 38 38 39 39 00
   1.082000 1  18F156F3x       Rx   d 8 00 00 00 00 00 00 00 00
   1.084000 1  18F157F3x       Rx   d 8 00 00 00 00 00 00 00 00
   1.085000 1  18F158F3x       Rx   d 8 00 00 00 00 00 00 00 00
   1.087000 1  18F159F3x       Rx   d 8 00 00 00 00 00 00 00 00
   1.088000 1  18F15AF3x       Rx   d 8 00 00 00 00 00 00 00 00
   1.090000 1  18F15BF3x       Rx   d 7 00 00 00 00 00 00 00
   1.092000 1  18F15CF3x       Rx   d 8 00 00 00 00 00 00 00 00
   1.094000 1  CFF21CAx        Rx   d 8 21 00 80 0C 4F 45 00 24
   1.095000 1  18F100D0x       Rx   d 8 0C FF FF FF FF FF FF FF
   1.097000 1  18F15DF3x       Rx   d 8 00 00 00 00 00 00 00 00
   1.099000 1  18FECACAx       Rx   d 8 00 00 00 00 00 00 FF FF
   1.101000 1  18F15EF3x       Rx   d 8 00 00 00 00 00 00 00 00
   1.102000 1  CFF21CAx        Rx   d 8 21 00 80 0C 4F 45 00 24
   1.104000 1  18F100D0x       Rx   d 8 0C FF FF FF FF FF FF FF
   1.107000 1  CFF21CAx        Rx   d 8 21 00 80 0C 4F 44 00 24
   1.119000 1  CFF21CAx        Rx   d 8 21 00 80 0C 4F 44 00 24
   1.127000 1  18F100D0x       Rx   d 8 0C FF FF FF FF FF FF FF
   1.131000 1  CFF21CAx        Rx   d 8 21 00 80 0C 4F 45 00 24
   1.139000 1  18FF2112x       Rx   d 8 01 00 00 00 00 00 00 00
   1.143000 1  CFF21CAx        Rx   d 8 21 00 80 0C 4F 44 00 24
   1.147000 1  18F100D0x       Rx   d 8 0C FF FF FF FF FF FF FF
   1.155000 1  CFF21CAx        Rx   d 8 21 00 80 0C 4F 44 00 24
   1.167000 1  CFF21CAx        Rx   d 8 21 00 80 0C 4F 45 00 24
   1.168000 1  18F100D0x       Rx   d 8 0C FF FF FF FF FF FF FF
   1.170000 1  18F100F3x       Rx   d 8 02 BB 7D 93 25 FA 14 00
   1.171000 1  18F102F3x       Rx   d 8 0D AB 0D A3 07 0A 00 08
   1.173000 1  18F106F3x       Rx   d 8 45 E0 FC FF FF FF FF FF
   1.174000 1  18F107F3x       Rx   d 8 38 A4 32 C8 01 3B 00 D2
   1.176000 1  18F108F3x       Rx   d 8 0C 00 00 00 00 00 00 03
   1.178000 1  18F155F3x       Rx   d 8 38 38 38 38 38 39 39 00
   1.180000 1  18F156F3x       Rx   d 8 00 00 00 00 00 00 00 00
   1.181000 1  18F157F3x       Rx   d 8 00 00 00 00 00 00 00 00
   1.184000 1  CFF21CAx        Rx   d 8 22 00 80 0C 4F 45 00 24
   1.185000 1  18F158F3x       Rx   d 8 00 00 00 00 00 00 00 00
   1.187000 1  18F159F3x       Rx   d 8 00 00 00 00 00 00 00 00
   1.189000 1  18F15AF3x       Rx   d 8 00 00 00 00 00 00 00 00
   1.190000 1  18F15BF3x       Rx   d 7 00 00 00 00 00 00 00
   1.192000 1  18F15CF3x       Rx   d 8 00 00 00 00 00 00 00 00
   1.194000 1  18F15DF3x       Rx   d 8 00 00 00 00 00 00 00 00
   1.196000 1  18F15EF3x       Rx   d 8 00 00 00 00 00 00 00 00
