date Tue May 26 08:26:55.548 PM 2026
base hex  timestamps absolute
internal events logged
// version 8.0.0
Begin Triggerblock Tue May 26 08:26:55.548 PM 2026
   0.000000 Start of measurement
   0.000000 1  CFF21CAx        Rx   d 8 03 00 80 0C 3B 38 00 24
   0.004000 1  18F100F3x       Rx   d 8 02 ED 7D CE 98 FA 14 00
   0.005000 1  18F102F3x       Rx   d 8 0E A4 0E 9A 13 0A 00 0A
   0.007000 1  18F106F3x       Rx   d 8 45 E0 FC FF FF FF FF FF
   0.008000 1  18F100D0x       Rx   d 8 0C FF FF FF FF FF FF FF
   0.010000 1  18F107F3x       Rx   d 8 38 A4 30 70 01 51 00 B4
   0.011000 1  18F108F3x       Rx   d 8 00 00 00 00 00 00 00 00
   0.012000 1  18F155F3x       Rx   d 8 36 35 36 36 35 36 36 00
   0.042000 1  CFF21CAx        Rx   d 8 03 00 80 0C 3B 38 00 24
   0.064000 1  18F156F3x       Rx   d 8 00 00 00 00 00 00 00 00
   0.065000 1  18F157F3x       Rx   d 8 00 00 00 00 00 00 00 00
   0.067000 1  18F158F3x       Rx   d 8 00 00 00 00 00 00 00 00
   0.069000 1  18F159F3x       Rx   d 8 00 00 00 00 00 00 00 00
   0.070000 1  18F15AF3x       Rx   d 8 00 00 00 00 00 00 00 00
   0.072000 1  18F15BF3x       Rx   d 7 00 00 00 00 00 00 00
   0.073000 1  18F15CF3x       Rx   d 8 00 00 00 00 00 00 00 00
   0.075000 1  18F15DF3x       Rx   d 8 00 00 00 00 00 00 00 00
   0.082000 1  18F15EF3x       Rx   d 8 00 00 00 00 00 00 00 00
   0.084000 1  CFF21CAx        Rx   d 8 03 00 80 0C 3B 38 00 24
   0.086000 1  18F100D0x       Rx   d 8 0C FF FF FF FF FF FF FF
   0.088000 1  CFF21CAx        Rx   d 8 03 00 80 0C 3B 38 00 24
   0.090000 1  CFF21CAx        Rx   d 8 03 00 80 0C 3B 38 00 24
   0.091000 1  18F100D0x       Rx   d 8 0C FF FF FF FF FF FF FF
   0.094000 1  CFF21CAx        Rx   d 8 03 00 80 0C 3B 38 00 24
   0.096000 1  18FF2112x       Rx   d 8 01 00 00 00 00 00 00 00
   0.098000 1  CFF21CAx        Rx   d 8 03 00 80 0C 3B 38 00 24
   0.099000 1  18F100D0x       Rx   d 8 0C FF FF FF FF FF FF FF
   0.102000 1  18F104F3x       Rx   d 8 36 35 01 02 01 FF FF FF
   0.104000 1  18F113F3x       Rx   d 8 0E A2 0E 9E 0E A2 0E 9F
   0.105000 1  18F114F3x       Rx   d 8 0E 9D 0E 9C 0E A2 0E 9F
   0.107000 1  18F115F3x       Rx   d 8 0E 9C 0E 9A 0E 9F 0E 9F
   0.108000 1  CFF21CAx        Rx   d 8 03 00 80 0C 3B 38 00 24
   0.110000 1  18F116F3x       Rx   d 8 0E A3 0E 9E 0E A2 0E A3
   0.111000 1  18F117F3x       Rx   d 8 0E 9C 0E A0 0E A4 0E A2
   0.113000 1  18F118F3x       Rx   d 8 00 00 00 00 00 00 00 00
   0.114000 1  18F119F3x       Rx   d 8 00 00 00 00 00 00 00 00
   0.163000 1  18F11AF3x       Rx   d 8 00 00 00 00 00 00 00 00
   0.165000 1  18F11BF3x       Rx   d 8 00 00 00 00 00 00 00 00
   0.166000 1  18F11CF3x       Rx   d 8 00 00 00 00 00 00 00 00
   0.168000 1  18F11DF3x       Rx   d 8 00 00 00 00 00 00 00 00
   0.170000 1  18F11EF3x       Rx   d 8 00 00 00 00 00 00 00 00
   0.172000 1  18F11FF3x       Rx   d 8 00 00 00 00 00 00 00 00
   0.174000 1  18F120F3x       Rx   d 8 00 00 00 00 00 00 00 00
   0.176000 1  18F121F3x       Rx   d 8 00 00 00 00 00 00 00 00
   0.178000 1  CFF21CAx        Rx   d 8 04 00 80 0C 3B 38 00 24
   0.181000 1  18F122F3x       Rx   d 8 00 00 00 00 00 00 00 00
   0.183000 1  18F123F3x       Rx   d 8 00 00 00 00 00 00 00 00
   0.184000 1  18F124F3x       Rx   d 8 00 00 00 00 00 00 00 00
   0.187000 1  18F125F3x       Rx   d 8 00 00 00 00 00 00 00 00
   0.188000 1  18F100D0x       Rx   d 8 0C FF FF FF FF FF FF FF
   0.190000 1  18F126F3x       Rx   d 8 00 00 00 00 00 00 00 00
   0.192000 1  18F127F3x       Rx   d 8 00 00 00 00 00 00 00 00
   0.194000 1  18F128F3x       Rx   d 8 00 00 00 00 00 00 00 00
   0.196000 1  18F129F3x       Rx   d 8 00 00 00 00 00 00 00 00
   0.197000 1  18F100F3x       Rx   d 8 02 ED 7D CE 98 FA 14 00
   0.199000 1  18F102F3x       Rx   d 8 0E A4 0E 9A 13 0A 00 0A
   0.201000 1  18F106F3x       Rx   d 8 45 E0 FC FF FF FF FF FF
   0.204000 1  18F107F3x       Rx   d 8 38 A4 30 70 01 51 00 B4
   0.206000 1  CFF21CAx        Rx   d 8 04 00 80 0C 3B 38 00 24
   0.207000 1  18F108F3x       Rx   d 8 00 00 00 00 00 00 00 00
   0.209000 1  18F12AF3x       Rx   d 8 00 00 00 00 00 00 00 00
   0.210000 1  18F12BF3x       Rx   d 8 00 00 00 00 00 00 00 00
   0.212000 1  18F12CF3x       Rx   d 8 00 00 00 00 00 00 00 00
   0.213000 1  18F12DF3x       Rx   d 8 00 00 00 00 00 00 00 00
   0.215000 1  18F12EF3x       Rx   d 8 00 00 00 00 00 00 00 00
   0.216000 1  18F12FF3x       Rx   d 8 00 00 00 00 00 00 00 00
   0.268000 1  18F130F3x       Rx   d 8 00 00 00 00 00 00 00 00
   0.270000 1  18F131F3x       Rx   d 8 00 00 00 00 00 00 00 00
   0.272000 1  18F132F3x       Rx   d 8 00 00 00 00 00 00 00 00
   0.274000 1  18F133F3x       Rx   d 8 00 00 00 00 00 00 00 00
   0.276000 1  18F134F3x       Rx   d 8 00 00 00 00 00 00 00 00
   0.278000 1  CFF21CAx        Rx   d 8 06 00 80 0C 3B 38 00 24
   0.279000 1  18F135F3x       Rx   d 8 00 00 00 00 00 00 00 00
   0.281000 1  18F136F3x       Rx   d 8 00 00 00 00 00 00 00 00
   0.283000 1  18F137F3x       Rx   d 8 00 00 00 00 00 00 00 00
   0.285000 1  18F138F3x       Rx   d 8 00 00 00 00 00 00 00 00
   0.287000 1  18F100D0x       Rx   d 8 0C FF FF FF FF FF FF FF
   0.289000 1  18F139F3x       Rx   d 8 00 00 00 00 00 00 00 00
   0.291000 1  18F13AF3x       Rx   d 8 00 00 00 00 00 00 00 00
   0.293000 1  18F13BF3x       Rx   d 8 00 00 00 00 00 00 00 00
   0.294000 1  18F13CF3x       Rx   d 8 00 00 00 00 00 00 00 00
   0.296000 1  18F155F3x       Rx   d 8 36 35 36 36 35 36 36 00
   0.298000 1  18F156F3x       Rx   d 8 00 00 00 00 00 00 00 00
   0.300000 1  18F157F3x       Rx   d 8 00 00 00 00 00 00 00 00
   0.302000 1  18F158F3x       Rx   d 8 00 00 00 00 00 00 00 00
   0.303000 1  CFF21CAx        Rx   d 8 06 00 80 0C 3B 38 00 24
   0.305000 1  18F159F3x       Rx   d 8 00 00 00 00 00 00 00 00
   0.307000 1  18F15AF3x       Rx   d 8 00 00 00 00 00 00 00 00
   0.309000 1  18F15BF3x       Rx   d 7 00 00 00 00 00 00 00
   0.311000 1  18F15CF3x       Rx   d 8 00 00 00 00 00 00 00 00
   0.312000 1  18F15DF3x       Rx   d 8 00 00 00 00 00 00 00 00
   0.314000 1  18F15EF3x       Rx   d 8 00 00 00 00 00 00 00 00
   0.315000 1  CFF21CAx        Rx   d 8 06 00 80 0C 3B 38 00 24
   0.317000 1  18F100D0x       Rx   d 8 0C FF FF FF FF FF FF FF
   0.318000 1  CFF21CAx        Rx   d 8 09 00 80 0C 3B 38 00 24
   0.319000 1  18FF2112x       Rx   d 8 01 00 00 00 00 00 00 00
   0.368000 1  CFF21CAx        Rx   d 8 09 00 80 0C 3B 38 00 24
   0.370000 1  18F100D0x       Rx   d 8 0C FF FF FF FF FF FF FF
   0.372000 1  CFF21CAx        Rx   d 8 0F 00 80 0C 3B 38 00 24
   0.374000 1  CFF21CAx        Rx   d 8 0F 00 80 0C 3B 38 00 24
   0.376000 1  18F100D0x       Rx   d 8 0C FF FF FF FF FF FF FF
   0.378000 1  18F100F3x       Rx   d 8 02 ED 7D CE 98 FA 14 00
   0.380000 1  CFF21CAx        Rx   d 8 0F 00 80 0C 3B 38 00 24
   0.382000 1  18F102F3x       Rx   d 8 0E A4 0E 9A 13 0A 00 0A
   0.383000 1  18F106F3x       Rx   d 8 45 E0 FC FF FF FF FF FF
   0.386000 1  18F107F3x       Rx   d 8 38 A4 30 70 01 51 00 B4
   0.387000 1  18F108F3x       Rx   d 8 00 00 00 00 00 00 00 00
   0.389000 1  18F155F3x       Rx   d 8 36 35 36 36 35 36 36 00
   0.391000 1  18F156F3x       Rx   d 8 00 00 00 00 00 00 00 00
   0.393000 1  18F157F3x       Rx   d 8 00 00 00 00 00 00 00 00
   0.395000 1  18F158F3x       Rx   d 8 00 00 00 00 00 00 00 00
   0.397000 1  18F159F3x       Rx   d 8 00 00 00 00 00 00 00 00
   0.399000 1  18F15AF3x       Rx   d 8 00 00 00 00 00 00 00 00
   0.401000 1  18F15BF3x       Rx   d 7 00 00 00 00 00 00 00
   0.403000 1  CFF21CAx        Rx   d 8 15 00 80 0C 3B 38 00 24
   0.405000 1  18F100D0x       Rx   d 8 0C FF FF FF FF FF FF FF
   0.407000 1  18F15CF3x       Rx   d 8 00 00 00 00 00 00 00 00
   0.409000 1  18F15DF3x       Rx   d 8 00 00 00 00 00 00 00 00
   0.411000 1  18F15EF3x       Rx   d 8 00 00 00 00 00 00 00 00
   0.412000 1  CFF21CAx        Rx   d 8 15 00 80 0C 3B 38 00 24
   0.414000 1  CFF21CAx        Rx   d 8 15 00 80 0C 3B 38 00 24
   0.415000 1  18F100D0x       Rx   d 8 0C FF FF FF FF FF FF FF
   0.417000 1  CFF21CAx        Rx   d 8 1E 00 80 0C 3B 38 00 24
   0.418000 1  18FF2112x       Rx   d 8 01 00 00 00 00 00 00 00
   0.420000 1  CFF21CAx        Rx   d 8 1E 00 80 0C 3B 38 00 24
   0.421000 1  18F100D0x       Rx   d 8 0C FF FF FF FF FF FF FF
   0.473000 1  CFF21CAx        Rx   d 8 29 00 80 0C 3B 38 00 24
   0.474000 1  CFF21CAx        Rx   d 8 29 00 80 0C 3B 38 00 24
   0.476000 1  18F100D0x       Rx   d 8 0C FF FF FF FF FF FF FF
   0.478000 1  CFF21CAx        Rx   d 8 29 00 8F 0C 3B 38 00 24
   0.480000 1  18F100F3x       Rx   d 8 02 ED 7D CF 98 FA 14 00
   0.482000 1  18F102F3x       Rx   d 8 0E A4 0E 9A 13 0A 00 0A
   0.484000 1  18F106F3x       Rx   d 8 45 E0 FC FF FF FF FF FF
   0.486000 1  18F107F3x       Rx   d 8 38 A4 30 70 01 51 00 B4
   0.488000 1  18F108F3x       Rx   d 8 00 00 00 00 00 00 00 00
   0.490000 1  18F155F3x       Rx   d 8 35 35 36 36 35 36 36 00
   0.491000 1  18F156F3x       Rx   d 8 00 00 00 00 00 00 00 00
   0.493000 1  18F157F3x       Rx   d 8 00 00 00 00 00 00 00 00
   0.495000 1  CFF21CAx        Rx   d 8 35 00 A3 0C 3B 38 00 24
   0.496000 1  18F100D0x       Rx   d 8 0C FF FF FF FF FF FF FF
   0.499000 1  18F158F3x       Rx   d 8 00 00 00 00 00 00 00 00
   0.500000 1  18F159F3x       Rx   d 8 00 00 00 00 00 00 00 00
   0.502000 1  18F15AF3x       Rx   d 8 00 00 00 00 00 00 00 00
   0.505000 1  18F15BF3x       Rx   d 7 00 00 00 00 00 00 00
   0.507000 1  18F15CF3x       Rx   d 8 00 00 00 00 00 00 00 00
   0.508000 1  18F15DF3x       Rx   d 8 00 00 00 00 00 00 00 00
   0.511000 1  18F15EF3x       Rx   d 8 00 00 00 00 00 00 00 00
   0.513000 1  CFF21CAx        Rx   d 8 35 00 BB 0C 3B 38 00 24
   0.514000 1  CFF21CAx        Rx   d 8 35 00 CC 0C 3B 38 00 24
   0.516000 1  18F100D0x       Rx   d 8 0C FF FF FF FF FF FF FF
   0.517000 1  CFF21CAx        Rx   d 8 3E 00 DE 0C 3B 38 00 24
   0.519000 1  18FF2112x       Rx   d 8 01 00 00 00 00 00 00 00
   0.520000 1  CFF21CAx        Rx   d 8 3E 00 F2 0C 3B 38 00 24
   0.521000 1  18F100D0x       Rx   d 8 0C FF FF FF FF FF FF FF
   0.523000 1  CFF21CAx        Rx   d 8 43 00 0B 0D 3B 38 00 24
   0.576000 1  CFF21CAx        Rx   d 8 43 00 19 0D 3B 38 00 24
   0.577000 1  18F100D0x       Rx   d 8 0C FF FF FF FF FF FF FF
   0.579000 1  CFF21CAx        Rx   d 8 43 00 39 0D 3B 38 00 24
   0.581000 1  18F100F3x       Rx   d 8 02 ED 7D CF 98 FA 14 00
   0.583000 1  18F102F3x       Rx   d 8 0E A4 0E 9A 13 0A 00 0A
   0.585000 1  18F106F3x       Rx   d 8 45 E0 FC FF FF FF FF FF
   0.586000 1  18F107F3x       Rx   d 8 38 A4 30 70 01 51 00 B4
   0.588000 1  18F108F3x       Rx   d 8 00 00 00 00 00 00 00 00
   0.590000 1  CFF21CAx        Rx   d 8 47 00 52 0D 3B 38 00 24
   0.592000 1  18F155F3x       Rx   d 8 35 35 36 36 35 36 36 00
   0.594000 1  18F156F3x       Rx   d 8 00 00 00 00 00 00 00 00
   0.596000 1  18F157F3x       Rx   d 8 00 00 00 00 00 00 00 00
   0.598000 1  18F158F3x       Rx   d 8 00 00 00 00 00 00 00 00
   0.599000 1  18F100D0x       Rx   d 8 0C FF FF FF FF FF FF FF
   0.601000 1  18F159F3x       Rx   d 8 00 00 00 00 00 00 00 00
   0.603000 1  18F15AF3x       Rx   d 8 00 00 00 00 00 00 00 00
   0.605000 1  18F15BF3x       Rx   d 7 00 00 00 00 00 00 00
   0.608000 1  18F15CF3x       Rx   d 8 00 00 00 00 00 00 00 00
   0.610000 1  18F15DF3x       Rx   d 8 00 00 00 00 00 00 00 00
   0.611000 1  18F15EF3x       Rx   d 8 00 00 00 00 00 00 00 00
   0.613000 1  CFF21CAx        Rx   d 8 47 00 52 0D 3B 38 00 24
   0.615000 1  CFF21CAx        Rx   d 8 47 00 77 0D 3B 38 00 24
   0.617000 1  18F100D0x       Rx   d 8 0C FF FF FF FF FF FF FF
   0.619000 1  CFF21CAx        Rx   d 8 47 00 77 0D 3B 38 00 24
   0.620000 1  18FF2112x       Rx   d 8 01 00 00 00 00 00 00 00
   0.622000 1  CFF21CAx        Rx   d 8 48 00 98 0D 3B 38 00 24
   0.623000 1  18F100D0x       Rx   d 8 0C FF FF FF FF FF FF FF
   0.624000 1  CFF21CAx        Rx   d 8 48 00 AB 0D 3B 38 00 24
   0.626000 1  CFF21CAx        Rx   d 8 47 00 BE 0D 3B 38 00 24
   0.677000 1  18F100D0x       Rx   d 8 0C FF FF FF FF FF FF FF
   0.679000 1  18FECACAx       Rx   d 8 00 00 00 00 00 00 FF FF
   0.681000 1  CFF21CAx        Rx   d 8 47 00 D8 0D 3B 38 00 24
   0.683000 1  18F100F3x       Rx   d 8 02 ED 7D F5 98 FA 14 00
   0.685000 1  18F102F3x       Rx   d 8 0E A4 0E 9A 13 0A 00 0A
   0.687000 1  CFF21CAx        Rx   d 8 47 00 F0 0D 3B 38 00 24
   0.689000 1  18F106F3x       Rx   d 8 45 E0 FC FF FF FF FF FF
   0.691000 1  18F107F3x       Rx   d 8 38 A4 30 70 01 51 00 B4
   0.693000 1  18F108F3x       Rx   d 8 00 00 00 00 00 00 00 00
   0.695000 1  18F155F3x       Rx   d 8 35 35 36 36 35 36 36 00
   0.697000 1  18F156F3x       Rx   d 8 00 00 00 00 00 00 00 00
   0.699000 1  18F157F3x       Rx   d 8 00 00 00 00 00 00 00 00
   0.701000 1  18F158F3x       Rx   d 8 00 00 00 00 00 00 00 00
   0.702000 1  18F100D0x       Rx   d 8 0C FF FF FF FF FF FF FF
   0.705000 1  18F159F3x       Rx   d 8 00 00 00 00 00 00 00 00
   0.706000 1  18F15AF3x       Rx   d 8 00 00 00 00 00 00 00 00
   0.708000 1  18F15BF3x       Rx   d 7 00 00 00 00 00 00 00
   0.711000 1  18F15CF3x       Rx   d 8 00 00 00 00 00 00 00 00
   0.712000 1  18F15DF3x       Rx   d 8 00 00 00 00 00 00 00 00
   0.714000 1  CFF21CAx        Rx   d 8 45 00 08 0E 3B 38 00 24
   0.716000 1  18F15EF3x       Rx   d 8 00 00 00 00 00 00 00 00
   0.718000 1  CFF21CAx        Rx   d 8 45 00 19 0E 3B 38 00 24
   0.720000 1  18F100D0x       Rx   d 8 0C FF FF FF FF FF FF FF
   0.721000 1  CFF21CAx        Rx   d 8 42 00 29 0E 3B 38 00 24
   0.723000 1  18FF2112x       Rx   d 8 01 00 00 00 00 00 00 00
   0.724000 1  CFF21CAx        Rx   d 8 42 00 3F 0E 3B 38 00 24
   0.725000 1  18F100D0x       Rx   d 8 0C FF FF FF FF FF FF FF
   0.727000 1  CFF21CAx        Rx   d 8 42 00 50 0E 3B 38 00 24
   0.728000 1  CFF21CAx        Rx   d 8 3F 00 61 0E 3B 38 00 24
   0.801000 1  CFF21CAx        Rx   d 8 3F 00 6B 0E 3B 38 00 24
   0.803000 1  18F100D0x       Rx   d 8 0C FF FF FF FF FF FF FF
   0.804000 1  CFF21CAx        Rx   d 8 3C 00 80 0E 3B 38 00 24
   0.806000 1  18F100F3x       Rx   d 8 02 ED 7D F5 98 FA 14 00
   0.809000 1  18F102F3x       Rx   d 8 0E A4 0E 9A 13 0A 00 0A
   0.811000 1  18F106F3x       Rx   d 8 45 E0 FC FF FF FF FF FF
   0.813000 1  18F107F3x       Rx   d 8 38 A4 30 70 01 51 00 B4
   0.815000 1  18F108F3x       Rx   d 8 00 00 00 00 00 00 00 00
   0.816000 1  18F155F3x       Rx   d 8 35 35 36 36 35 36 36 00
   0.818000 1  18F156F3x       Rx   d 8 00 00 00 00 00 00 00 00
   0.820000 1  18F157F3x       Rx   d 8 00 00 00 00 00 00 00 00
   0.822000 1  18F158F3x       Rx   d 8 00 00 00 00 00 00 00 00
   0.823000 1  18F159F3x       Rx   d 8 00 00 00 00 00 00 00 00
   0.825000 1  CFF21CAx        Rx   d 8 3C 00 8B 0E 3B 38 00 24
   0.826000 1  18F100D0x       Rx   d 8 0C FF FF FF FF FF FF FF
   0.828000 1  18F15AF3x       Rx   d 8 00 00 00 00 00 00 00 00
   0.829000 1  18F15BF3x       Rx   d 7 00 00 00 00 00 00 00
   0.830000 1  18F15CF3x       Rx   d 8 00 00 00 00 00 00 00 00
   0.883000 1  18F15DF3x       Rx   d 8 00 00 00 00 00 00 00 00
   0.885000 1  18F15EF3x       Rx   d 8 00 00 00 00 00 00 00 00
   0.886000 1  CFF21CAx        Rx   d 8 3C 00 9D 0E 3B 38 00 24
   0.888000 1  CFF21CAx        Rx   d 8 3A 00 AC 0E 3B 38 00 24
   0.889000 1  18F100D0x       Rx   d 8 0C FF FF FF FF FF FF FF
   0.892000 1  18FF2112x       Rx   d 8 01 00 00 00 00 00 00 00
   0.893000 1  CFF21CAx        Rx   d 8 3A 00 BE 0E 3B 38 00 24
   0.895000 1  CFF21CAx        Rx   d 8 38 00 D3 0E 3B 38 00 24
   0.897000 1  18F100D0x       Rx   d 8 0C FF FF FF FF FF FF FF
   0.899000 1  CFF21CAx        Rx   d 8 38 00 DD 0E 3B 38 00 24
   0.901000 1  CFF21CAx        Rx   d 8 38 00 EB 0E 3B 38 00 24
   0.904000 1  18F100D0x       Rx   d 8 0C FF FF FF FF FF FF FF
   0.905000 1  CFF21CAx        Rx   d 8 36 00 FB 0E 3B 38 00 24
   0.907000 1  18F100F3x       Rx   d 8 02 ED 7D F5 98 FA 14 00
   0.910000 1  18F102F3x       Rx   d 8 0E A4 0E 9A 13 0A 00 0A
   0.911000 1  18F106F3x       Rx   d 8 45 E0 FC FF FF FF FF FF
   0.913000 1  18F107F3x       Rx   d 8 38 A4 30 70 01 51 00 B4
   0.915000 1  18F108F3x       Rx   d 8 00 00 00 00 00 00 00 00
   0.917000 1  18F155F3x       Rx   d 8 36 35 36 36 35 36 36 00
   0.919000 1  CFF21CAx        Rx   d 8 36 00 07 0F 3B 38 00 24
   0.920000 1  18F156F3x       Rx   d 8 00 00 00 00 00 00 00 00
   0.922000 1  18F157F3x       Rx   d 8 00 00 00 00 00 00 00 00
   0.924000 1  18F158F3x       Rx   d 8 00 00 00 00 00 00 00 00
   0.926000 1  18F159F3x       Rx   d 8 00 00 00 00 00 00 00 00
   0.927000 1  18F100D0x       Rx   d 8 0C FF FF FF FF FF FF FF
   0.929000 1  18F15AF3x       Rx   d 8 00 00 00 00 00 00 00 00
   0.930000 1  18F15BF3x       Rx   d 7 00 00 00 00 00 00 00
   0.931000 1  18F15CF3x       Rx   d 8 00 00 00 00 00 00 00 00
   0.933000 1  18F15DF3x       Rx   d 8 00 00 00 00 00 00 00 00
   0.984000 1  18F15EF3x       Rx   d 8 00 00 00 00 00 00 00 00
   0.985000 1  CFF21CAx        Rx   d 8 36 00 17 0F 3B 38 00 24
   0.987000 1  CFF21CAx        Rx   d 8 36 00 17 0F 3B 38 00 24
   0.989000 1  18F100D0x       Rx   d 8 0C FF FF FF FF FF FF FF
   0.991000 1  CFF21CAx        Rx   d 8 35 00 2C 0F 3B 38 00 24
   0.993000 1  18FF2112x       Rx   d 8 01 00 00 00 00 00 00 00
   0.995000 1  CFF21CAx        Rx   d 8 35 00 3A 0F 3B 38 00 24
   0.997000 1  18F100D0x       Rx   d 8 0C FF FF FF FF FF FF FF
   0.999000 1  CFF21CAx        Rx   d 8 34 00 44 0F 3B 38 00 24
   1.001000 1  CFF21CAx        Rx   d 8 34 00 59 0F 3B 38 00 24
   1.003000 1  CFF21CAx        Rx   d 8 35 00 60 0F 3B 38 00 24
   1.005000 1  18F100D0x       Rx   d 8 0C FF FF FF FF FF FF FF
   1.007000 1  18F100F3x       Rx   d 8 02 ED 7E 12 98 FA 14 00
   1.009000 1  18F102F3x       Rx   d 8 0E A4 0E 9A 13 0A 00 0A
   1.010000 1  18F106F3x       Rx   d 8 45 E0 FC FF FF FF FF FF
   1.013000 1  CFF21CAx        Rx   d 8 35 00 73 0F 3B 38 00 24
   1.014000 1  18F107F3x       Rx   d 8 38 A4 30 70 01 51 00 B4
   1.017000 1  18F108F3x       Rx   d 8 00 00 00 00 00 00 00 00
   1.019000 1  18F155F3x       Rx   d 8 36 35 36 36 35 36 36 00
   1.020000 1  18F156F3x       Rx   d 8 00 00 00 00 00 00 00 00
   1.022000 1  18F157F3x       Rx   d 8 00 00 00 00 00 00 00 00
   1.024000 1  18F158F3x       Rx   d 8 00 00 00 00 00 00 00 00
   1.026000 1  18F159F3x       Rx   d 8 00 00 00 00 00 00 00 00
   1.028000 1  18F15AF3x       Rx   d 8 00 00 00 00 00 00 00 00
   1.029000 1  18F15BF3x       Rx   d 7 00 00 00 00 00 00 00
   1.030000 1  18F15CF3x       Rx   d 8 00 00 00 00 00 00 00 00
   1.032000 1  18F15DF3x       Rx   d 8 00 00 00 00 00 00 00 00
   1.033000 1  18F15EF3x       Rx   d 8 00 00 00 00 00 00 00 00
   1.034000 1  CFF21CAx        Rx   d 8 35 00 85 0F 3B 38 00 24
   1.086000 1  18F100D0x       Rx   d 8 0C FF FF FF FF FF FF FF
   1.088000 1  CFF21CAx        Rx   d 8 36 00 97 0F 3B 38 00 24
   1.089000 1  CFF21CAx        Rx   d 8 36 00 A4 0F 3B 38 00 24
   1.091000 1  18FF2112x       Rx   d 8 01 00 00 00 00 00 00 00
   1.093000 1  18F100D0x       Rx   d 8 0C FF FF FF FF FF FF FF
   1.095000 1  CFF21CAx        Rx   d 8 36 00 A4 0F 3B 38 00 24
   1.097000 1  CFF21CAx        Rx   d 8 36 00 B4 0F 3B 38 00 24
   1.099000 1  18F100D0x       Rx   d 8 0C FF FF FF FF FF FF FF
   1.101000 1  CFF21CAx        Rx   d 8 36 00 C5 0F 3B 38 00 24
   1.103000 1  CFF21CAx        Rx   d 8 36 00 D2 0F 3B 38 00 24
   1.105000 1  18F100D0x       Rx   d 8 0C FF FF FF FF FF FF FF
   1.106000 1  CFF21CAx        Rx   d 8 36 00 EA 0F 3B 38 00 24
   1.109000 1  18F100F3x       Rx   d 8 02 ED 7E 12 98 FA 14 00
   1.111000 1  18F102F3x       Rx   d 8 0E A4 0E 9A 13 0A 00 0A
   1.113000 1  18F106F3x       Rx   d 8 45 E0 FC FF FF FF FF FF
   1.115000 1  18F107F3x       Rx   d 8 38 A4 30 70 01 51 00 B4
   1.117000 1  18F108F3x       Rx   d 8 00 00 00 00 00 00 00 00
   1.119000 1  18F155F3x       Rx   d 8 36 35 36 36 35 36 36 00
   1.121000 1  18F156F3x       Rx   d 8 00 00 00 00 00 00 00 00
   1.123000 1  18F157F3x       Rx   d 8 00 00 00 00 00 00 00 00
   1.125000 1  18F158F3x       Rx   d 8 00 00 00 00 00 00 00 00
   1.127000 1  18F159F3x       Rx   d 8 00 00 00 00 00 00 00 00
   1.129000 1  18F15AF3x       Rx   d 8 00 00 00 00 00 00 00 00
   1.130000 1  CFF21CAx        Rx   d 8 36 00 F3 0F 3B 38 00 24
   1.132000 1  18F15BF3x       Rx   d 7 00 00 00 00 00 00 00
   1.133000 1  18F15CF3x       Rx   d 8 00 00 00 00 00 00 00 00
   1.135000 1  18F15DF3x       Rx   d 8 00 00 00 00 00 00 00 00
   1.136000 1  18F15EF3x       Rx   d 8 00 00 00 00 00 00 00 00
   1.138000 1  CFF21CAx        Rx   d 8 36 00 FF 0F 3B 38 00 24
   1.190000 1  18F100D0x       Rx   d 8 0C FF FF FF FF FF FF FF
   1.192000 1  CFF21CAx        Rx   d 8 36 00 18 10 3B 38 00 24
   1.194000 1  18FF2112x       Rx   d 8 01 00 00 00 00 00 00 00
   1.196000 1  CFF21CAx        Rx   d 8 36 00 23 10 3B 38 00 24
   1.197000 1  18F100D0x       Rx   d 8 0C FF FF FF FF FF FF FF
   1.199000 1  CFF21CAx        Rx   d 8 36 00 38 10 3B 38 00 24
   1.201000 1  CFF21CAx        Rx   d 8 36 00 38 10 3B 38 00 24
   1.203000 1  18F100D0x       Rx   d 8 0C FF FF FF FF FF FF FF
   1.204000 1  CFF21CAx        Rx   d 8 36 00 45 10 3B 38 00 24
   1.206000 1  CFF21CAx        Rx   d 8 36 00 59 10 3B 38 00 24
   1.208000 1  18F100F3x       Rx   d 8 02 ED 7E 37 98 FA 14 00
   1.210000 1  18F102F3x       Rx   d 8 0E A4 0E 9A 13 0A 00 0A
   1.212000 1  18F106F3x       Rx   d 8 45 E0 FC FF FF FF FF FF
   1.214000 1  18F107F3x       Rx   d 8 38 A4 30 70 01 51 00 B4
   1.216000 1  18F108F3x       Rx   d 8 00 00 00 00 00 00 00 00
   1.218000 1  18F155F3x       Rx   d 8 36 35 36 36 35 36 36 00
   1.220000 1  18F156F3x       Rx   d 8 00 00 00 00 00 00 00 00
   1.222000 1  CFF21CAx        Rx   d 8 36 00 68 10 3B 38 00 24
   1.224000 1  18F100D0x       Rx   d 8 0C FF FF FF FF FF FF FF
   1.226000 1  18F157F3x       Rx   d 8 00 00 00 00 00 00 00 00
   1.227000 1  18F158F3x       Rx   d 8 00 00 00 00 00 00 00 00
   1.230000 1  18F159F3x       Rx   d 8 00 00 00 00 00 00 00 00
   1.231000 1  18F15AF3x       Rx   d 8 00 00 00 00 00 00 00 00
   1.233000 1  18F15BF3x       Rx   d 7 00 00 00 00 00 00 00
   1.234000 1  18F15CF3x       Rx   d 8 00 00 00 00 00 00 00 00
   1.236000 1  18F15DF3x       Rx   d 8 00 00 00 00 00 00 00 00
   1.237000 1  18F15EF3x       Rx   d 8 00 00 00 00 00 00 00 00
   1.238000 1  CFF21CAx        Rx   d 8 36 00 77 10 3B 38 00 24
   1.240000 1  CFF21CAx        Rx   d 8 36 00 87 10 3B 38 00 24
   1.292000 1  18FF2112x       Rx   d 8 01 00 00 00 00 00 00 00
   1.293000 1  18F100D0x       Rx   d 8 0C FF FF FF FF FF FF FF
   1.295000 1  CFF21CAx        Rx   d 8 36 00 87 10 3B 38 00 24
   1.297000 1  CFF21CAx        Rx   d 8 37 00 97 10 3B 38 00 24
   1.299000 1  18F100D0x       Rx   d 8 0C FF FF FF FF FF FF FF
   1.301000 1  CFF21CAx        Rx   d 8 37 00 A7 10 3B 38 00 24
   1.303000 1  18F104F3x       Rx   d 8 36 35 01 02 01 FF FF FF
   1.305000 1  18F113F3x       Rx   d 8 0E A1 0E 9D 0E A1 0E 9F
   1.307000 1  18F114F3x       Rx   d 8 0E 9D 0E 9C 0E A2 0E 9F
   1.309000 1  18F115F3x       Rx   d 8 0E 9C 0E 9A 0E 9F 0E 9F
   1.311000 1  18F116F3x       Rx   d 8 0E A3 0E 9D 0E A2 0E A2
   1.313000 1  CFF21CAx        Rx   d 8 37 00 AF 10 3B 38 00 24
   1.315000 1  18F117F3x       Rx   d 8 0E 9C 0E 9F 0E A4 0E A2
   1.317000 1  18F118F3x       Rx   d 8 00 00 00 00 00 00 00 00
   1.319000 1  18F119F3x       Rx   d 8 00 00 00 00 00 00 00 00
   1.321000 1  18F11AF3x       Rx   d 8 00 00 00 00 00 00 00 00
   1.323000 1  18F11BF3x       Rx   d 8 00 00 00 00 00 00 00 00
   1.324000 1  18F11CF3x       Rx   d 8 00 00 00 00 00 00 00 00
   1.326000 1  18F11DF3x       Rx   d 8 00 00 00 00 00 00 00 00
   1.328000 1  18F11EF3x       Rx   d 8 00 00 00 00 00 00 00 00
   1.330000 1  18F100D0x       Rx   d 8 0C FF FF FF FF FF FF FF
   1.333000 1  18F11FF3x       Rx   d 8 00 00 00 00 00 00 00 00
   1.334000 1  18F120F3x       Rx   d 8 00 00 00 00 00 00 00 00
   1.335000 1  18F121F3x       Rx   d 8 00 00 00 00 00 00 00 00
   1.337000 1  18F122F3x       Rx   d 8 00 00 00 00 00 00 00 00
   1.338000 1  CFF21CAx        Rx   d 8 37 00 C4 10 3B 38 00 24
   1.340000 1  18F123F3x       Rx   d 8 00 00 00 00 00 00 00 00
   1.341000 1  18F124F3x       Rx   d 8 00 00 00 00 00 00 00 00
   1.342000 1  18F125F3x       Rx   d 8 00 00 00 00 00 00 00 00
   1.392000 1  18F126F3x       Rx   d 8 00 00 00 00 00 00 00 00
   1.395000 1  18F127F3x       Rx   d 8 00 00 00 00 00 00 00 00
   1.396000 1  18F128F3x       Rx   d 8 00 00 00 00 00 00 00 00
   1.398000 1  18F129F3x       Rx   d 8 00 00 00 00 00 00 00 00
   1.400000 1  18F12AF3x       Rx   d 8 00 00 00 00 00 00 00 00
   1.402000 1  18F100F3x       Rx   d 8 02 ED 7E 37 98 FA 14 00
   1.404000 1  18F102F3x       Rx   d 8 0E A4 0E 9A 13 0A 00 0A
   1.406000 1  18F106F3x       Rx   d 8 45 E0 FC FF FF FF FF FF
   1.408000 1  18F107F3x       Rx   d 8 38 A4 30 70 01 51 00 B4
   1.410000 1  CFF21CAx        Rx   d 8 37 00 D3 10 3B 38 00 24
   1.412000 1  18F108F3x       Rx   d 8 00 00 00 00 00 00 00 00
   1.414000 1  18F12BF3x       Rx   d 8 00 00 00 00 00 00 00 00
   1.416000 1  18F12CF3x       Rx   d 8 00 00 00 00 00 00 00 00
   1.418000 1  18F12DF3x       Rx   d 8 00 00 00 00 00 00 00 00
   1.419000 1  18F12EF3x       Rx   d 8 00 00 00 00 00 00 00 00
   1.421000 1  18F12FF3x       Rx   d 8 00 00 00 00 00 00 00 00
   1.422000 1  18F130F3x       Rx   d 8 00 00 00 00 00 00 00 00
   1.423000 1  18F131F3x       Rx   d 8 00 00 00 00 00 00 00 00
   1.425000 1  18F132F3x       Rx   d 8 00 00 00 00 00 00 00 00
   1.426000 1  18F133F3x       Rx   d 8 00 00 00 00 00 00 00 00
   1.441000 1  18F134F3x       Rx   d 8 00 00 00 00 00 00 00 00
   1.443000 1  CFF21CAx        Rx   d 8 37 00 E0 10 3B 38 00 24
   1.495000 1  18F100D0x       Rx   d 8 0C FF FF FF FF FF FF FF
   1.497000 1  18F135F3x       Rx   d 8 00 00 00 00 00 00 00 00
   1.499000 1  18F136F3x       Rx   d 8 00 00 00 00 00 00 00 00
   1.501000 1  18F137F3x       Rx   d 8 00 00 00 00 00 00 00 00
   1.502000 1  18F138F3x       Rx   d 8 00 00 00 00 00 00 00 00
   1.505000 1  18F139F3x       Rx   d 8 00 00 00 00 00 00 00 00
   1.507000 1  18F13AF3x       Rx   d 8 00 00 00 00 00 00 00 00
   1.509000 1  18F13BF3x       Rx   d 8 00 00 00 00 00 00 00 00
   1.511000 1  18F13CF3x       Rx   d 8 00 00 00 00 00 00 00 00
   1.512000 1  18F155F3x       Rx   d 8 36 35 36 36 35 36 36 00
   1.514000 1  18F156F3x       Rx   d 8 00 00 00 00 00 00 00 00
   1.516000 1  18F157F3x       Rx   d 8 00 00 00 00 00 00 00 00
   1.518000 1  18F158F3x       Rx   d 8 00 00 00 00 00 00 00 00
   1.521000 1  18F159F3x       Rx   d 8 00 00 00 00 00 00 00 00
   1.522000 1  CFF21CAx        Rx   d 8 37 00 EC 10 3B 38 00 24
   1.524000 1  18F15AF3x       Rx   d 8 00 00 00 00 00 00 00 00
   1.526000 1  18F15BF3x       Rx   d 7 00 00 00 00 00 00 00
   1.528000 1  18F15CF3x       Rx   d 8 00 00 00 00 00 00 00 00
   1.530000 1  18F15DF3x       Rx   d 8 00 00 00 00 00 00 00 00
   1.532000 1  18FF2112x       Rx   d 8 01 00 00 00 00 00 00 00
   1.534000 1  18F15EF3x       Rx   d 8 00 00 00 00 00 00 00 00
   1.536000 1  CFF21CAx        Rx   d 8 37 00 EC 10 3B 38 00 24
   1.538000 1  18F100D0x       Rx   d 8 0C FF FF FF FF FF FF FF
   1.539000 1  CFF21CAx        Rx   d 8 36 00 00 11 3B 38 00 24
   1.541000 1  CFF21CAx        Rx   d 8 36 00 0D 11 3B 38 00 24
   1.542000 1  18F100D0x       Rx   d 8 0C FF FF FF FF FF FF FF
   1.544000 1  CFF21CAx        Rx   d 8 36 00 15 11 3B 38 00 24
   1.545000 1  CFF21CAx        Rx   d 8 36 00 2E 11 3B 38 00 24
   1.546000 1  18F100F3x       Rx   d 8 02 ED 7E 37 98 FA 14 00
   1.548000 1  CFF21CAx        Rx   d 8 36 00 35 11 3B 38 00 24
   1.597000 1  18F100D0x       Rx   d 8 0C FF FF FF FF FF FF FF
   1.598000 1  18F102F3x       Rx   d 8 0E A4 0E 9A 13 0A 00 0A
   1.600000 1  18F106F3x       Rx   d 8 45 E0 FC FF FF FF FF FF
   1.602000 1  18F107F3x       Rx   d 8 38 A4 30 70 01 51 00 B4
   1.604000 1  18F108F3x       Rx   d 8 00 00 00 00 00 00 00 00
   1.605000 1  18F155F3x       Rx   d 8 36 35 36 36 35 36 36 00
   1.607000 1  18F156F3x       Rx   d 8 00 00 00 00 00 00 00 00
   1.610000 1  18F157F3x       Rx   d 8 00 00 00 00 00 00 00 00
   1.612000 1  18F158F3x       Rx   d 8 00 00 00 00 00 00 00 00
   1.614000 1  18F159F3x       Rx   d 8 00 00 00 00 00 00 00 00
   1.616000 1  18F15AF3x       Rx   d 8 00 00 00 00 00 00 00 00
   1.618000 1  CFF21CAx        Rx   d 8 36 00 3C 11 3B 38 00 24
   1.620000 1  18F15BF3x       Rx   d 7 00 00 00 00 00 00 00
   1.621000 1  18F15CF3x       Rx   d 8 00 00 00 00 00 00 00 00
   1.623000 1  18F15DF3x       Rx   d 8 00 00 00 00 00 00 00 00
   1.625000 1  18F15EF3x       Rx   d 8 00 00 00 00 00 00 00 00
   1.627000 1  CFF21CAx        Rx   d 8 36 00 4E 11 3B 38 00 24
   1.629000 1  18F100D0x       Rx   d 8 0C FF FF FF FF FF FF FF
   1.631000 1  18FF2112x       Rx   d 8 01 00 00 00 00 00 00 00
   1.633000 1  CFF21CAx        Rx   d 8 36 00 4E 11 3B 38 00 24
   1.635000 1  CFF21CAx        Rx   d 8 36 00 61 11 3B 38 00 24
   1.636000 1  18F100D0x       Rx   d 8 0C FF FF FF FF FF FF FF
   1.638000 1  CFF21CAx        Rx   d 8 36 00 6C 11 3B 38 00 24
   1.640000 1  CFF21CAx        Rx   d 8 36 00 76 11 3B 38 00 24
   1.642000 1  CFF21CAx        Rx   d 8 35 00 84 11 3B 38 00 24
   1.643000 1  18F100D0x       Rx   d 8 0C FF FF FF FF FF FF FF
   1.645000 1  CFF21CAx        Rx   d 8 35 00 8F 11 3B 38 00 24
   1.646000 1  18F100F3x       Rx   d 8 02 ED 7E 54 98 FA 14 00
   1.648000 1  18F102F3x       Rx   d 8 0E A3 0E 99 0D 0A 00 0A
   1.649000 1  18F106F3x       Rx   d 8 45 E0 FC FF FF FF FF FF
   1.650000 1  18F107F3x       Rx   d 8 38 A4 30 70 01 51 00 B4
   1.699000 1  18F108F3x       Rx   d 8 00 00 00 00 00 00 00 00
   1.702000 1  18F155F3x       Rx   d 8 36 35 36 36 35 36 36 00
   1.703000 1  18F156F3x       Rx   d 8 00 00 00 00 00 00 00 00
   1.705000 1  18F157F3x       Rx   d 8 00 00 00 00 00 00 00 00
   1.707000 1  18F158F3x       Rx   d 8 00 00 00 00 00 00 00 00
   1.709000 1  CFF21CAx        Rx   d 8 35 00 9E 11 3B 38 00 24
   1.711000 1  18F159F3x       Rx   d 8 00 00 00 00 00 00 00 00
   1.713000 1  18F15AF3x       Rx   d 8 00 00 00 00 00 00 00 00
   1.715000 1  18F15BF3x       Rx   d 7 00 00 00 00 00 00 00
   1.717000 1  18F15CF3x       Rx   d 8 00 00 00 00 00 00 00 00
   1.720000 1  18F100D0x       Rx   d 8 0C FF FF FF FF FF FF FF
   1.721000 1  18F15DF3x       Rx   d 8 00 00 00 00 00 00 00 00
   1.723000 1  18F15EF3x       Rx   d 8 00 00 00 00 00 00 00 00
   1.725000 1  CFF21CAx        Rx   d 8 35 00 AD 11 3B 38 00 24
   1.727000 1  18FF2112x       Rx   d 8 01 00 00 00 00 00 00 00
   1.729000 1  CFF21CAx        Rx   d 8 35 00 AD 11 3B 38 00 24
   1.731000 1  18F100D0x       Rx   d 8 0C FF FF FF FF FF FF FF
   1.733000 1  CFF21CAx        Rx   d 8 34 00 B6 11 3B 38 00 24
   1.735000 1  CFF21CAx        Rx   d 8 34 00 BF 11 3B 38 00 24
   1.737000 1  CFF21CAx        Rx   d 8 34 00 CA 11 3B 38 00 24
   1.739000 1  18F100D0x       Rx   d 8 0C FF FF FF FF FF FF FF
   1.741000 1  CFF21CAx        Rx   d 8 33 00 D9 11 3B 38 00 24
   1.743000 1  CFF21CAx        Rx   d 8 33 00 E5 11 3B 38 00 24
   1.744000 1  18F100D0x       Rx   d 8 0C FF FF FF FF FF FF FF
   1.746000 1  18F100F3x       Rx   d 8 02 ED 7E 54 98 FA 14 00
   1.747000 1  18F102F3x       Rx   d 8 0E A3 0E 99 0D 0A 00 0A
   1.749000 1  18F106F3x       Rx   d 8 45 E0 FC FF FF FF FF FF
   1.750000 1  18F107F3x       Rx   d 8 38 A4 30 70 01 51 00 B4
   1.751000 1  18F108F3x       Rx   d 8 00 00 00 00 00 00 00 00
   1.753000 1  CFF21CAx        Rx   d 8 33 00 F8 11 3B 38 00 24
   1.801000 1  18F155F3x       Rx   d 8 36 35 36 36 35 36 36 00
   1.803000 1  18F156F3x       Rx   d 8 00 00 00 00 00 00 00 00
   1.805000 1  18F157F3x       Rx   d 8 00 00 00 00 00 00 00 00
   1.807000 1  18F158F3x       Rx   d 8 00 00 00 00 00 00 00 00
   1.809000 1  18F159F3x       Rx   d 8 00 00 00 00 00 00 00 00
   1.811000 1  18F15AF3x       Rx   d 8 00 00 00 00 00 00 00 00
   1.814000 1  18F15BF3x       Rx   d 7 00 00 00 00 00 00 00
   1.816000 1  18F15CF3x       Rx   d 8 00 00 00 00 00 00 00 00
   1.817000 1  18F15DF3x       Rx   d 8 00 00 00 00 00 00 00 00
   1.819000 1  18F15EF3x       Rx   d 8 00 00 00 00 00 00 00 00
   1.821000 1  CFF21CAx        Rx   d 8 33 00 FE 11 3B 38 00 24
   1.823000 1  18F100D0x       Rx   d 8 0C FF FF FF FF FF FF FF
   1.825000 1  18FF2112x       Rx   d 8 01 00 00 00 00 00 00 00
   1.827000 1  CFF21CAx        Rx   d 8 33 00 FE 11 3B 38 00 24
   1.829000 1  CFF21CAx        Rx   d 8 33 00 0E 12 3B 38 00 24
   1.831000 1  18F100D0x       Rx   d 8 0C FF FF FF FF FF FF FF
   1.833000 1  CFF21CAx        Rx   d 8 33 00 15 12 3B 38 00 24
   1.835000 1  CFF21CAx        Rx   d 8 33 00 26 12 3B 38 00 24
   1.837000 1  CFF21CAx        Rx   d 8 33 00 32 12 3B 38 00 24
   1.839000 1  18F100D0x       Rx   d 8 0C FF FF FF FF FF FF FF
   1.841000 1  CFF21CAx        Rx   d 8 33 00 39 12 3B 38 00 24
   1.843000 1  18F100F3x       Rx   d 8 02 ED 7E 61 98 FA 14 00
   1.845000 1  18F102F3x       Rx   d 8 0E A3 0E 99 0D 0A 00 0A
   1.846000 1  CFF21CAx        Rx   d 8 32 00 43 12 3B 38 00 24
   1.848000 1  18F106F3x       Rx   d 8 45 E0 FC FF FF FF FF FF
   1.849000 1  18F107F3x       Rx   d 8 38 A4 30 70 01 51 00 B4
   1.851000 1  18F108F3x       Rx   d 8 00 00 00 00 00 00 00 00
   1.852000 1  18F100D0x       Rx   d 8 0C FF FF FF FF FF FF FF
   1.853000 1  18F155F3x       Rx   d 8 36 35 36 36 35 36 36 00
   1.855000 1  18FECACAx       Rx   d 8 00 00 00 00 00 00 FF FF
   1.904000 1  18F156F3x       Rx   d 8 00 00 00 00 00 00 00 00
   1.907000 1  18F157F3x       Rx   d 8 00 00 00 00 00 00 00 00
   1.908000 1  18F158F3x       Rx   d 8 00 00 00 00 00 00 00 00
   1.911000 1  18F159F3x       Rx   d 8 00 00 00 00 00 00 00 00
   1.913000 1  18F15AF3x       Rx   d 8 00 00 00 00 00 00 00 00
   1.914000 1  18F15BF3x       Rx   d 7 00 00 00 00 00 00 00
   1.916000 1  18F15CF3x       Rx   d 8 00 00 00 00 00 00 00 00
   1.919000 1  CFF21CAx        Rx   d 8 32 00 43 12 3B 38 00 24
   1.921000 1  18F15DF3x       Rx   d 8 00 00 00 00 00 00 00 00
   1.922000 1  18F15EF3x       Rx   d 8 00 00 00 00 00 00 00 00
   1.924000 1  18FF2112x       Rx   d 8 01 00 00 00 00 00 00 00
   1.926000 1  CFF21CAx        Rx   d 8 32 00 4C 12 3B 38 00 24
   1.928000 1  18F100D0x       Rx   d 8 0C FF FF FF FF FF FF FF
   1.930000 1  CFF21CAx        Rx   d 8 32 00 60 12 3B 38 00 24
   1.932000 1  CFF21CAx        Rx   d 8 32 00 69 12 3B 38 00 24
   1.934000 1  CFF21CAx        Rx   d 8 32 00 78 12 3B 38 00 24
   1.936000 1  18F100D0x       Rx   d 8 0C FF FF FF FF FF FF FF
   1.938000 1  CFF21CAx        Rx   d 8 32 00 7C 12 3B 38 00 24
   1.940000 1  CFF21CAx        Rx   d 8 32 00 85 12 3B 38 00 24
   1.942000 1  18F100D0x       Rx   d 8 0C FF FF FF FF FF FF FF
   1.943000 1  CFF21CAx        Rx   d 8 33 00 91 12 3B 38 00 24
   1.945000 1  18F100F3x       Rx   d 8 02 ED 7E 61 98 FA 14 00
   1.947000 1  18F102F3x       Rx   d 8 0E A3 0E 99 0D 0A 00 0A
   1.949000 1  18F106F3x       Rx   d 8 45 E0 FC FF FF FF FF FF
   1.950000 1  18F107F3x       Rx   d 8 38 A4 30 70 01 51 00 B4
   1.952000 1  18F108F3x       Rx   d 8 00 00 00 00 00 00 00 00
   1.953000 1  18F155F3x       Rx   d 8 36 35 36 36 35 36 36 00
   1.954000 1  18F156F3x       Rx   d 8 00 00 00 00 00 00 00 00
   1.956000 1  18F157F3x       Rx   d 8 00 00 00 00 00 00 00 00
   1.957000 1  18F158F3x       Rx   d 8 00 00 00 00 00 00 00 00
   2.009000 1  18F159F3x       Rx   d 8 00 00 00 00 00 00 00 00
   2.010000 1  CFF21CAx        Rx   d 8 33 00 A1 12 3B 38 00 24
   2.012000 1  18F100D0x       Rx   d 8 0C FF FF FF FF FF FF FF
   2.014000 1  18F15AF3x       Rx   d 8 00 00 00 00 00 00 00 00
   2.016000 1  18F15BF3x       Rx   d 7 00 00 00 00 00 00 00
   2.018000 1  18F15CF3x       Rx   d 8 00 00 00 00 00 00 00 00
   2.020000 1  18F15DF3x       Rx   d 8 00 00 00 00 00 00 00 00
   2.022000 1  18F15EF3x       Rx   d 8 00 00 00 00 00 00 00 00
   2.024000 1  18FF2112x       Rx   d 8 01 00 00 00 00 00 00 00
   2.026000 1  CFF21CAx        Rx   d 8 32 00 A6 12 3B 38 00 24
   2.028000 1  CFF21CAx        Rx   d 8 32 00 AE 12 3B 38 00 24
   2.030000 1  18F100D0x       Rx   d 8 0C FF FF FF FF FF FF FF
   2.031000 1  CFF21CAx        Rx   d 8 32 00 BD 12 3B 38 00 24
   2.033000 1  CFF21CAx        Rx   d 8 32 00 C1 12 3B 38 00 24
   2.035000 1  18F100D0x       Rx   d 8 0C FF FF FF FF FF FF FF
   2.037000 1  CFF21CAx        Rx   d 8 32 00 C1 12 3B 38 00 24
   2.039000 1  CFF21CAx        Rx   d 8 32 00 D9 12 3B 38 00 24
   2.041000 1  18F100D0x       Rx   d 8 0C FF FF FF FF FF FF FF
   2.043000 1  CFF21CAx        Rx   d 8 32 00 D9 12 3B 38 00 24
   2.045000 1  18F100F3x       Rx   d 8 02 EC 7E 61 98 FA 14 00
   2.047000 1  18F102F3x       Rx   d 8 0E A2 0E 99 0D 0A 00 09
   2.049000 1  18F106F3x       Rx   d 8 45 E0 FC FF FF FF FF FF
   2.051000 1  18F107F3x       Rx   d 8 38 A4 30 70 01 51 00 B4
   2.052000 1  18F108F3x       Rx   d 8 00 00 00 00 00 00 00 00
   2.054000 1  18F155F3x       Rx   d 8 36 35 36 36 35 36 36 00
   2.055000 1  CFF21CAx        Rx   d 8 32 00 E1 12 3B 38 00 24
   2.056000 1  18F156F3x       Rx   d 8 00 00 00 00 00 00 00 00
   2.058000 1  18F157F3x       Rx   d 8 00 00 00 00 00 00 00 00
   2.059000 1  18F158F3x       Rx   d 8 00 00 00 00 00 00 00 00
   2.109000 1  18F159F3x       Rx   d 8 00 00 00 00 00 00 00 00
   2.111000 1  18F15AF3x       Rx   d 8 00 00 00 00 00 00 00 00
   2.113000 1  18F15BF3x       Rx   d 7 00 00 00 00 00 00 00
   2.115000 1  18F15CF3x       Rx   d 8 00 00 00 00 00 00 00 00
   2.117000 1  18F15DF3x       Rx   d 8 00 00 00 00 00 00 00 00
   2.119000 1  18F15EF3x       Rx   d 8 00 00 00 00 00 00 00 00
   2.121000 1  18F100D0x       Rx   d 8 0C FF FF FF FF FF FF FF
   2.123000 1  18FF2112x       Rx   d 8 01 00 00 00 00 00 00 00
   2.125000 1  CFF21CAx        Rx   d 8 32 00 ED 12 3B 38 00 24
   2.127000 1  CFF21CAx        Rx   d 8 31 00 F3 12 3B 38 00 24
   2.129000 1  18F100D0x       Rx   d 8 0C FF FF FF FF FF FF FF
   2.130000 1  CFF21CAx        Rx   d 8 31 00 FD 12 3B 38 00 24
   2.132000 1  CFF21CAx        Rx   d 8 31 00 08 13 3B 38 00 24
   2.134000 1  CFF21CAx        Rx   d 8 31 00 13 13 3B 38 00 24
   2.136000 1  18F100D0x       Rx   d 8 0C FF FF FF FF FF FF FF
   2.138000 1  CFF21CAx        Rx   d 8 31 00 1D 13 3B 38 00 24
   2.140000 1  CFF21CAx        Rx   d 8 31 00 26 13 3B 38 00 24
   2.142000 1  18F100D0x       Rx   d 8 0C FF FF FF FF FF FF FF
   2.144000 1  18F100F3x       Rx   d 8 02 EC 7E 6B 98 FA 14 00
   2.146000 1  18F102F3x       Rx   d 8 0E A2 0E 99 0D 0A 00 09
   2.148000 1  18F106F3x       Rx   d 8 45 E0 FC FF FF FF FF FF
   2.150000 1  CFF21CAx        Rx   d 8 31 00 2F 13 3B 38 00 24
   2.152000 1  18F107F3x       Rx   d 8 38 A4 30 70 01 51 00 B4
   2.153000 1  18F108F3x       Rx   d 8 00 00 00 00 00 00 00 00
   2.155000 1  18F155F3x       Rx   d 8 36 35 36 36 35 36 36 00
   2.156000 1  18F156F3x       Rx   d 8 00 00 00 00 00 00 00 00
   2.158000 1  18F157F3x       Rx   d 8 00 00 00 00 00 00 00 00
   2.159000 1  18F158F3x       Rx   d 8 00 00 00 00 00 00 00 00
   2.161000 1  18F159F3x       Rx   d 8 00 00 00 00 00 00 00 00
   2.162000 1  18F15AF3x       Rx   d 8 00 00 00 00 00 00 00 00
   2.211000 1  18F15BF3x       Rx   d 7 00 00 00 00 00 00 00
   2.213000 1  18F15CF3x       Rx   d 8 00 00 00 00 00 00 00 00
   2.215000 1  18FF2112x       Rx   d 8 01 00 00 00 00 00 00 00
   2.218000 1  18F15DF3x       Rx   d 8 00 00 00 00 00 00 00 00
   2.220000 1  CFF21CAx        Rx   d 8 30 00 39 13 3B 38 00 24
   2.221000 1  18F15EF3x       Rx   d 8 00 00 00 00 00 00 00 00
   2.223000 1  18F100D0x       Rx   d 8 0C FF FF FF FF FF FF FF
   2.225000 1  CFF21CAx        Rx   d 8 30 00 42 13 3B 38 00 24
   2.226000 1  CFF21CAx        Rx   d 8 30 00 4B 13 3B 38 00 24
   2.228000 1  18F100D0x       Rx   d 8 0C FF FF FF FF FF FF FF
   2.230000 1  CFF21CAx        Rx   d 8 30 00 53 13 3B 38 00 24
   2.232000 1  CFF21CAx        Rx   d 8 30 00 53 13 3B 38 00 24
   2.234000 1  18F100D0x       Rx   d 8 0C FF FF FF FF FF FF FF
   2.236000 1  CFF21CAx        Rx   d 8 30 00 61 13 3B 38 00 24
   2.238000 1  CFF21CAx        Rx   d 8 30 00 61 13 3B 38 00 24
   2.240000 1  18F100D0x       Rx   d 8 0C FF FF FF FF FF FF FF
   2.242000 1  CFF21CAx        Rx   d 8 31 00 72 13 3B 38 00 24
   2.244000 1  18F100F3x       Rx   d 8 02 EC 7E 6B 98 FA 14 00
   2.246000 1  18F102F3x       Rx   d 8 0E A2 0E 99 0D 0A 00 09
   2.248000 1  18F106F3x       Rx   d 8 45 E0 FC FF FF FF FF FF
   2.250000 1  18F107F3x       Rx   d 8 38 A4 30 70 01 51 00 B4
   2.251000 1  18F108F3x       Rx   d 8 00 00 00 00 00 00 00 00
   2.253000 1  18F155F3x       Rx   d 8 36 35 36 36 35 36 36 00
   2.255000 1  18F156F3x       Rx   d 8 00 00 00 00 00 00 00 00
   2.256000 1  18F157F3x       Rx   d 8 00 00 00 00 00 00 00 00
   2.258000 1  18F158F3x       Rx   d 8 00 00 00 00 00 00 00 00
   2.259000 1  18F159F3x       Rx   d 8 00 00 00 00 00 00 00 00
   2.260000 1  18FF2112x       Rx   d 8 01 00 00 00 00 00 00 00
   2.262000 1  18F15AF3x       Rx   d 8 00 00 00 00 00 00 00 00
   2.317000 1  CFF21CAx        Rx   d 8 31 00 78 13 3B 38 00 24
   2.319000 1  18F15BF3x       Rx   d 7 00 00 00 00 00 00 00
   2.320000 1  18F15CF3x       Rx   d 8 00 00 00 00 00 00 00 00
   2.322000 1  18F15DF3x       Rx   d 8 00 00 00 00 00 00 00 00
   2.324000 1  18F15EF3x       Rx   d 8 00 00 00 00 00 00 00 00
   2.326000 1  18F100D0x       Rx   d 8 0C FF FF FF FF FF FF FF
   2.328000 1  CFF21CAx        Rx   d 8 31 00 80 13 3B 38 00 24
   2.330000 1  CFF21CAx        Rx   d 8 31 00 8A 13 3B 38 00 24
   2.332000 1  18F100D0x       Rx   d 8 0C FF FF FF FF FF FF FF
   2.334000 1  CFF21CAx        Rx   d 8 31 00 8E 13 3B 38 00 24
   2.336000 1  CFF21CAx        Rx   d 8 31 00 9E 13 3B 38 00 24
   2.338000 1  18F100D0x       Rx   d 8 0C FF FF FF FF FF FF FF
   2.339000 1  CFF21CAx        Rx   d 8 31 00 A8 13 3B 38 00 24
   2.341000 1  CFF21CAx        Rx   d 8 32 00 AD 13 3B 38 00 24
   2.344000 1  CFF21CAx        Rx   d 8 32 00 B6 13 3B 38 00 24
   2.345000 1  18F100D0x       Rx   d 8 0C FF FF FF FF FF FF FF
   2.347000 1  18F100F3x       Rx   d 8 02 EC 7E 72 98 FA 14 00
   2.349000 1  18F102F3x       Rx   d 8 0E A2 0E 99 0D 0A 00 09
   2.350000 1  18F106F3x       Rx   d 8 45 E0 FC FF FF FF FF FF
   2.353000 1  18F107F3x       Rx   d 8 38 A4 30 70 01 51 00 B4
   2.354000 1  18F108F3x       Rx   d 8 00 00 00 00 00 00 00 00
   2.356000 1  18F155F3x       Rx   d 8 36 35 36 36 35 36 36 00
   2.358000 1  18F156F3x       Rx   d 8 00 00 00 00 00 00 00 00
   2.359000 1  18FF2112x       Rx   d 8 01 00 00 00 00 00 00 00
   2.361000 1  CFF21CAx        Rx   d 8 32 00 C0 13 3B 38 00 24
   2.362000 1  18F157F3x       Rx   d 8 00 00 00 00 00 00 00 00
   2.364000 1  18F158F3x       Rx   d 8 00 00 00 00 00 00 00 00
   2.365000 1  18F159F3x       Rx   d 8 00 00 00 00 00 00 00 00
   2.366000 1  18F15AF3x       Rx   d 8 00 00 00 00 00 00 00 00
   2.417000 1  18F15BF3x       Rx   d 7 00 00 00 00 00 00 00
   2.419000 1  18F15CF3x       Rx   d 8 00 00 00 00 00 00 00 00
   2.420000 1  18F15DF3x       Rx   d 8 00 00 00 00 00 00 00 00
   2.422000 1  18F15EF3x       Rx   d 8 00 00 00 00 00 00 00 00
   2.424000 1  CFF21CAx        Rx   d 8 31 00 CA 13 3B 38 00 24
   2.426000 1  18F100D0x       Rx   d 8 0C FF FF FF FF FF FF FF
   2.428000 1  CFF21CAx        Rx   d 8 31 00 D5 13 3B 38 00 24
   2.430000 1  CFF21CAx        Rx   d 8 31 00 D9 13 3B 38 00 24
   2.432000 1  18F100D0x       Rx   d 8 0C FF FF FF FF FF FF FF
   2.434000 1  CFF21CAx        Rx   d 8 31 00 E4 13 3B 38 00 24
   2.436000 1  CFF21CAx        Rx   d 8 31 00 E8 13 3B 38 00 24
   2.437000 1  18F100D0x       Rx   d 8 0C FF FF FF FF FF FF FF
   2.439000 1  18F104F3x       Rx   d 8 36 35 01 02 01 FF FF FF
   2.441000 1  18F113F3x       Rx   d 8 0E A1 0E 9C 0E A0 0E 9D
   2.443000 1  18F114F3x       Rx   d 8 0E 9B 0E 9A 0E A0 0E 9E
   2.445000 1  18F115F3x       Rx   d 8 0E 9B 0E 99 0E 9D 0E 9D
   2.447000 1  18F116F3x       Rx   d 8 0E A2 0E 9C 0E A1 0E A1
   2.448000 1  CFF21CAx        Rx   d 8 30 00 F3 13 3B 38 00 24
   2.450000 1  18F117F3x       Rx   d 8 0E 9B 0E 9E 0E A1 0E A1
   2.452000 1  18F118F3x       Rx   d 8 00 00 00 00 00 00 00 00
   2.454000 1  18F119F3x       Rx   d 8 00 00 00 00 00 00 00 00
   2.456000 1  18F11AF3x       Rx   d 8 00 00 00 00 00 00 00 00
   2.458000 1  18F11BF3x       Rx   d 8 00 00 00 00 00 00 00 00
   2.460000 1  18F11CF3x       Rx   d 8 00 00 00 00 00 00 00 00
   2.461000 1  18F11DF3x       Rx   d 8 00 00 00 00 00 00 00 00
   2.462000 1  18F11EF3x       Rx   d 8 00 00 00 00 00 00 00 00
   2.464000 1  18F11FF3x       Rx   d 8 00 00 00 00 00 00 00 00
   2.465000 1  18F120F3x       Rx   d 8 00 00 00 00 00 00 00 00
   2.466000 1  18F121F3x       Rx   d 8 00 00 00 00 00 00 00 00
   2.468000 1  18F122F3x       Rx   d 8 00 00 00 00 00 00 00 00
   2.519000 1  CFF21CAx        Rx   d 8 30 00 FF 13 3B 38 00 24
   2.521000 1  18F123F3x       Rx   d 8 00 00 00 00 00 00 00 00
   2.523000 1  18F124F3x       Rx   d 8 00 00 00 00 00 00 00 00
   2.525000 1  18F125F3x       Rx   d 8 00 00 00 00 00 00 00 00
   2.526000 1  18F126F3x       Rx   d 8 00 00 00 00 00 00 00 00
   2.528000 1  18F100D0x       Rx   d 8 0C FF FF FF FF FF FF FF
   2.530000 1  18F127F3x       Rx   d 8 00 00 00 00 00 00 00 00
   2.532000 1  18F128F3x       Rx   d 8 00 00 00 00 00 00 00 00
   2.534000 1  18F129F3x       Rx   d 8 00 00 00 00 00 00 00 00
   2.536000 1  18F12AF3x       Rx   d 8 00 00 00 00 00 00 00 00
   2.538000 1  18F108F3x       Rx   d 8 00 00 00 00 00 00 00 00
   2.540000 1  18F12BF3x       Rx   d 8 00 00 00 00 00 00 00 00
   2.542000 1  18F12DF3x       Rx   d 8 00 00 00 00 00 00 00 00
   2.544000 1  18F12FF3x       Rx   d 8 00 00 00 00 00 00 00 00
   2.545000 1  18F132F3x       Rx   d 8 00 00 00 00 00 00 00 00
   2.547000 1  18F133F3x       Rx   d 8 00 00 00 00 00 00 00 00
   2.550000 1  18F136F3x       Rx   d 8 00 00 00 00 00 00 00 00
   2.551000 1  18F138F3x       Rx   d 8 00 00 00 00 00 00 00 00
   2.554000 1  18F13AF3x       Rx   d 8 00 00 00 00 00 00 00 00
   2.555000 1  18F13CF3x       Rx   d 8 00 00 00 00 00 00 00 00
   2.557000 1  18F156F3x       Rx   d 8 00 00 00 00 00 00 00 00
   2.559000 1  18F157F3x       Rx   d 8 00 00 00 00 00 00 00 00
   2.561000 1  CFF21CAx        Rx   d 8 31 00 0E 14 3B 38 00 24
   2.563000 1  18F15BF3x       Rx   d 7 00 00 00 00 00 00 00
   2.564000 1  18F15DF3x       Rx   d 8 00 00 00 00 00 00 00 00
   2.566000 1  CFF21CAx        Rx   d 8 31 00 11 14 3B 38 00 24
   2.567000 1  18F100D0x       Rx   d 8 0C FF FF FF FF FF FF FF
   2.569000 1  CFF21CAx        Rx   d 8 31 00 1D 14 3B 38 00 24
   2.570000 1  CFF21CAx        Rx   d 8 31 00 27 14 3B 38 00 24
   2.571000 1  18F100D0x       Rx   d 8 0C FF FF FF FF FF FF FF
   2.623000 1  CFF21CAx        Rx   d 8 30 00 2F 14 3B 38 00 24
   2.625000 1  CFF21CAx        Rx   d 8 30 00 3B 14 3B 38 00 24
   2.627000 1  18F100D0x       Rx   d 8 0C FF FF FF FF FF FF FF
   2.629000 1  18F100F3x       Rx   d 8 02 EC 7E 72 98 FA 14 00
   2.631000 1  CFF21CAx        Rx   d 8 30 00 3B 14 3B 38 00 24
   2.633000 1  18F102F3x       Rx   d 8 0E A2 0E 99 0D 0A 00 09
   2.635000 1  18FF2112x       Rx   d 8 01 00 00 00 00 00 00 00
   2.636000 1  18F106F3x       Rx   d 8 45 E0 FC FF FF FF FF FF
   2.638000 1  18F107F3x       Rx   d 8 38 A4 30 70 01 51 00 B4
   2.640000 1  18F108F3x       Rx   d 8 00 00 00 00 00 00 00 00
   2.642000 1  18F156F3x       Rx   d 8 00 00 00 00 00 00 00 00
   2.644000 1  18F159F3x       Rx   d 8 00 00 00 00 00 00 00 00
   2.646000 1  18F15BF3x       Rx   d 7 00 00 00 00 00 00 00
   2.648000 1  18F15EF3x       Rx   d 8 00 00 00 00 00 00 00 00
   2.650000 1  CFF21CAx        Rx   d 8 30 00 4C 14 3B 38 00 24
   2.652000 1  18F100D0x       Rx   d 8 0C FF FF FF FF FF FF FF
   2.654000 1  CFF21CAx        Rx   d 8 2F 00 55 14 3B 38 00 24
   2.655000 1  CFF21CAx        Rx   d 8 2F 00 5C 14 3B 38 00 24
   2.658000 1  18F100D0x       Rx   d 8 0C FF FF FF FF FF FF FF
   2.659000 1  CFF21CAx        Rx   d 8 2F 00 67 14 3B 38 00 24
   2.661000 1  CFF21CAx        Rx   d 8 2F 00 6F 14 3B 38 00 24
   2.663000 1  18F100D0x       Rx   d 8 0C FF FF FF FF FF FF FF
   2.665000 1  CFF21CAx        Rx   d 8 2F 00 73 14 3B 38 00 24
   2.666000 1  CFF21CAx        Rx   d 8 2E 00 7E 14 3B 38 00 24
   2.668000 1  18FF2112x       Rx   d 8 01 00 00 00 00 00 00 00
   2.669000 1  18F100F3x       Rx   d 8 02 EC 7E 76 98 FA 14 00
   2.671000 1  18F102F3x       Rx   d 8 0E A1 0E 98 0D 0A 00 09
   2.672000 1  18F100D0x       Rx   d 8 0C FF FF FF FF FF FF FF
   2.673000 1  18F106F3x       Rx   d 8 45 E0 FC FF FF FF FF FF
   2.723000 1  18F107F3x       Rx   d 8 38 A4 30 70 01 51 00 B4
   2.725000 1  18F108F3x       Rx   d 8 00 00 00 00 00 00 00 00
   2.727000 1  18F155F3x       Rx   d 8 36 35 36 36 35 36 36 00
   2.729000 1  18F156F3x       Rx   d 8 00 00 00 00 00 00 00 00
   2.731000 1  18F157F3x       Rx   d 8 00 00 00 00 00 00 00 00
   2.733000 1  CFF21CAx        Rx   d 8 2E 00 7E 14 3B 38 00 24
   2.735000 1  18F158F3x       Rx   d 8 00 00 00 00 00 00 00 00
   2.737000 1  18F159F3x       Rx   d 8 00 00 00 00 00 00 00 00
   2.739000 1  18F15AF3x       Rx   d 8 00 00 00 00 00 00 00 00
   2.741000 1  18F15BF3x       Rx   d 7 00 00 00 00 00 00 00
   2.742000 1  18F15DF3x       Rx   d 8 00 00 00 00 00 00 00 00
   2.744000 1  CFF21CAx        Rx   d 8 2E 00 87 14 3B 38 00 24
   2.746000 1  18F100D0x       Rx   d 8 0C FF FF FF FF FF FF FF
   2.748000 1  CFF21CAx        Rx   d 8 2E 00 8C 14 3B 38 00 24
   2.750000 1  CFF21CAx        Rx   d 8 2D 00 94 14 3B 38 00 24
   2.752000 1  18F100D0x       Rx   d 8 0C FF FF FF FF FF FF FF
   2.754000 1  CFF21CAx        Rx   d 8 2D 00 9B 14 3B 38 00 24
   2.756000 1  CFF21CAx        Rx   d 8 2D 00 A6 14 3B 38 00 24
   2.757000 1  18F100D0x       Rx   d 8 0C FF FF FF FF FF FF FF
   2.759000 1  CFF21CAx        Rx   d 8 2D 00 A9 14 3B 38 00 24
   2.761000 1  CFF21CAx        Rx   d 8 2D 00 B2 14 3B 38 00 24
   2.763000 1  18FF2112x       Rx   d 8 01 00 00 00 00 00 00 00
   2.765000 1  18F100F3x       Rx   d 8 02 EC 7E 76 98 FA 14 00
   2.767000 1  18F102F3x       Rx   d 8 0E A1 0E 98 0D 0A 00 09
   2.768000 1  18F100D0x       Rx   d 8 0C FF FF FF FF FF FF FF
   2.770000 1  18F106F3x       Rx   d 8 45 E0 FC FF FF FF FF FF
   2.771000 1  18F107F3x       Rx   d 8 38 A4 30 70 01 51 00 B4
   2.773000 1  CFF21CAx        Rx   d 8 2E 00 B8 14 3B 38 00 24
   2.774000 1  18F108F3x       Rx   d 8 00 00 00 00 00 00 00 00
   2.775000 1  18F155F3x       Rx   d 8 36 35 36 36 35 36 36 00
   2.826000 1  18F156F3x       Rx   d 8 00 00 00 00 00 00 00 00
   2.828000 1  18F157F3x       Rx   d 8 00 00 00 00 00 00 00 00
   2.830000 1  18F158F3x       Rx   d 8 00 00 00 00 00 00 00 00
   2.832000 1  18F159F3x       Rx   d 8 00 00 00 00 00 00 00 00
   2.834000 1  18F15AF3x       Rx   d 8 00 00 00 00 00 00 00 00
   2.836000 1  18F15BF3x       Rx   d 7 00 00 00 00 00 00 00
   2.838000 1  18F15CF3x       Rx   d 8 00 00 00 00 00 00 00 00
   2.840000 1  18F15DF3x       Rx   d 8 00 00 00 00 00 00 00 00
   2.842000 1  18F15EF3x       Rx   d 8 00 00 00 00 00 00 00 00
   2.844000 1  CFF21CAx        Rx   d 8 2E 00 C1 14 3B 38 00 24
   2.846000 1  CFF21CAx        Rx   d 8 2E 00 C6 14 3B 38 00 24
   2.847000 1  18F100D0x       Rx   d 8 0C FF FF FF FF FF FF FF
   2.849000 1  CFF21CAx        Rx   d 8 2E 00 D1 14 3B 38 00 24
   2.851000 1  CFF21CAx        Rx   d 8 2E 00 D9 14 3B 38 00 24
   2.853000 1  18F100D0x       Rx   d 8 0C FF FF FF FF FF FF FF
   2.855000 1  CFF21CAx        Rx   d 8 2E 00 DF 14 3B 38 00 24
   2.857000 1  CFF21CAx        Rx   d 8 2E 00 EB 14 3B 38 00 24
   2.859000 1  18F100D0x       Rx   d 8 0C FF FF FF FF FF FF FF
   2.860000 1  CFF21CAx        Rx   d 8 2E 00 ED 14 3B 38 00 24
   2.862000 1  18FF2112x       Rx   d 8 01 00 00 00 00 00 00 00
   2.864000 1  18F100F3x       Rx   d 8 02 EC 7E 7F 98 FA 14 00
   2.866000 1  18F102F3x       Rx   d 8 0E A1 0E 98 0D 0A 00 09
   2.868000 1  CFF21CAx        Rx   d 8 2E 00 F5 14 3B 38 00 24
   2.870000 1  18F100D0x       Rx   d 8 0C FF FF FF FF FF FF FF
   2.871000 1  18F106F3x       Rx   d 8 45 E0 FC FF FF FF FF FF
   2.873000 1  18F107F3x       Rx   d 8 38 A4 30 70 01 51 00 B4
   2.874000 1  18F108F3x       Rx   d 8 00 00 00 00 00 00 00 00
   2.875000 1  18F155F3x       Rx   d 8 36 35 36 36 35 36 36 00
   2.877000 1  18F156F3x       Rx   d 8 00 00 00 00 00 00 00 00
   2.878000 1  18F157F3x       Rx   d 8 00 00 00 00 00 00 00 00
   2.930000 1  18F158F3x       Rx   d 8 00 00 00 00 00 00 00 00
   2.932000 1  18F159F3x       Rx   d 8 00 00 00 00 00 00 00 00
   2.934000 1  18F15AF3x       Rx   d 8 00 00 00 00 00 00 00 00
   2.936000 1  18F15BF3x       Rx   d 7 00 00 00 00 00 00 00
   2.938000 1  18F15CF3x       Rx   d 8 00 00 00 00 00 00 00 00
   2.940000 1  CFF21CAx        Rx   d 8 2E 00 FC 14 3B 38 00 24
   2.942000 1  18F15DF3x       Rx   d 8 00 00 00 00 00 00 00 00
   2.944000 1  18F15EF3x       Rx   d 8 00 00 00 00 00 00 00 00
   2.945000 1  18FECACAx       Rx   d 8 00 00 00 00 00 00 FF FF
   2.947000 1  CFF21CAx        Rx   d 8 2E 00 04 15 3B 38 00 24
   2.949000 1  18F100D0x       Rx   d 8 0C FF FF FF FF FF FF FF
   2.951000 1  CFF21CAx        Rx   d 8 2E 00 04 15 3B 38 00 24
   2.953000 1  CFF21CAx        Rx   d 8 2E 00 12 15 3B 38 00 24
   2.955000 1  18F100D0x       Rx   d 8 0C FF FF FF FF FF FF FF
   2.957000 1  CFF21CAx        Rx   d 8 2E 00 12 15 3B 38 00 24
   2.958000 1  CFF21CAx        Rx   d 8 2D 00 22 15 3B 38 00 24
   2.960000 1  18F100D0x       Rx   d 8 0C FF FF FF FF FF FF FF
   2.963000 1  CFF21CAx        Rx   d 8 2D 00 22 15 3B 38 00 24
   2.965000 1  18FF2112x       Rx   d 8 01 00 00 00 00 00 00 00
   2.966000 1  CFF21CAx        Rx   d 8 2E 00 29 15 3B 38 00 24
   2.968000 1  18F100F3x       Rx   d 8 02 EC 7E 7F 98 FA 14 00
   2.970000 1  18F102F3x       Rx   d 8 0E A1 0E 98 0D 0A 00 09
   2.972000 1  18F106F3x       Rx   d 8 45 E0 FC FF FF FF FF FF
   2.973000 1  18F107F3x       Rx   d 8 38 A4 30 70 01 51 00 B4
   2.975000 1  18F108F3x       Rx   d 8 00 00 00 00 00 00 00 00
   2.976000 1  18F155F3x       Rx   d 8 36 35 36 36 35 36 36 00
   2.977000 1  18F100D0x       Rx   d 8 0C FF FF FF FF FF FF FF
   2.979000 1  18F156F3x       Rx   d 8 00 00 00 00 00 00 00 00
   2.980000 1  18F157F3x       Rx   d 8 00 00 00 00 00 00 00 00
   3.034000 1  18F158F3x       Rx   d 8 00 00 00 00 00 00 00 00
   3.035000 1  18F159F3x       Rx   d 8 00 00 00 00 00 00 00 00
   3.037000 1  CFF21CAx        Rx   d 8 2E 00 33 15 3B 38 00 24
   3.039000 1  18F15AF3x       Rx   d 8 00 00 00 00 00 00 00 00
   3.041000 1  18F15BF3x       Rx   d 7 00 00 00 00 00 00 00
   3.043000 1  18F15CF3x       Rx   d 8 00 00 00 00 00 00 00 00
   3.045000 1  18F15DF3x       Rx   d 8 00 00 00 00 00 00 00 00
   3.047000 1  18F15EF3x       Rx   d 8 00 00 00 00 00 00 00 00
   3.049000 1  CFF21CAx        Rx   d 8 2E 00 3A 15 3B 38 00 24
   3.051000 1  18F100D0x       Rx   d 8 0C FF FF FF FF FF FF FF
   3.053000 1  CFF21CAx        Rx   d 8 2E 00 41 15 3B 38 00 24
   3.055000 1  CFF21CAx        Rx   d 8 2E 00 4C 15 3B 38 00 24
   3.056000 1  18F100D0x       Rx   d 8 0C FF FF FF FF FF FF FF
   3.059000 1  CFF21CAx        Rx   d 8 2E 00 4E 15 3B 38 00 24
   3.060000 1  CFF21CAx        Rx   d 8 2E 00 56 15 3B 38 00 24
   3.062000 1  18F100D0x       Rx   d 8 0C FF FF FF FF FF FF FF
   3.064000 1  CFF21CAx        Rx   d 8 2E 00 5D 15 3B 38 00 24
   3.066000 1  18FF2112x       Rx   d 8 01 00 00 00 00 00 00 00
   3.068000 1  CFF21CAx        Rx   d 8 2E 00 63 15 3B 38 00 24
   3.069000 1  18F100F3x       Rx   d 8 02 EC 7E 7F 98 FA 14 00
   3.072000 1  18F102F3x       Rx   d 8 0E A1 0E 97 0D 0A 00 0A
   3.074000 1  18F106F3x       Rx   d 8 45 E0 FC FF FF FF FF FF
   3.075000 1  18F100D0x       Rx   d 8 0C FF FF FF FF FF FF FF
   3.076000 1  18F107F3x       Rx   d 8 38 A4 30 70 01 51 00 B4
   3.078000 1  18F108F3x       Rx   d 8 00 00 00 00 00 00 00 00
   3.079000 1  18F155F3x       Rx   d 8 36 35 36 36 35 36 36 00
   3.081000 1  CFF21CAx        Rx   d 8 2E 00 6C 15 3B 38 00 24
   3.082000 1  18F156F3x       Rx   d 8 00 00 00 00 00 00 00 00
   3.084000 1  18F157F3x       Rx   d 8 00 00 00 00 00 00 00 00
   3.137000 1  18F158F3x       Rx   d 8 00 00 00 00 00 00 00 00
   3.138000 1  18F159F3x       Rx   d 8 00 00 00 00 00 00 00 00
   3.140000 1  18F15AF3x       Rx   d 8 00 00 00 00 00 00 00 00
   3.142000 1  18F15BF3x       Rx   d 7 00 00 00 00 00 00 00
   3.144000 1  18F15CF3x       Rx   d 8 00 00 00 00 00 00 00 00
   3.146000 1  18F15DF3x       Rx   d 8 00 00 00 00 00 00 00 00
   3.148000 1  18F15EF3x       Rx   d 8 00 00 00 00 00 00 00 00
   3.150000 1  CFF21CAx        Rx   d 8 2E 00 73 15 3B 38 00 24
   3.152000 1  18F100D0x       Rx   d 8 0C FF FF FF FF FF FF FF
   3.154000 1  CFF21CAx        Rx   d 8 2E 00 7C 15 3B 38 00 24
   3.155000 1  CFF21CAx        Rx   d 8 2E 00 84 15 3B 38 00 24
   3.157000 1  CFF21CAx        Rx   d 8 2E 00 8B 15 3B 38 00 24
   3.159000 1  18F100D0x       Rx   d 8 0C FF FF FF FF FF FF FF
   3.161000 1  CFF21CAx        Rx   d 8 2E 00 8F 15 3B 38 00 24
   3.163000 1  CFF21CAx        Rx   d 8 2E 00 98 15 3B 38 00 24
   3.165000 1  18F100D0x       Rx   d 8 0C FF FF FF FF FF FF FF
   3.167000 1  18FF2112x       Rx   d 8 01 00 00 00 00 00 00 00
   3.168000 1  CFF21CAx        Rx   d 8 2E 00 A4 15 3B 38 00 24
   3.170000 1  18F100F3x       Rx   d 8 02 EC 7E 8D 98 FA 14 00
   3.172000 1  18F102F3x       Rx   d 8 0E A1 0E 97 0D 0A 00 0A
   3.174000 1  18F106F3x       Rx   d 8 45 E0 FC FF FF FF FF FF
   3.176000 1  CFF21CAx        Rx   d 8 2E 00 A7 15 3B 38 00 24
   3.177000 1  18F100D0x       Rx   d 8 0C FF FF FF FF FF FF FF
   3.179000 1  18F107F3x       Rx   d 8 38 A4 30 70 01 51 00 B4
   3.180000 1  18F108F3x       Rx   d 8 00 00 00 00 00 00 00 00
   3.182000 1  18F155F3x       Rx   d 8 36 35 36 36 35 36 36 00
   3.183000 1  18F156F3x       Rx   d 8 00 00 00 00 00 00 00 00
   3.184000 1  18F157F3x       Rx   d 8 00 00 00 00 00 00 00 00
   3.186000 1  18F158F3x       Rx   d 8 00 00 00 00 00 00 00 00
   3.236000 1  18F159F3x       Rx   d 8 00 00 00 00 00 00 00 00
   3.238000 1  18F15AF3x       Rx   d 8 00 00 00 00 00 00 00 00
   3.240000 1  18F15BF3x       Rx   d 7 00 00 00 00 00 00 00
   3.242000 1  18F15CF3x       Rx   d 8 00 00 00 00 00 00 00 00
   3.244000 1  18F15DF3x       Rx   d 8 00 00 00 00 00 00 00 00
   3.245000 1  CFF21CAx        Rx   d 8 2E 00 B2 15 3B 38 00 24
   3.248000 1  18F15EF3x       Rx   d 8 00 00 00 00 00 00 00 00
   3.249000 1  CFF21CAx        Rx   d 8 2E 00 B3 15 3B 38 00 24
   3.251000 1  18F100D0x       Rx   d 8 0C FF FF FF FF FF FF FF
   3.253000 1  CFF21CAx        Rx   d 8 2E 00 BF 15 3B 38 00 24
   3.255000 1  CFF21CAx        Rx   d 8 2E 00 C2 15 3B 38 00 24
   3.257000 1  18F100D0x       Rx   d 8 0C FF FF FF FF FF FF FF
   3.259000 1  CFF21CAx        Rx   d 8 2E 00 CE 15 3B 38 00 24
   3.261000 1  CFF21CAx        Rx   d 8 2D 00 D5 15 3B 38 00 24
   3.263000 1  18F100D0x       Rx   d 8 0C FF FF FF FF FF FF FF
   3.265000 1  18FF2112x       Rx   d 8 01 00 00 00 00 00 00 00
   3.266000 1  CFF21CAx        Rx   d 8 2D 00 DC 15 3B 38 00 24
   3.268000 1  CFF21CAx        Rx   d 8 2D 00 E3 15 3B 38 00 24
   3.270000 1  18F100F3x       Rx   d 8 02 EC 7E 8D 98 FA 14 00
   3.272000 1  18F102F3x       Rx   d 8 0E A1 0E 97 0D 0A 00 0A
   3.274000 1  18F106F3x       Rx   d 8 45 E0 FC FF FF FF FF FF
   3.276000 1  18F100D0x       Rx   d 8 0C FF FF FF FF FF FF FF
   3.278000 1  18F107F3x       Rx   d 8 38 A4 30 70 01 51 00 B4
   3.280000 1  18F108F3x       Rx   d 8 00 00 00 00 00 00 00 00
   3.281000 1  18F155F3x       Rx   d 8 36 35 36 36 35 36 36 00
   3.283000 1  18F156F3x       Rx   d 8 00 00 00 00 00 00 00 00
   3.284000 1  18F157F3x       Rx   d 8 00 00 00 00 00 00 00 00
   3.285000 1  18F158F3x       Rx   d 8 00 00 00 00 00 00 00 00
   3.287000 1  18F159F3x       Rx   d 8 00 00 00 00 00 00 00 00
   3.288000 1  CFF21CAx        Rx   d 8 2F 00 EA 15 3B 38 00 24
   3.338000 1  18F15AF3x       Rx   d 8 00 00 00 00 00 00 00 00
   3.340000 1  18F15BF3x       Rx   d 7 00 00 00 00 00 00 00
   3.362000 1  18F15CF3x       Rx   d 8 00 00 00 00 00 00 00 00
   3.364000 1  18F15DF3x       Rx   d 8 00 00 00 00 00 00 00 00
   3.365000 1  18F15EF3x       Rx   d 8 00 00 00 00 00 00 00 00
   3.367000 1  CFF21CAx        Rx   d 8 2F 00 EA 15 3B 38 00 24
   3.369000 1  18F100D0x       Rx   d 8 0C FF FF FF FF FF FF FF
   3.371000 1  CFF21CAx        Rx   d 8 2F 00 F9 15 3B 38 00 24
   3.373000 1  CFF21CAx        Rx   d 8 2F 00 F9 15 3B 38 00 24
   3.374000 1  18F100D0x       Rx   d 8 0C FF FF FF FF FF FF FF
   3.376000 1  CFF21CAx        Rx   d 8 2F 00 03 16 3B 38 00 24
   3.379000 1  CFF21CAx        Rx   d 8 2F 00 0B 16 3B 38 00 24
   3.381000 1  18F100D0x       Rx   d 8 0C FF FF FF FF FF FF FF
   3.382000 1  18FF2112x       Rx   d 8 01 00 00 00 00 00 00 00
   3.384000 1  CFF21CAx        Rx   d 8 2F 00 11 16 3B 38 00 24
   3.385000 1  CFF21CAx        Rx   d 8 2F 00 17 16 3B 38 00 24
   3.386000 1  18F100D0x       Rx   d 8 0C FF FF FF FF FF FF FF
   3.388000 1  18F100F3x       Rx   d 8 02 EC 7E 9E 98 FA 14 00
   3.389000 1  18F102F3x       Rx   d 8 0E A1 0E 97 0D 0A 00 0A
   3.391000 1  18F106F3x       Rx   d 8 45 E0 FC FF FF FF FF FF
   3.440000 1  18F107F3x       Rx   d 8 38 A4 30 70 01 51 00 B4
   3.442000 1  18F108F3x       Rx   d 8 00 00 00 00 00 00 00 00
   3.444000 1  18F155F3x       Rx   d 8 36 35 36 36 35 36 36 00
   3.446000 1  18F156F3x       Rx   d 8 00 00 00 00 00 00 00 00
   3.449000 1  CFF21CAx        Rx   d 8 2F 00 20 16 3B 38 00 24
   3.451000 1  18F157F3x       Rx   d 8 00 00 00 00 00 00 00 00
   3.452000 1  18F158F3x       Rx   d 8 00 00 00 00 00 00 00 00
   3.454000 1  18F159F3x       Rx   d 8 00 00 00 00 00 00 00 00
   3.456000 1  18F15AF3x       Rx   d 8 00 00 00 00 00 00 00 00
   3.458000 1  18F15BF3x       Rx   d 7 00 00 00 00 00 00 00
   3.460000 1  18F15CF3x       Rx   d 8 00 00 00 00 00 00 00 00
   3.462000 1  18F15DF3x       Rx   d 8 00 00 00 00 00 00 00 00
   3.464000 1  18F15EF3x       Rx   d 8 00 00 00 00 00 00 00 00
   3.466000 1  CFF21CAx        Rx   d 8 2F 00 27 16 3B 38 00 24
   3.468000 1  18F100D0x       Rx   d 8 0C FF FF FF FF FF FF FF
   3.470000 1  CFF21CAx        Rx   d 8 2F 00 2A 16 3B 38 00 24
   3.472000 1  CFF21CAx        Rx   d 8 30 00 38 16 3B 38 00 24
   3.473000 1  CFF21CAx        Rx   d 8 30 00 3C 16 3B 38 00 24
   3.475000 1  18F100D0x       Rx   d 8 0C FF FF FF FF FF FF FF
   3.477000 1  CFF21CAx        Rx   d 8 30 00 47 16 3B 38 00 24
   3.479000 1  18F104F3x       Rx   d 8 36 35 01 02 01 FF FF FF
   3.481000 1  18FF2112x       Rx   d 8 01 00 00 00 00 00 00 00
   3.483000 1  18F113F3x       Rx   d 8 0E 9F 0E 9A 0E 9D 0E 9C
   3.484000 1  18F114F3x       Rx   d 8 0E 9A 0E 99 0E 9E 0E 9C
   3.486000 1  CFF21CAx        Rx   d 8 2F 00 4A 16 3B 38 00 24
   3.487000 1  18F100D0x       Rx   d 8 0C FF FF FF FF FF FF FF
   3.489000 1  18F115F3x       Rx   d 8 0E 99 0E 97 0E 9C 0E 9C
   3.490000 1  18F116F3x       Rx   d 8 0E A1 0E 9C 0E 9F 0E A0
   3.492000 1  18F117F3x       Rx   d 8 0E 9A 0E 9C 0E A0 0E 9F
   3.493000 1  18F118F3x       Rx   d 8 00 00 00 00 00 00 00 00
   3.542000 1  18F119F3x       Rx   d 8 00 00 00 00 00 00 00 00
   3.545000 1  18F11AF3x       Rx   d 8 00 00 00 00 00 00 00 00
   3.547000 1  18F11BF3x       Rx   d 8 00 00 00 00 00 00 00 00
   3.548000 1  18F11CF3x       Rx   d 8 00 00 00 00 00 00 00 00
   3.550000 1  18F11DF3x       Rx   d 8 00 00 00 00 00 00 00 00
   3.552000 1  18F11EF3x       Rx   d 8 00 00 00 00 00 00 00 00
   3.554000 1  18F11FF3x       Rx   d 8 00 00 00 00 00 00 00 00
   3.556000 1  CFF21CAx        Rx   d 8 2F 00 55 16 3B 38 00 24
   3.558000 1  18F120F3x       Rx   d 8 00 00 00 00 00 00 00 00
   3.560000 1  18F121F3x       Rx   d 8 00 00 00 00 00 00 00 00
   3.562000 1  18F122F3x       Rx   d 8 00 00 00 00 00 00 00 00
   3.563000 1  18F123F3x       Rx   d 8 00 00 00 00 00 00 00 00
   3.565000 1  18F124F3x       Rx   d 8 00 00 00 00 00 00 00 00
   3.567000 1  18F125F3x       Rx   d 8 00 00 00 00 00 00 00 00
   3.569000 1  18F126F3x       Rx   d 8 00 00 00 00 00 00 00 00
   3.571000 1  18F127F3x       Rx   d 8 00 00 00 00 00 00 00 00
   3.573000 1  18F128F3x       Rx   d 8 00 00 00 00 00 00 00 00
   3.575000 1  18F100F3x       Rx   d 8 02 EC 7E 9E 98 FA 14 00
   3.577000 1  18F102F3x       Rx   d 8 0E A1 0E 97 0D 0A 00 0A
   3.579000 1  18F15CF3x       Rx   d 8 00 00 00 00 00 00 00 00
   3.580000 1  18F15DF3x       Rx   d 8 00 00 00 00 00 00 00 00
   3.583000 1  CFF21CAx        Rx   d 8 30 00 73 16 3B 38 00 24
   3.584000 1  CFF21CAx        Rx   d 8 30 00 7B 16 3B 38 00 24
   3.586000 1  18F100D0x       Rx   d 8 0C FF FF FF FF FF FF FF
   3.587000 1  CFF21CAx        Rx   d 8 30 00 84 16 3B 38 00 24
   3.589000 1  CFF21CAx        Rx   d 8 30 00 89 16 3B 38 00 24
   3.590000 1  18F100D0x       Rx   d 8 0C FF FF FF FF FF FF FF
   3.592000 1  CFF21CAx        Rx   d 8 30 00 8F 16 3B 38 00 24
   3.593000 1  18F100F3x       Rx   d 8 02 EC 7E 9E 98 FA 14 00
   3.594000 1  CFF21CAx        Rx   d 8 30 00 98 16 3B 38 00 24
   3.645000 1  18F100D0x       Rx   d 8 0C FF FF FF FF FF FF FF
   3.647000 1  18F102F3x       Rx   d 8 0E A1 0E 97 0D 0A 00 0A
   3.649000 1  18F106F3x       Rx   d 8 45 E0 FC FF FF FF FF FF
   3.651000 1  18F107F3x       Rx   d 8 38 A4 30 70 01 51 00 B4
   3.653000 1  18F108F3x       Rx   d 8 00 00 00 00 00 00 00 00
   3.655000 1  18F155F3x       Rx   d 8 36 35 36 36 35 36 36 00
   3.657000 1  18F156F3x       Rx   d 8 00 00 00 00 00 00 00 00
   3.659000 1  18F157F3x       Rx   d 8 00 00 00 00 00 00 00 00
   3.661000 1  18F158F3x       Rx   d 8 00 00 00 00 00 00 00 00
   3.663000 1  18F159F3x       Rx   d 8 00 00 00 00 00 00 00 00
   3.665000 1  18F15AF3x       Rx   d 8 00 00 00 00 00 00 00 00
   3.666000 1  CFF21CAx        Rx   d 8 30 00 A0 16 3B 38 00 24
   3.669000 1  18F15BF3x       Rx   d 7 00 00 00 00 00 00 00
   3.670000 1  18F15CF3x       Rx   d 8 00 00 00 00 00 00 00 00
   3.672000 1  18F15DF3x       Rx   d 8 00 00 00 00 00 00 00 00
   3.674000 1  18F15EF3x       Rx   d 8 00 00 00 00 00 00 00 00
   3.676000 1  CFF21CAx        Rx   d 8 30 00 A6 16 3B 38 00 24
   3.678000 1  18F100D0x       Rx   d 8 0C FF FF FF FF FF FF FF
   3.680000 1  CFF21CAx        Rx   d 8 30 00 AA 16 3B 38 00 24
   3.681000 1  CFF21CAx        Rx   d 8 30 00 B6 16 3B 38 00 24
   3.683000 1  18F100D0x       Rx   d 8 0C FF FF FF FF FF FF FF
   3.685000 1  CFF21CAx        Rx   d 8 30 00 B6 16 3B 38 00 24
   3.688000 1  CFF21CAx        Rx   d 8 30 00 C5 16 3B 38 00 24
   3.689000 1  18FF2112x       Rx   d 8 01 00 00 00 00 00 00 00
   3.691000 1  18F100D0x       Rx   d 8 0C FF FF FF FF FF FF FF
   3.692000 1  CFF21CAx        Rx   d 8 30 00 C5 16 3B 38 00 24
   3.694000 1  CFF21CAx        Rx   d 8 30 00 CE 16 3B 38 00 24
   3.695000 1  18F100F3x       Rx   d 8 02 EC 7E AF 98 FA 14 00
   3.696000 1  18F102F3x       Rx   d 8 0E A0 0E 97 0D 0A 00 09
   3.698000 1  18F106F3x       Rx   d 8 45 E0 FC FF FF FF FF FF
   3.751000 1  18F107F3x       Rx   d 8 38 A4 30 70 01 51 00 B4
   3.752000 1  18F100D0x       Rx   d 8 0C FF FF FF FF FF FF FF
   3.754000 1  18F108F3x       Rx   d 8 00 00 00 00 00 00 00 00
   3.756000 1  18F155F3x       Rx   d 8 36 35 36 36 35 36 36 00
   3.757000 1  18F156F3x       Rx   d 8 00 00 00 00 00 00 00 00
   3.760000 1  18F157F3x       Rx   d 8 00 00 00 00 00 00 00 00
   3.762000 1  CFF21CAx        Rx   d 8 30 00 D5 16 3B 38 00 24
   3.764000 1  18F158F3x       Rx   d 8 00 00 00 00 00 00 00 00
   3.766000 1  18F159F3x       Rx   d 8 00 00 00 00 00 00 00 00
   3.767000 1  18F15AF3x       Rx   d 8 00 00 00 00 00 00 00 00
   3.769000 1  18F15BF3x       Rx   d 7 00 00 00 00 00 00 00
   3.772000 1  18F15CF3x       Rx   d 8 00 00 00 00 00 00 00 00
   3.773000 1  18F15DF3x       Rx   d 8 00 00 00 00 00 00 00 00
   3.775000 1  18F15EF3x       Rx   d 8 00 00 00 00 00 00 00 00
   3.777000 1  CFF21CAx        Rx   d 8 30 00 DC 16 3B 38 00 24
   3.779000 1  18F100D0x       Rx   d 8 0C FF FF FF FF FF FF FF
   3.780000 1  CFF21CAx        Rx   d 8 31 00 E2 16 3B 38 00 24
   3.783000 1  CFF21CAx        Rx   d 8 31 00 EB 16 3B 38 00 24
   3.785000 1  18F100D0x       Rx   d 8 0C FF FF FF FF FF FF FF
   3.787000 1  CFF21CAx        Rx   d 8 31 00 F2 16 3B 38 00 24
   3.789000 1  CFF21CAx        Rx   d 8 30 00 F9 16 3B 38 00 24
   3.790000 1  18FF2112x       Rx   d 8 01 00 00 00 00 00 00 00
   3.792000 1  18F100D0x       Rx   d 8 0C FF FF FF FF FF FF FF
   3.794000 1  CFF21CAx        Rx   d 8 30 00 01 17 3B 38 00 24
   3.795000 1  CFF21CAx        Rx   d 8 30 00 04 17 3B 38 00 24
   3.797000 1  18F100F3x       Rx   d 8 02 EC 7E AF 98 FA 14 00
   3.798000 1  18F102F3x       Rx   d 8 0E A0 0E 97 0D 0A 00 09
   3.799000 1  18F100D0x       Rx   d 8 0C FF FF FF FF FF FF FF
   3.801000 1  18F106F3x       Rx   d 8 45 E0 FC FF FF FF FF FF
   3.853000 1  18F107F3x       Rx   d 8 38 A4 30 70 01 51 00 B4
   3.855000 1  CFF21CAx        Rx   d 8 30 00 11 17 3B 38 00 24
   3.857000 1  18F108F3x       Rx   d 8 00 00 00 00 00 00 00 00
   3.859000 1  18F155F3x       Rx   d 8 36 35 36 36 35 36 36 00
   3.861000 1  18F156F3x       Rx   d 8 00 00 00 00 00 00 00 00
   3.862000 1  18F157F3x       Rx   d 8 00 00 00 00 00 00 00 00
   3.864000 1  18F158F3x       Rx   d 8 00 00 00 00 00 00 00 00
   3.866000 1  18F159F3x       Rx   d 8 00 00 00 00 00 00 00 00
   3.868000 1  18F15AF3x       Rx   d 8 00 00 00 00 00 00 00 00
   3.870000 1  CFF21CAx        Rx   d 8 31 00 28 17 3B 38 00 24
   3.872000 1  CFF21CAx        Rx   d 8 31 00 2D 17 3B 38 00 24
   3.874000 1  18F100D0x       Rx   d 8 0C FF FF FF FF FF FF FF
   3.876000 1  CFF21CAx        Rx   d 8 31 00 36 17 3B 38 00 24
   3.878000 1  18FF2112x       Rx   d 8 01 00 00 00 00 00 00 00
   3.880000 1  CFF21CAx        Rx   d 8 31 00 3D 17 3B 38 00 24
   3.881000 1  18F100D0x       Rx   d 8 0C FF FF FF FF FF FF FF
   3.883000 1  CFF21CAx        Rx   d 8 31 00 3F 17 3B 38 00 24
   3.885000 1  18F100F3x       Rx   d 8 02 EC 7E BC 98 FA 14 00
   3.887000 1  18F102F3x       Rx   d 8 0E A0 0E 97 0D 0A 00 09
   3.888000 1  CFF21CAx        Rx   d 8 31 00 4C 17 3B 38 00 24
   3.891000 1  18F100D0x       Rx   d 8 0C FF FF FF FF FF FF FF
   3.892000 1  18F106F3x       Rx   d 8 45 E0 FC FF FF FF FF FF
   3.894000 1  18F107F3x       Rx   d 8 38 A4 30 70 01 51 00 B4
   3.896000 1  18F108F3x       Rx   d 8 00 00 00 00 00 00 00 00
   3.897000 1  18F155F3x       Rx   d 8 36 35 36 36 35 36 36 00
   3.898000 1  18F156F3x       Rx   d 8 00 00 00 00 00 00 00 00
   3.900000 1  18F157F3x       Rx   d 8 00 00 00 00 00 00 00 00
   3.901000 1  18F158F3x       Rx   d 8 00 00 00 00 00 00 00 00
   3.903000 1  18F159F3x       Rx   d 8 00 00 00 00 00 00 00 00
   3.953000 1  18F15AF3x       Rx   d 8 00 00 00 00 00 00 00 00
   3.955000 1  18F15BF3x       Rx   d 7 00 00 00 00 00 00 00
   3.957000 1  18F15CF3x       Rx   d 8 00 00 00 00 00 00 00 00
   3.959000 1  CFF21CAx        Rx   d 8 31 00 54 17 3B 38 00 24
   3.961000 1  18F15DF3x       Rx   d 8 00 00 00 00 00 00 00 00
   3.963000 1  18F15EF3x       Rx   d 8 00 00 00 00 00 00 00 00
   3.965000 1  CFF21CAx        Rx   d 8 32 00 58 17 3B 38 00 24
   3.966000 1  18F100D0x       Rx   d 8 0C FF FF FF FF FF FF FF
   3.969000 1  18FECACAx       Rx   d 8 00 00 00 00 00 00 FF FF
   3.970000 1  CFF21CAx        Rx   d 8 32 00 65 17 3B 38 00 24
   3.972000 1  CFF21CAx        Rx   d 8 32 00 65 17 3B 38 00 24
   3.974000 1  18F100D0x       Rx   d 8 0C FF FF FF FF FF FF FF
   3.976000 1  CFF21CAx        Rx   d 8 31 00 6C 17 3B 38 00 24
   3.978000 1  18FF2112x       Rx   d 8 01 00 00 00 00 00 00 00
   3.979000 1  CFF21CAx        Rx   d 8 31 00 74 17 3B 38 00 24
   3.980000 1  18F100D0x       Rx   d 8 0C FF FF FF FF FF FF FF
   3.982000 1  CFF21CAx        Rx   d 8 31 00 79 17 3B 38 00 24
   3.983000 1  CFF21CAx        Rx   d 8 2F 00 7B 17 3B 38 00 24
   3.984000 1  18F100F3x       Rx   d 8 02 EC 7E BC 98 FA 14 00
   3.986000 1  18F102F3x       Rx   d 8 0E A0 0E 97 0D 0A 00 09
   4.001000 1  18F106F3x       Rx   d 8 45 E0 FC FF FF FF FF FF
   4.057000 1  18F107F3x       Rx   d 8 38 A4 30 70 01 51 00 B4
   4.064000 1  18F108F3x       Rx   d 8 00 00 00 00 00 00 00 00
   4.066000 1  18F155F3x       Rx   d 8 36 35 36 36 35 36 36 00
   4.068000 1  18F100D0x       Rx   d 8 0C FF FF FF FF FF FF FF
   4.070000 1  18F156F3x       Rx   d 8 00 00 00 00 00 00 00 00
   4.072000 1  18F157F3x       Rx   d 8 00 00 00 00 00 00 00 00
   4.074000 1  18F158F3x       Rx   d 8 00 00 00 00 00 00 00 00
   4.076000 1  18F159F3x       Rx   d 8 00 00 00 00 00 00 00 00
   4.077000 1  CFF21CAx        Rx   d 8 2F 00 84 17 3B 38 00 24
   4.079000 1  18F15AF3x       Rx   d 8 00 00 00 00 00 00 00 00
   4.081000 1  18F15BF3x       Rx   d 7 00 00 00 00 00 00 00
   4.083000 1  18F15CF3x       Rx   d 8 00 00 00 00 00 00 00 00
   4.084000 1  18F15DF3x       Rx   d 8 00 00 00 00 00 00 00 00
   4.087000 1  18F15EF3x       Rx   d 8 00 00 00 00 00 00 00 00
   4.088000 1  CFF21CAx        Rx   d 8 2D 00 86 17 3B 38 00 24
   4.090000 1  18F100D0x       Rx   d 8 0C FF FF FF FF FF FF FF
   4.092000 1  CFF21CAx        Rx   d 8 2D 00 89 17 3B 38 00 24
   4.095000 1  CFF21CAx        Rx   d 8 2D 00 89 17 3B 38 00 24
   4.097000 1  18F100D0x       Rx   d 8 0C FF FF FF FF FF FF FF
   4.099000 1  CFF21CAx        Rx   d 8 2B 00 8C 17 3B 38 00 24
   4.100000 1  18FF2112x       Rx   d 8 01 00 00 00 00 00 00 00
   4.102000 1  CFF21CAx        Rx   d 8 2B 00 8A 17 3B 38 00 24
   4.103000 1  CFF21CAx        Rx   d 8 29 00 8B 17 3B 38 00 24
   4.104000 1  18F100D0x       Rx   d 8 0C FF FF FF FF FF FF FF
   4.106000 1  CFF21CAx        Rx   d 8 29 00 8F 17 3B 38 00 24
   4.107000 1  18F100F3x       Rx   d 8 02 EC 7E BC 98 FA 14 00
   4.160000 1  18F102F3x       Rx   d 8 0E 9F 0E 96 13 0A 00 09
   4.162000 1  18F106F3x       Rx   d 8 45 E0 FC FF FF FF FF FF
   4.163000 1  18F107F3x       Rx   d 8 38 A4 30 70 01 51 00 B4
   4.166000 1  18F108F3x       Rx   d 8 00 00 00 00 00 00 00 00
   4.167000 1  18F155F3x       Rx   d 8 36 35 36 36 35 36 36 00
   4.170000 1  CFF21CAx        Rx   d 8 29 00 8E 17 3B 38 00 24
   4.171000 1  18F100D0x       Rx   d 8 0C FF FF FF FF FF FF FF
   4.173000 1  18F156F3x       Rx   d 8 00 00 00 00 00 00 00 00
   4.175000 1  18F157F3x       Rx   d 8 00 00 00 00 00 00 00 00
   4.177000 1  18F158F3x       Rx   d 8 00 00 00 00 00 00 00 00
   4.179000 1  18F159F3x       Rx   d 8 00 00 00 00 00 00 00 00
   4.181000 1  18F15AF3x       Rx   d 8 00 00 00 00 00 00 00 00
   4.183000 1  18F15BF3x       Rx   d 7 00 00 00 00 00 00 00
   4.185000 1  18F15CF3x       Rx   d 8 00 00 00 00 00 00 00 00
   4.186000 1  18F15DF3x       Rx   d 8 00 00 00 00 00 00 00 00
   4.189000 1  18F15EF3x       Rx   d 8 00 00 00 00 00 00 00 00
   4.190000 1  CFF21CAx        Rx   d 8 25 00 8E 17 3B 38 00 24
   4.192000 1  CFF21CAx        Rx   d 8 25 00 8D 17 3B 38 00 24
   4.194000 1  18F100D0x       Rx   d 8 0C FF FF FF FF FF FF FF
   4.196000 1  CFF21CAx        Rx   d 8 25 00 89 17 3B 38 00 24
   4.198000 1  CFF21CAx        Rx   d 8 23 00 8F 17 3B 38 00 24
   4.200000 1  18F100D0x       Rx   d 8 0C FF FF FF FF FF FF FF
   4.201000 1  18FF2112x       Rx   d 8 01 00 00 00 00 00 00 00
   4.203000 1  CFF21CAx        Rx   d 8 23 00 8A 17 3B 38 00 24
   4.204000 1  CFF21CAx        Rx   d 8 21 00 8A 17 3B 38 00 24
   4.206000 1  18F100D0x       Rx   d 8 0C FF FF FF FF FF FF FF
   4.207000 1  CFF21CAx        Rx   d 8 21 00 88 17 3B 38 00 24
   4.209000 1  18F100F3x       Rx   d 8 02 EC 7E 90 98 FA 14 00
   4.210000 1  18F102F3x       Rx   d 8 0E 9F 0E 96 13 0A 00 09
   4.262000 1  18F106F3x       Rx   d 8 45 E0 FC FF FF FF FF FF
   4.264000 1  CFF21CAx        Rx   d 8 21 00 88 17 3B 38 00 24
   4.265000 1  18F107F3x       Rx   d 8 38 A4 30 70 01 51 00 B4
   4.268000 1  18F108F3x       Rx   d 8 00 00 00 00 00 00 00 00
   4.270000 1  18F155F3x       Rx   d 8 36 35 36 36 35 36 36 00
   4.271000 1  18F100D0x       Rx   d 8 0C FF FF FF FF FF FF FF
   4.273000 1  18F156F3x       Rx   d 8 00 00 00 00 00 00 00 00
   4.275000 1  18F157F3x       Rx   d 8 00 00 00 00 00 00 00 00
   4.277000 1  18F158F3x       Rx   d 8 00 00 00 00 00 00 00 00
   4.278000 1  18F159F3x       Rx   d 8 00 00 00 00 00 00 00 00
   4.280000 1  18F15AF3x       Rx   d 8 00 00 00 00 00 00 00 00
   4.282000 1  18F15BF3x       Rx   d 7 00 00 00 00 00 00 00
   4.284000 1  18F15CF3x       Rx   d 8 00 00 00 00 00 00 00 00
   4.285000 1  18F15DF3x       Rx   d 8 00 00 00 00 00 00 00 00
   4.287000 1  18F15EF3x       Rx   d 8 00 00 00 00 00 00 00 00
   4.290000 1  CFF21CAx        Rx   d 8 21 00 88 17 3B 38 00 24
   4.291000 1  CFF21CAx        Rx   d 8 21 00 86 17 3B 38 00 24
   4.293000 1  18F100D0x       Rx   d 8 0C FF FF FF FF FF FF FF
   4.295000 1  CFF21CAx        Rx   d 8 21 00 85 17 3B 38 00 24
   4.297000 1  CFF21CAx        Rx   d 8 20 00 84 17 3B 38 00 24
   4.299000 1  18FF2112x       Rx   d 8 01 00 00 00 00 00 00 00
   4.300000 1  18F100D0x       Rx   d 8 0C FF FF FF FF FF FF FF
   4.302000 1  CFF21CAx        Rx   d 8 20 00 83 17 3B 38 00 24
   4.304000 1  CFF21CAx        Rx   d 8 20 00 82 17 3B 38 00 24
   4.306000 1  18F100D0x       Rx   d 8 0C FF FF FF FF FF FF FF
   4.307000 1  CFF21CAx        Rx   d 8 1F 00 82 17 3B 38 00 24
   4.309000 1  CFF21CAx        Rx   d 8 1F 00 7B 17 3B 38 00 24
   4.310000 1  18F100F3x       Rx   d 8 02 EC 7E 90 98 FA 14 00
   4.312000 1  18F102F3x       Rx   d 8 0E 9F 0E 96 13 0A 00 09
   4.313000 1  18F106F3x       Rx   d 8 45 E0 FC FF FF FF FF FF
   4.362000 1  18F107F3x       Rx   d 8 38 A4 30 70 01 51 00 B4
   4.364000 1  18F108F3x       Rx   d 8 00 00 00 00 00 00 00 00
   4.365000 1  18F155F3x       Rx   d 8 36 35 36 36 35 36 36 00
   4.367000 1  18F156F3x       Rx   d 8 00 00 00 00 00 00 00 00
   4.369000 1  18F100D0x       Rx   d 8 0C FF FF FF FF FF FF FF
   4.371000 1  18F157F3x       Rx   d 8 00 00 00 00 00 00 00 00
   4.373000 1  18F158F3x       Rx   d 8 00 00 00 00 00 00 00 00
   4.375000 1  18F159F3x       Rx   d 8 00 00 00 00 00 00 00 00
   4.377000 1  18F15AF3x       Rx   d 8 00 00 00 00 00 00 00 00
   4.379000 1  CFF21CAx        Rx   d 8 1F 00 7F 17 3B 38 00 24
   4.380000 1  18F15BF3x       Rx   d 7 00 00 00 00 00 00 00
   4.382000 1  18F15CF3x       Rx   d 8 00 00 00 00 00 00 00 00
   4.384000 1  18F15DF3x       Rx   d 8 00 00 00 00 00 00 00 00
   4.386000 1  18F15EF3x       Rx   d 8 00 00 00 00 00 00 00 00
   4.388000 1  CFF21CAx        Rx   d 8 1F 00 7D 17 3B 38 00 24
   4.390000 1  18F100D0x       Rx   d 8 0C FF FF FF FF FF FF FF
   4.392000 1  CFF21CAx        Rx   d 8 1F 00 7C 17 3B 38 00 24
   4.394000 1  CFF21CAx        Rx   d 8 1F 00 79 17 3B 38 00 24
   4.396000 1  18FF2112x       Rx   d 8 01 00 00 00 00 00 00 00
   4.398000 1  CFF21CAx        Rx   d 8 1F 00 76 17 3B 38 00 24
   4.400000 1  18F100D0x       Rx   d 8 0C FF FF FF FF FF FF FF
   4.402000 1  CFF21CAx        Rx   d 8 1E 00 7B 17 3B 38 00 24
   4.404000 1  CFF21CAx        Rx   d 8 1E 00 77 17 3B 38 00 24
   4.406000 1  18F100D0x       Rx   d 8 0C FF FF FF FF FF FF FF
   4.407000 1  CFF21CAx        Rx   d 8 1E 00 7A 17 3B 38 00 24
   4.409000 1  18F100F3x       Rx   d 8 02 EC 7E 4B 98 FA 14 00
   4.410000 1  18F102F3x       Rx   d 8 0E 9F 0E 96 13 0A 00 09
   4.412000 1  18F106F3x       Rx   d 8 45 E0 FC FF FF FF FF FF
   4.413000 1  18F107F3x       Rx   d 8 38 A4 30 70 01 51 00 B4
   4.415000 1  18F108F3x       Rx   d 8 00 00 00 00 00 00 00 00
   4.465000 1  18F155F3x       Rx   d 8 36 35 36 36 35 36 36 00
   4.467000 1  18F156F3x       Rx   d 8 00 00 00 00 00 00 00 00
   4.469000 1  CFF21CAx        Rx   d 8 1E 00 76 17 3B 38 00 24
   4.471000 1  18F100D0x       Rx   d 8 0C FF FF FF FF FF FF FF
   4.473000 1  18F157F3x       Rx   d 8 00 00 00 00 00 00 00 00
   4.475000 1  18F158F3x       Rx   d 8 00 00 00 00 00 00 00 00
   4.477000 1  18F159F3x       Rx   d 8 00 00 00 00 00 00 00 00
   4.479000 1  18F15AF3x       Rx   d 8 00 00 00 00 00 00 00 00
   4.480000 1  18F15BF3x       Rx   d 7 00 00 00 00 00 00 00
   4.482000 1  18F15CF3x       Rx   d 8 00 00 00 00 00 00 00 00
   4.484000 1  18F15DF3x       Rx   d 8 00 00 00 00 00 00 00 00
   4.486000 1  18F15EF3x       Rx   d 8 00 00 00 00 00 00 00 00
   4.488000 1  CFF21CAx        Rx   d 8 1E 00 76 17 3B 38 00 24
   4.490000 1  CFF21CAx        Rx   d 8 1E 00 74 17 3B 38 00 24
   4.492000 1  CFF21CAx        Rx   d 8 1F 00 73 17 3B 38 00 24
   4.494000 1  18F104F3x       Rx   d 8 36 35 01 02 01 FF FF FF
   4.496000 1  18F113F3x       Rx   d 8 0E 9E 0E 9A 0E 9D 0E 9B
   4.498000 1  18F114F3x       Rx   d 8 0E 99 0E 99 0E 9D 0E 9A
   4.499000 1  18F115F3x       Rx   d 8 0E 99 0E 96 0E 9A 0E 9A
   4.501000 1  CFF21CAx        Rx   d 8 1F 00 73 17 3B 38 00 24
   4.503000 1  18F116F3x       Rx   d 8 0E 9E 0E 98 0E 9E 0E 9D
   4.505000 1  18F117F3x       Rx   d 8 0E 98 0E 9A 0E 9F 0E 9E
   4.507000 1  18F118F3x       Rx   d 8 00 00 00 00 00 00 00 00
   4.509000 1  18F100D0x       Rx   d 8 0C FF FF FF FF FF FF FF
   4.510000 1  18F119F3x       Rx   d 8 00 00 00 00 00 00 00 00
   4.512000 1  18F11AF3x       Rx   d 8 00 00 00 00 00 00 00 00
   4.513000 1  18F11BF3x       Rx   d 8 00 00 00 00 00 00 00 00
   4.514000 1  18F11CF3x       Rx   d 8 00 00 00 00 00 00 00 00
   4.516000 1  18F11DF3x       Rx   d 8 00 00 00 00 00 00 00 00
   4.517000 1  18F11EF3x       Rx   d 8 00 00 00 00 00 00 00 00
   4.567000 1  CFF21CAx        Rx   d 8 1F 00 72 17 3B 38 00 24
   4.569000 1  18F122F3x       Rx   d 8 00 00 00 00 00 00 00 00
   4.571000 1  18F124F3x       Rx   d 8 00 00 00 00 00 00 00 00
   4.573000 1  18F126F3x       Rx   d 8 00 00 00 00 00 00 00 00
   4.574000 1  18F127F3x       Rx   d 8 00 00 00 00 00 00 00 00
   4.577000 1  18F129F3x       Rx   d 8 00 00 00 00 00 00 00 00
   4.579000 1  18F100F3x       Rx   d 8 02 EC 7E 4B 98 FA 14 00
   4.581000 1  18F106F3x       Rx   d 8 45 E0 FC FF FF FF FF FF
   4.583000 1  CFF21CAx        Rx   d 8 1F 00 72 17 3B 38 00 24
   4.585000 1  18F100D0x       Rx   d 8 0C FF FF FF FF FF FF FF
   4.586000 1  CFF21CAx        Rx   d 8 20 00 6F 17 3B 38 00 24
   4.588000 1  CFF21CAx        Rx   d 8 20 00 70 17 3B 38 00 24
   4.591000 1  18F100D0x       Rx   d 8 0C FF FF FF FF FF FF FF
   4.592000 1  CFF21CAx        Rx   d 8 20 00 6E 17 3B 38 00 24
   4.594000 1  18F100F3x       Rx   d 8 02 EC 7E 4B 98 FA 14 00
   4.596000 1  CFF21CAx        Rx   d 8 21 00 70 17 3B 38 00 24
   4.598000 1  18F102F3x       Rx   d 8 0E 9F 0E 96 13 0A 00 09
   4.600000 1  18F106F3x       Rx   d 8 45 E0 FC FF FF FF FF FF
   4.602000 1  18F107F3x       Rx   d 8 38 A4 30 70 01 51 00 B4
   4.604000 1  18F108F3x       Rx   d 8 00 00 00 00 00 00 00 00
   4.606000 1  18F155F3x       Rx   d 8 36 35 36 36 35 36 36 00
   4.608000 1  18F156F3x       Rx   d 8 00 00 00 00 00 00 00 00
   4.610000 1  18F157F3x       Rx   d 8 00 00 00 00 00 00 00 00
   4.612000 1  18F100D0x       Rx   d 8 0C FF FF FF FF FF FF FF
   4.614000 1  18F158F3x       Rx   d 8 00 00 00 00 00 00 00 00
   4.615000 1  18F159F3x       Rx   d 8 00 00 00 00 00 00 00 00
   4.616000 1  18F15AF3x       Rx   d 8 00 00 00 00 00 00 00 00
   4.618000 1  18F15BF3x       Rx   d 7 00 00 00 00 00 00 00
   4.619000 1  CFF21CAx        Rx   d 8 21 00 70 17 3B 38 00 24
   4.621000 1  18F15CF3x       Rx   d 8 00 00 00 00 00 00 00 00
   4.671000 1  18F15DF3x       Rx   d 8 00 00 00 00 00 00 00 00
   4.673000 1  18F15EF3x       Rx   d 8 00 00 00 00 00 00 00 00
   4.674000 1  CFF21CAx        Rx   d 8 21 00 6E 17 3B 38 00 24
   4.676000 1  18F100D0x       Rx   d 8 0C FF FF FF FF FF FF FF
   4.679000 1  CFF21CAx        Rx   d 8 21 00 6C 17 3B 38 00 24
   4.681000 1  18FF2112x       Rx   d 8 01 00 00 00 00 00 00 00
   4.682000 1  CFF21CAx        Rx   d 8 21 00 70 17 3B 38 00 24
   4.684000 1  CFF21CAx        Rx   d 8 21 00 6B 17 3B 38 00 24
   4.686000 1  18F100D0x       Rx   d 8 0C FF FF FF FF FF FF FF
   4.688000 1  CFF21CAx        Rx   d 8 21 00 71 17 3B 38 00 24
   4.690000 1  CFF21CAx        Rx   d 8 21 00 6F 17 3B 38 00 24
   4.692000 1  18F100D0x       Rx   d 8 0C FF FF FF FF FF FF FF
   4.694000 1  CFF21CAx        Rx   d 8 21 00 72 17 3B 38 00 24
   4.696000 1  18F100F3x       Rx   d 8 02 EC 7E 54 98 FA 14 00
   4.698000 1  18F102F3x       Rx   d 8 0E 9F 0E 97 13 0A 00 08
   4.700000 1  18F106F3x       Rx   d 8 45 E0 FC FF FF FF FF FF
   4.702000 1  18F107F3x       Rx   d 8 38 A4 30 70 01 51 00 B4
   4.703000 1  18F108F3x       Rx   d 8 00 00 00 00 00 00 00 00
   4.705000 1  18F155F3x       Rx   d 8 36 35 36 36 35 36 36 00
   4.707000 1  18F156F3x       Rx   d 8 00 00 00 00 00 00 00 00
   4.709000 1  18F157F3x       Rx   d 8 00 00 00 00 00 00 00 00
   4.711000 1  CFF21CAx        Rx   d 8 21 00 6F 17 3B 38 00 24
   4.713000 1  18F100D0x       Rx   d 8 0C FF FF FF FF FF FF FF
   4.714000 1  18F158F3x       Rx   d 8 00 00 00 00 00 00 00 00
   4.716000 1  18F159F3x       Rx   d 8 00 00 00 00 00 00 00 00
   4.717000 1  18F15AF3x       Rx   d 8 00 00 00 00 00 00 00 00
   4.719000 1  18F15BF3x       Rx   d 7 00 00 00 00 00 00 00
   4.720000 1  18F15CF3x       Rx   d 8 00 00 00 00 00 00 00 00
   4.721000 1  18F15DF3x       Rx   d 8 00 00 00 00 00 00 00 00
   4.771000 1  18F15EF3x       Rx   d 8 00 00 00 00 00 00 00 00
   4.774000 1  CFF21CAx        Rx   d 8 21 00 70 17 3B 38 00 24
   4.776000 1  CFF21CAx        Rx   d 8 22 00 70 17 3B 38 00 24
   4.778000 1  18F100D0x       Rx   d 8 0C FF FF FF FF FF FF FF
   4.780000 1  18FF2112x       Rx   d 8 01 00 00 00 00 00 00 00
   4.781000 1  CFF21CAx        Rx   d 8 22 00 6F 17 3B 38 00 24
   4.783000 1  CFF21CAx        Rx   d 8 21 00 70 17 3B 38 00 24
   4.785000 1  18F100D0x       Rx   d 8 0C FF FF FF FF FF FF FF
   4.787000 1  CFF21CAx        Rx   d 8 21 00 70 17 3B 38 00 24
   4.789000 1  CFF21CAx        Rx   d 8 21 00 6E 17 3B 38 00 24
   4.791000 1  18F100D0x       Rx   d 8 0C FF FF FF FF FF FF FF
   4.792000 1  CFF21CAx        Rx   d 8 22 00 70 17 3B 38 00 24
   4.794000 1  18F100F3x       Rx   d 8 02 EC 7E 54 98 FA 14 00
   4.797000 1  18F102F3x       Rx   d 8 0E 9F 0E 97 13 0A 00 08
   4.798000 1  18F106F3x       Rx   d 8 45 E0 FC FF FF FF FF FF
   4.800000 1  18F107F3x       Rx   d 8 38 A4 30 70 01 51 00 B4
   4.803000 1  18F108F3x       Rx   d 8 00 00 00 00 00 00 00 00
   4.804000 1  CFF21CAx        Rx   d 8 22 00 6D 17 3B 38 00 24
   4.806000 1  18F155F3x       Rx   d 8 36 35 36 36 35 36 36 00
   4.808000 1  18F156F3x       Rx   d 8 00 00 00 00 00 00 00 00
   4.810000 1  18F157F3x       Rx   d 8 00 00 00 00 00 00 00 00
   4.812000 1  18F158F3x       Rx   d 8 00 00 00 00 00 00 00 00
   4.814000 1  18F100D0x       Rx   d 8 0C FF FF FF FF FF FF FF
   4.815000 1  18F159F3x       Rx   d 8 00 00 00 00 00 00 00 00
   4.817000 1  18F15AF3x       Rx   d 8 00 00 00 00 00 00 00 00
   4.819000 1  18F15BF3x       Rx   d 7 00 00 00 00 00 00 00
   4.820000 1  18F15CF3x       Rx   d 8 00 00 00 00 00 00 00 00
   4.821000 1  18F15DF3x       Rx   d 8 00 00 00 00 00 00 00 00
   4.823000 1  18F15EF3x       Rx   d 8 00 00 00 00 00 00 00 00
   4.824000 1  CFF21CAx        Rx   d 8 22 00 6D 17 3B 38 00 24
   4.876000 1  CFF21CAx        Rx   d 8 22 00 6E 17 3B 38 00 24
   4.878000 1  18F100D0x       Rx   d 8 0C FF FF FF FF FF FF FF
   4.880000 1  18FF2112x       Rx   d 8 01 00 00 00 00 00 00 00
   4.882000 1  CFF21CAx        Rx   d 8 22 00 6E 17 3B 38 00 24
   4.884000 1  CFF21CAx        Rx   d 8 22 00 72 17 3B 38 00 24
   4.886000 1  18F100D0x       Rx   d 8 0C FF FF FF FF FF FF FF
   4.887000 1  CFF21CAx        Rx   d 8 22 00 6F 17 3B 38 00 24
   4.889000 1  CFF21CAx        Rx   d 8 22 00 70 17 3B 38 00 24
   4.891000 1  18F100D0x       Rx   d 8 0C FF FF FF FF FF FF FF
   4.892000 1  CFF21CAx        Rx   d 8 21 00 6E 17 3B 38 00 24
   4.895000 1  18F100F3x       Rx   d 8 02 EC 7E 59 98 FA 14 00
   4.896000 1  18F102F3x       Rx   d 8 0E 9F 0E 97 13 0A 00 08
   4.898000 1  CFF21CAx        Rx   d 8 21 00 70 17 3B 38 00 24
   4.900000 1  18F106F3x       Rx   d 8 45 E0 FC FF FF FF FF FF
   4.902000 1  18F107F3x       Rx   d 8 38 A4 30 70 01 51 00 B4
   4.904000 1  18F108F3x       Rx   d 8 00 00 00 00 00 00 00 00
   4.906000 1  18F155F3x       Rx   d 8 36 35 36 36 35 36 36 00
   4.908000 1  18F156F3x       Rx   d 8 00 00 00 00 00 00 00 00
   4.910000 1  18F157F3x       Rx   d 8 00 00 00 00 00 00 00 00
   4.912000 1  18F158F3x       Rx   d 8 00 00 00 00 00 00 00 00
   4.914000 1  18F100D0x       Rx   d 8 0C FF FF FF FF FF FF FF
   4.916000 1  18F159F3x       Rx   d 8 00 00 00 00 00 00 00 00
   4.917000 1  18F15AF3x       Rx   d 8 00 00 00 00 00 00 00 00
   4.919000 1  18F15BF3x       Rx   d 7 00 00 00 00 00 00 00
   4.920000 1  18F15CF3x       Rx   d 8 00 00 00 00 00 00 00 00
   4.922000 1  18F15DF3x       Rx   d 8 00 00 00 00 00 00 00 00
   4.923000 1  CFF21CAx        Rx   d 8 21 00 72 17 3B 38 00 24
   4.924000 1  18F15EF3x       Rx   d 8 00 00 00 00 00 00 00 00
   4.926000 1  CFF21CAx        Rx   d 8 21 00 6F 17 3B 38 00 24
   4.980000 1  18F100D0x       Rx   d 8 0C FF FF FF FF FF FF FF
   4.981000 1  18FF2112x       Rx   d 8 01 00 00 00 00 00 00 00
   4.983000 1  CFF21CAx        Rx   d 8 21 00 70 17 3B 38 00 24
   4.985000 1  CFF21CAx        Rx   d 8 21 00 70 17 3B 38 00 24
   4.987000 1  18FECACAx       Rx   d 8 00 00 00 00 00 00 FF FF
   4.989000 1  18F100D0x       Rx   d 8 0C FF FF FF FF FF FF FF
   4.991000 1  CFF21CAx        Rx   d 8 21 00 6C 17 3B 38 00 24
   4.993000 1  CFF21CAx        Rx   d 8 21 00 71 17 3B 38 00 24
   4.995000 1  CFF21CAx        Rx   d 8 21 00 6F 17 3B 38 00 24
   4.996000 1  18F100D0x       Rx   d 8 0C FF FF FF FF FF FF FF
   4.999000 1  CFF21CAx        Rx   d 8 21 00 71 17 3B 38 00 24
   5.000000 1  18F100F3x       Rx   d 8 02 EC 7E 59 98 FA 14 00
   5.003000 1  18F102F3x       Rx   d 8 0E 9F 0E 97 13 0A 00 08
   5.005000 1  18F106F3x       Rx   d 8 45 E0 FC FF FF FF FF FF
   5.007000 1  18F107F3x       Rx   d 8 38 A4 30 70 01 51 00 B4
   5.009000 1  18F108F3x       Rx   d 8 00 00 00 00 00 00 00 00
   5.011000 1  18F155F3x       Rx   d 8 36 35 36 36 35 36 36 00
   5.013000 1  18F156F3x       Rx   d 8 00 00 00 00 00 00 00 00
   5.015000 1  18F157F3x       Rx   d 8 00 00 00 00 00 00 00 00
   5.017000 1  18F158F3x       Rx   d 8 00 00 00 00 00 00 00 00
   5.019000 1  18F159F3x       Rx   d 8 00 00 00 00 00 00 00 00
   5.020000 1  CFF21CAx        Rx   d 8 21 00 6F 17 3B 38 00 24
   5.022000 1  18F15AF3x       Rx   d 8 00 00 00 00 00 00 00 00
   5.024000 1  18F15BF3x       Rx   d 7 00 00 00 00 00 00 00
   5.025000 1  18F15CF3x       Rx   d 8 00 00 00 00 00 00 00 00
   5.026000 1  18F15DF3x       Rx   d 8 00 00 00 00 00 00 00 00
   5.028000 1  18F100D0x       Rx   d 8 0C FF FF FF FF FF FF FF
   5.029000 1  18F15EF3x       Rx   d 8 00 00 00 00 00 00 00 00
   5.081000 1  CFF21CAx        Rx   d 8 21 00 6E 17 3B 38 00 24
   5.083000 1  CFF21CAx        Rx   d 8 21 00 6F 17 3B 38 00 24
   5.085000 1  18F100D0x       Rx   d 8 0C FF FF FF FF FF FF FF
   5.087000 1  18FF2112x       Rx   d 8 01 00 00 00 00 00 00 00
   5.089000 1  CFF21CAx        Rx   d 8 22 00 6E 17 3B 38 00 24
   5.091000 1  CFF21CAx        Rx   d 8 22 00 6F 17 3B 38 00 24
   5.092000 1  18F100D0x       Rx   d 8 0C FF FF FF FF FF FF FF
   5.094000 1  CFF21CAx        Rx   d 8 22 00 6F 17 3B 38 00 24
   5.096000 1  CFF21CAx        Rx   d 8 22 00 6F 17 3B 38 00 24
   5.099000 1  18F100D0x       Rx   d 8 0C FF FF FF FF FF FF FF
   5.100000 1  CFF21CAx        Rx   d 8 22 00 70 17 3B 38 00 24
   5.102000 1  18F100F3x       Rx   d 8 02 EC 7E 59 98 FA 14 00
   5.104000 1  18F102F3x       Rx   d 8 0E 9F 0E 96 13 0A 00 09
   5.106000 1  18F106F3x       Rx   d 8 45 E0 FC FF FF FF FF FF
   5.108000 1  18F107F3x       Rx   d 8 38 A4 30 70 01 51 00 B4
   5.110000 1  18F108F3x       Rx   d 8 00 00 00 00 00 00 00 00
   5.112000 1  18F155F3x       Rx   d 8 36 35 36 36 35 36 36 00
   5.114000 1  CFF21CAx        Rx   d 8 22 00 6F 17 3B 38 00 24
   5.116000 1  18F156F3x       Rx   d 8 00 00 00 00 00 00 00 00
   5.118000 1  18F157F3x       Rx   d 8 00 00 00 00 00 00 00 00
   5.120000 1  18F158F3x       Rx   d 8 00 00 00 00 00 00 00 00
   5.122000 1  18F159F3x       Rx   d 8 00 00 00 00 00 00 00 00
   5.123000 1  18F100D0x       Rx   d 8 0C FF FF FF FF FF FF FF
   5.125000 1  18F15AF3x       Rx   d 8 00 00 00 00 00 00 00 00
   5.126000 1  18F15BF3x       Rx   d 7 00 00 00 00 00 00 00
   5.127000 1  18F15CF3x       Rx   d 8 00 00 00 00 00 00 00 00
   5.129000 1  18F15DF3x       Rx   d 8 00 00 00 00 00 00 00 00
   5.130000 1  18F15EF3x       Rx   d 8 00 00 00 00 00 00 00 00
   5.132000 1  CFF21CAx        Rx   d 8 22 00 71 17 3B 38 00 24
   5.181000 1  CFF21CAx        Rx   d 8 22 00 71 17 3B 38 00 24
   5.183000 1  18FF2112x       Rx   d 8 01 00 00 00 00 00 00 00
   5.185000 1  18F100D0x       Rx   d 8 0C FF FF FF FF FF FF FF
   5.187000 1  CFF21CAx        Rx   d 8 22 00 6F 17 3B 38 00 24
   5.189000 1  CFF21CAx        Rx   d 8 21 00 6D 17 3B 38 00 24
   5.191000 1  18F100D0x       Rx   d 8 0C FF FF FF FF FF FF FF
   5.193000 1  CFF21CAx        Rx   d 8 21 00 6D 17 3B 38 00 24
   5.195000 1  CFF21CAx        Rx   d 8 21 00 69 17 3B 38 00 24
   5.197000 1  18F100D0x       Rx   d 8 0C FF FF FF FF FF FF FF
   5.199000 1  CFF21CAx        Rx   d 8 21 00 6C 17 3B 38 00 24
   5.201000 1  18F100F3x       Rx   d 8 02 EC 7E 57 98 FA 14 00
   5.203000 1  18F102F3x       Rx   d 8 0E 9F 0E 96 13 0A 00 09
   5.205000 1  18F106F3x       Rx   d 8 45 E0 FC FF FF FF FF FF
   5.206000 1  CFF21CAx        Rx   d 8 21 00 6F 17 3B 38 00 24
   5.208000 1  18F107F3x       Rx   d 8 38 A4 30 70 01 51 00 B4
   5.210000 1  18F108F3x       Rx   d 8 00 00 00 00 00 00 00 00
   5.212000 1  18F155F3x       Rx   d 8 36 35 36 36 35 36 36 00
   5.214000 1  18F156F3x       Rx   d 8 00 00 00 00 00 00 00 00
   5.216000 1  18F157F3x       Rx   d 8 00 00 00 00 00 00 00 00
   5.218000 1  18F158F3x       Rx   d 8 00 00 00 00 00 00 00 00
   5.220000 1  18F159F3x       Rx   d 8 00 00 00 00 00 00 00 00
   5.222000 1  18F100D0x       Rx   d 8 0C FF FF FF FF FF FF FF
   5.224000 1  18F15AF3x       Rx   d 8 00 00 00 00 00 00 00 00
   5.226000 1  18F15BF3x       Rx   d 7 00 00 00 00 00 00 00
   5.227000 1  18F15CF3x       Rx   d 8 00 00 00 00 00 00 00 00
   5.229000 1  18F15DF3x       Rx   d 8 00 00 00 00 00 00 00 00
   5.230000 1  18F15EF3x       Rx   d 8 00 00 00 00 00 00 00 00
   5.231000 1  CFF21CAx        Rx   d 8 22 00 70 17 3B 38 00 24
   5.233000 1  CFF21CAx        Rx   d 8 22 00 6E 17 3B 38 00 24
   5.234000 1  18FF2112x       Rx   d 8 01 00 00 00 00 00 00 00
   5.283000 1  18F100D0x       Rx   d 8 0C FF FF FF FF FF FF FF
   5.286000 1  CFF21CAx        Rx   d 8 22 00 70 17 3B 38 00 24
   5.288000 1  CFF21CAx        Rx   d 8 23 00 6E 17 3B 38 00 24
   5.290000 1  CFF21CAx        Rx   d 8 23 00 69 17 3B 38 00 24
   5.291000 1  18F100D0x       Rx   d 8 0C FF FF FF FF FF FF FF
   5.293000 1  CFF21CAx        Rx   d 8 21 00 6E 17 3B 38 00 24
   5.295000 1  CFF21CAx        Rx   d 8 21 00 6C 17 3B 38 00 24
   5.297000 1  18F100D0x       Rx   d 8 0C FF FF FF FF FF FF FF
   5.299000 1  CFF21CAx        Rx   d 8 21 00 6C 17 3B 38 00 24
   5.301000 1  18F100F3x       Rx   d 8 02 EC 7E 57 98 FA 14 00
   5.303000 1  18F102F3x       Rx   d 8 0E 9F 0E 96 13 0A 00 09
   5.305000 1  18F106F3x       Rx   d 8 45 E0 FC FF FF FF FF FF
   5.306000 1  18F107F3x       Rx   d 8 38 A4 30 70 01 51 00 B4
   5.308000 1  18F108F3x       Rx   d 8 00 00 00 00 00 00 00 00
   5.310000 1  18F155F3x       Rx   d 8 36 35 36 36 35 36 36 00
   5.311000 1  18F156F3x       Rx   d 8 00 00 00 00 00 00 00 00
   5.313000 1  18F157F3x       Rx   d 8 00 00 00 00 00 00 00 00
   5.315000 1  18F158F3x       Rx   d 8 00 00 00 00 00 00 00 00
   5.317000 1  18F159F3x       Rx   d 8 00 00 00 00 00 00 00 00
   5.319000 1  18F15AF3x       Rx   d 8 00 00 00 00 00 00 00 00
   5.321000 1  CFF21CAx        Rx   d 8 21 00 6D 17 3B 38 00 24
   5.323000 1  18F100D0x       Rx   d 8 0C FF FF FF FF FF FF FF
   5.325000 1  18F15BF3x       Rx   d 7 00 00 00 00 00 00 00
   5.327000 1  18F15CF3x       Rx   d 8 00 00 00 00 00 00 00 00
   5.328000 1  18F15DF3x       Rx   d 8 00 00 00 00 00 00 00 00
   5.330000 1  18F15EF3x       Rx   d 8 00 00 00 00 00 00 00 00
   5.331000 1  CFF21CAx        Rx   d 8 21 00 6B 17 3B 38 00 24
   5.332000 1  18FF2112x       Rx   d 8 01 00 00 00 00 00 00 00
   5.334000 1  CFF21CAx        Rx   d 8 21 00 6D 17 3B 38 00 24
   5.335000 1  18F100D0x       Rx   d 8 0C FF FF FF FF FF FF FF
   5.386000 1  CFF21CAx        Rx   d 8 21 00 68 17 3B 38 00 24
   5.388000 1  CFF21CAx        Rx   d 8 21 00 6D 17 3B 38 00 24
   5.390000 1  18F100D0x       Rx   d 8 0C FF FF FF FF FF FF FF
   5.392000 1  CFF21CAx        Rx   d 8 22 00 68 17 3B 38 00 24
   5.395000 1  CFF21CAx        Rx   d 8 22 00 6B 17 3B 38 00 24
   5.396000 1  18F100D0x       Rx   d 8 0C FF FF FF FF FF FF FF
   5.398000 1  CFF21CAx        Rx   d 8 22 00 6A 17 3B 38 00 24
   5.400000 1  18F100F3x       Rx   d 8 02 EC 7E 56 98 FA 14 00
   5.402000 1  18F102F3x       Rx   d 8 0E 9F 0E 96 13 0A 00 09
   5.404000 1  18F106F3x       Rx   d 8 45 E0 FC FF FF FF FF FF
   5.406000 1  18F107F3x       Rx   d 8 38 A4 30 70 01 51 00 B4
   5.408000 1  18F108F3x       Rx   d 8 00 00 00 00 00 00 00 00
   5.410000 1  18F155F3x       Rx   d 8 36 35 36 36 35 36 36 00
   5.412000 1  18F156F3x       Rx   d 8 00 00 00 00 00 00 00 00
   5.414000 1  CFF21CAx        Rx   d 8 23 00 6B 17 3B 38 00 24
   5.416000 1  18F100D0x       Rx   d 8 0C FF FF FF FF FF FF FF
   5.418000 1  18F157F3x       Rx   d 8 00 00 00 00 00 00 00 00
   5.419000 1  18F158F3x       Rx   d 8 00 00 00 00 00 00 00 00
   5.421000 1  18F159F3x       Rx   d 8 00 00 00 00 00 00 00 00
   5.423000 1  18F15AF3x       Rx   d 8 00 00 00 00 00 00 00 00
   5.425000 1  18F15BF3x       Rx   d 7 00 00 00 00 00 00 00
   5.427000 1  18F15CF3x       Rx   d 8 00 00 00 00 00 00 00 00
   5.429000 1  18F15DF3x       Rx   d 8 00 00 00 00 00 00 00 00
   5.430000 1  18F15EF3x       Rx   d 8 00 00 00 00 00 00 00 00
   5.432000 1  CFF21CAx        Rx   d 8 23 00 69 17 3B 38 00 24
   5.433000 1  18FF2112x       Rx   d 8 01 00 00 00 00 00 00 00
   5.435000 1  CFF21CAx        Rx   d 8 23 00 6C 17 3B 38 00 24
   5.436000 1  18F100D0x       Rx   d 8 0C FF FF FF FF FF FF FF
   5.437000 1  CFF21CAx        Rx   d 8 23 00 6D 17 3B 38 00 24
   5.439000 1  CFF21CAx        Rx   d 8 23 00 6B 17 3B 38 00 24
   5.491000 1  18F100D0x       Rx   d 8 0C FF FF FF FF FF FF FF
   5.493000 1  CFF21CAx        Rx   d 8 23 00 6F 17 3B 38 00 24
   5.494000 1  18F104F3x       Rx   d 8 36 35 01 02 01 FF FF FF
   5.496000 1  18F113F3x       Rx   d 8 0E 9D 0E 99 0E 9C 0E 9B
   5.498000 1  18F114F3x       Rx   d 8 0E 99 0E 98 0E 9D 0E 9A
   5.500000 1  18F115F3x       Rx   d 8 0E 99 0E 96 0E 9A 0E 9A
   5.501000 1  CFF21CAx        Rx   d 8 23 00 6B 17 3B 38 00 24
   5.503000 1  18F116F3x       Rx   d 8 0E 9E 0E 98 0E 9D 0E 9D
   5.505000 1  18F117F3x       Rx   d 8 0E 97 0E 9A 0E 9F 0E 9D
   5.507000 1  18F118F3x       Rx   d 8 00 00 00 00 00 00 00 00
   5.509000 1  18F100D0x       Rx   d 8 0C FF FF FF FF FF FF FF
   5.511000 1  18F119F3x       Rx   d 8 00 00 00 00 00 00 00 00
   5.513000 1  18F11AF3x       Rx   d 8 00 00 00 00 00 00 00 00
   5.515000 1  18F11BF3x       Rx   d 8 00 00 00 00 00 00 00 00
   5.517000 1  18F11CF3x       Rx   d 8 00 00 00 00 00 00 00 00
   5.519000 1  18F11EF3x       Rx   d 8 00 00 00 00 00 00 00 00
   5.521000 1  18F120F3x       Rx   d 8 00 00 00 00 00 00 00 00
   5.522000 1  18F121F3x       Rx   d 8 00 00 00 00 00 00 00 00
   5.524000 1  18F124F3x       Rx   d 8 00 00 00 00 00 00 00 00
   5.526000 1  18F126F3x       Rx   d 8 00 00 00 00 00 00 00 00
   5.528000 1  18F128F3x       Rx   d 8 00 00 00 00 00 00 00 00
   5.530000 1  18F100F3x       Rx   d 8 02 EC 7E 56 98 FA 14 00
   5.532000 1  18F106F3x       Rx   d 8 45 E0 FC FF FF FF FF FF
   5.533000 1  CFF21CAx        Rx   d 8 23 00 6A 17 3B 38 00 24
   5.535000 1  18F108F3x       Rx   d 8 00 00 00 00 00 00 00 00
   5.536000 1  18F12AF3x       Rx   d 8 00 00 00 00 00 00 00 00
   5.537000 1  18F12DF3x       Rx   d 8 00 00 00 00 00 00 00 00
   5.539000 1  18F100D0x       Rx   d 8 0C FF FF FF FF FF FF FF
   5.540000 1  18F131F3x       Rx   d 8 00 00 00 00 00 00 00 00
   5.591000 1  CFF21CAx        Rx   d 8 23 00 6A 17 3B 38 00 24
