date Mon May 25 15:04:08.195 2026
base hex  timestamps absolute
internal events logged
Begin Triggerblock Wed Dec 31 16:01:31.235 1969
 0.000000 Start of measurement
 0.000000 2  18FF2112x       Rx   d 8 01 00 00 00 00 00 00 00
 0.005700 2  CFF21CAx        Rx   d 8 02 00 80 0C 3C 39 00 10
 0.017700 2  CFF21CAx        Rx   d 8 02 00 80 0C 3C 39 00 10
 0.018300 2  18F100D0x       Rx   d 8 0C FF FF FF FF FF FF FF
 0.029800 2  CFF21CAx        Rx   d 8 02 00 80 0C 3C 39 00 10
 0.041800 2  CFF21CAx        Rx   d 8 02 00 80 0C 3C 39 00 10
 0.042400 2  18F100D0x       Rx   d 8 0C FF FF FF FF FF FF FF
 0.053900 2  CFF21CAx        Rx   d 8 02 00 80 0C 3C 39 00 10
 0.059000 2  18F100F3x       Rx   d 8 03 01 7D 12 B1 FA 14 00
 0.059900 2  18F102F3x       Rx   d 8 0F 0B 0F 05 10 06 00 06
 0.061200 2  18F106F3x       Rx   d 8 45 E0 FC FF FF FF FF FF
 0.062400 2  18F107F3x       Rx   d 8 38 A4 30 70 01 5A 00 B9
 0.064200 2  18F108F3x       Rx   d 8 00 00 00 00 00 00 00 00
 0.065000 2  18F155F3x       Rx   d 8 37 37 37 37 37 37 37 00
 0.065900 2  CFF21CAx        Rx   d 8 02 00 80 0C 3C 39 00 10
 0.066500 2  18F156F3x       Rx   d 8 00 00 00 00 00 00 00 00
 0.067400 2  18F157F3x       Rx   d 8 00 00 00 00 00 00 00 00
 0.068300 2  18F158F3x       Rx   d 8 00 00 00 00 00 00 00 00
 0.069100 2  18F159F3x       Rx   d 8 00 00 00 00 00 00 00 00
 0.069900 2  18F100D0x       Rx   d 8 0C FF FF FF FF FF FF FF
 0.070500 2  18F15AF3x       Rx   d 8 00 00 00 00 00 00 00 00
 0.071300 2  18F15BF3x       Rx   d 7 00 00 00 00 00 00 00 00
 0.072200 2  18F15CF3x       Rx   d 8 00 00 00 00 00 00 00 00
 0.073000 2  18F15DF3x       Rx   d 8 00 00 00 00 00 00 00 00
 0.073900 2  18F15EF3x       Rx   d 8 00 00 00 00 00 00 00 00
 0.078400 2  CFF21CAx        Rx   d 8 02 00 80 0C 3C 39 00 10
 0.090000 2  CFF21CAx        Rx   d 8 02 00 80 0C 3C 39 00 10
 0.094000 2  18F100D0x       Rx   d 8 0C FF FF FF FF FF FF FF
 0.097200 2  18FF2112x       Rx   d 8 01 00 00 00 00 00 00 00
 0.102000 2  CFF21CAx        Rx   d 8 03 00 80 0C 3C 39 00 10
 0.114000 2  CFF21CAx        Rx   d 8 03 00 80 0C 3C 39 00 10
 0.118100 2  18F100D0x       Rx   d 8 0C FF FF FF FF FF FF FF
 0.126100 2  CFF21CAx        Rx   d 8 03 00 80 0C 3C 39 00 10
 0.138100 2  CFF21CAx        Rx   d 8 04 00 80 0C 3C 39 00 10
 0.142600 2  18F100D0x       Rx   d 8 0C FF FF FF FF FF FF FF
 0.150100 2  CFF21CAx        Rx   d 8 04 00 80 0C 3C 39 00 10
 0.158900 2  18F100F3x       Rx   d 8 03 01 7D 12 B1 FA 14 00
 0.159800 2  18F102F3x       Rx   d 8 0F 0B 0F 05 10 06 00 06
 0.161100 2  18F106F3x       Rx   d 8 45 E0 FC FF FF FF FF FF
 0.162200 2  CFF21CAx        Rx   d 8 04 00 80 0C 3C 39 00 10
 0.162700 2  18F107F3x       Rx   d 8 38 A4 30 70 01 5A 00 B9
 0.164600 2  18F108F3x       Rx   d 8 00 00 00 00 00 00 00 00
 0.165700 2  18F155F3x       Rx   d 8 37 37 37 37 37 37 37 00
 0.166600 2  18F100D0x       Rx   d 8 0C FF FF FF FF FF FF FF
 0.167200 2  18F156F3x       Rx   d 8 00 00 00 00 00 00 00 00
 0.168100 2  18F157F3x       Rx   d 8 00 00 00 00 00 00 00 00
 0.169000 2  18F158F3x       Rx   d 8 00 00 00 00 00 00 00 00
 0.169800 2  18F159F3x       Rx   d 8 00 00 00 00 00 00 00 00
 0.170800 2  18F15AF3x       Rx   d 8 00 00 00 00 00 00 00 00
 0.171600 2  18F15BF3x       Rx   d 7 00 00 00 00 00 00 00 00
 0.172500 2  18F15CF3x       Rx   d 8 00 00 00 00 00 00 00 00
 0.173400 2  18F15DF3x       Rx   d 8 00 00 00 00 00 00 00 00
 0.174200 2  18F15EF3x       Rx   d 8 00 00 00 00 00 00 00 00
 0.174800 2  CFF21CAx        Rx   d 8 03 00 80 0C 3C 39 00 10
 0.186200 2  CFF21CAx        Rx   d 8 03 00 80 0C 3C 39 00 10
 0.190300 2  18F100D0x       Rx   d 8 0C FF FF FF FF FF FF FF
 0.194300 2  18FF2112x       Rx   d 8 01 00 00 00 00 00 00 00
 0.198700 2  CFF21CAx        Rx   d 8 03 00 80 0C 3C 39 00 10
 0.210300 2  CFF21CAx        Rx   d 8 03 00 80 0C 3C 39 00 10
 0.214800 2  18F100D0x       Rx   d 8 0C FF FF FF FF FF FF FF
 0.222300 2  CFF21CAx        Rx   d 8 03 00 80 0C 3C 39 00 10
 0.234400 2  CFF21CAx        Rx   d 8 03 00 80 0C 3C 39 00 10
 0.234900 2  18F100D0x       Rx   d 8 0C FF FF FF FF FF FF FF
 0.246800 2  CFF21CAx        Rx   d 8 03 00 80 0C 3C 39 00 10
 0.258400 2  CFF21CAx        Rx   d 8 03 00 80 0C 3C 39 00 10
 0.259000 2  18F100D0x       Rx   d 8 0C FF FF FF FF FF FF FF
 0.259600 2  18F100F3x       Rx   d 8 03 01 7D 12 B1 FA 14 00
 0.260500 2  18F102F3x       Rx   d 8 0F 0B 0F 05 10 06 00 06
 0.261700 2  18F106F3x       Rx   d 8 45 E0 FC FF FF FF FF FF
 0.263000 2  18F107F3x       Rx   d 8 38 A4 30 70 01 5A 00 B9
 0.264800 2  18F108F3x       Rx   d 8 00 00 00 00 00 00 00 00
 0.265800 2  18F155F3x       Rx   d 8 37 37 37 37 37 37 37 00
 0.266700 2  18F156F3x       Rx   d 8 00 00 00 00 00 00 00 00
 0.267700 2  18F157F3x       Rx   d 8 00 00 00 00 00 00 00 00
 0.268600 2  18F158F3x       Rx   d 8 00 00 00 00 00 00 00 00
 0.269500 2  18F159F3x       Rx   d 8 00 00 00 00 00 00 00 00
 0.270400 2  18F15AF3x       Rx   d 8 00 00 00 00 00 00 00 00
 0.271000 2  CFF21CAx        Rx   d 8 03 00 80 0C 3C 39 00 10
 0.271500 2  18F15BF3x       Rx   d 7 00 00 00 00 00 00 00 00
 0.272400 2  18F15CF3x       Rx   d 8 00 00 00 00 00 00 00 00
 0.273300 2  18F15DF3x       Rx   d 8 00 00 00 00 00 00 00 00
 0.274100 2  18F15EF3x       Rx   d 8 00 00 00 00 00 00 00 00
 0.282500 2  CFF21CAx        Rx   d 8 03 00 80 0C 3C 39 00 10
 0.283100 2  18F100D0x       Rx   d 8 0C FF FF FF FF FF FF FF
 0.291500 2  18FF2112x       Rx   d 8 01 00 00 00 00 00 00 00
 0.294600 2  CFF21CAx        Rx   d 8 03 00 80 0C 3C 39 00 10
 0.306600 2  CFF21CAx        Rx   d 8 03 00 80 0C 3C 39 00 10
 0.311000 2  18F100D0x       Rx   d 8 0C FF FF FF FF FF FF FF
 0.318600 2  CFF21CAx        Rx   d 8 03 00 80 0C 3C 39 00 10
 0.330600 2  CFF21CAx        Rx   d 8 03 00 80 0C 3C 39 00 10
 0.335200 2  18F100D0x       Rx   d 8 0C FF FF FF FF FF FF FF
 0.335700 2  18FECACAx       Rx   d 8 00 00 00 00 00 00 FF FF
 0.343100 2  CFF21CAx        Rx   d 8 03 00 80 0C 3C 39 00 10
 0.354700 2  CFF21CAx        Rx   d 8 03 00 80 0C 3C 39 00 10
 0.358600 2  18F100F3x       Rx   d 8 03 01 7D 12 B1 FA 14 00
 0.359200 2  18F100D0x       Rx   d 8 0C FF FF FF FF FF FF FF
 0.359800 2  18F102F3x       Rx   d 8 0F 0B 0F 05 10 06 00 06
 0.361000 2  18F106F3x       Rx   d 8 45 E0 FC FF FF FF FF FF
 0.362300 2  18F107F3x       Rx   d 8 38 A4 30 70 01 5A 00 B9
 0.364100 2  18F108F3x       Rx   d 8 00 00 00 00 00 00 00 00
 0.364900 2  18F155F3x       Rx   d 8 37 37 37 37 37 37 37 00
 0.365800 2  18F156F3x       Rx   d 8 00 00 00 00 00 00 00 00
 0.366700 2  18F157F3x       Rx   d 8 00 00 00 00 00 00 00 00
 0.367300 2  CFF21CAx        Rx   d 8 03 00 80 0C 3C 39 00 10
 0.367800 2  18F158F3x       Rx   d 8 00 00 00 00 00 00 00 00
 0.368700 2  18F159F3x       Rx   d 8 00 00 00 00 00 00 00 00
 0.369600 2  18F15AF3x       Rx   d 8 00 00 00 00 00 00 00 00
 0.370500 2  18F15BF3x       Rx   d 7 00 00 00 00 00 00 00 00
 0.371400 2  18F15CF3x       Rx   d 8 00 00 00 00 00 00 00 00
 0.372300 2  18F15DF3x       Rx   d 8 00 00 00 00 00 00 00 00
 0.373100 2  18F15EF3x       Rx   d 8 00 00 00 00 00 00 00 00
 0.378800 2  CFF21CAx        Rx   d 8 03 00 80 0C 3C 39 00 10
 0.386800 2  18F100D0x       Rx   d 8 0C FF FF FF FF FF FF FF
 0.388600 2  18FF2112x       Rx   d 8 01 00 00 00 00 00 00 00
 0.390900 2  CFF21CAx        Rx   d 8 02 00 80 0C 3C 39 00 10
 0.402800 2  CFF21CAx        Rx   d 8 02 00 80 0C 3C 39 00 10
 0.410900 2  18F100D0x       Rx   d 8 0C FF FF FF FF FF FF FF
 0.414900 2  CFF21CAx        Rx   d 8 02 00 80 0C 3C 39 00 10
 0.426900 2  CFF21CAx        Rx   d 8 02 00 80 0C 3C 39 00 10
 0.434900 2  18F100D0x       Rx   d 8 0C FF FF FF FF FF FF FF
 0.439400 2  CFF21CAx        Rx   d 8 02 00 80 0C 3C 39 00 10
 0.451000 2  CFF21CAx        Rx   d 8 02 00 80 0C 3C 39 00 10
 0.458500 2  18F100F3x       Rx   d 8 03 01 7D 12 B1 FA 14 00
 0.459100 2  18F100D0x       Rx   d 8 0C FF FF FF FF FF FF FF
 0.459700 2  18F102F3x       Rx   d 8 0F 0B 0F 05 10 06 00 06
 0.460900 2  18F106F3x       Rx   d 8 45 E0 FC FF FF FF FF FF
 0.462200 2  18F107F3x       Rx   d 8 38 A4 30 70 01 5A 00 B9
 0.463600 2  CFF21CAx        Rx   d 8 02 00 80 0C 3C 39 00 10
 0.464200 2  18F108F3x       Rx   d 8 00 00 00 00 00 00 00 00
 0.465400 2  18F155F3x       Rx   d 8 37 37 37 37 37 37 37 00
 0.466300 2  18F156F3x       Rx   d 8 00 00 00 00 00 00 00 00
 0.467200 2  18F157F3x       Rx   d 8 00 00 00 00 00 00 00 00
 0.468200 2  18F158F3x       Rx   d 8 00 00 00 00 00 00 00 00
 0.469100 2  18F159F3x       Rx   d 8 00 00 00 00 00 00 00 00
 0.469900 2  18F15AF3x       Rx   d 8 00 00 00 00 00 00 00 00
 0.470700 2  18F15BF3x       Rx   d 7 00 00 00 00 00 00 00 00
 0.471600 2  18F15CF3x       Rx   d 8 00 00 00 00 00 00 00 00
 0.472400 2  18F15DF3x       Rx   d 8 00 00 00 00 00 00 00 00
 0.473300 2  18F15EF3x       Rx   d 8 00 00 00 00 00 00 00 00
 0.475000 2  CFF21CAx        Rx   d 8 02 00 80 0C 3C 39 00 10
 0.485800 2  18FF2112x       Rx   d 8 01 00 00 00 00 00 00 00
 0.487200 2  CFF21CAx        Rx   d 8 02 00 80 0C 3C 39 00 10
 0.487700 2  18F100D0x       Rx   d 8 0C FF FF FF FF FF FF FF
 0.499100 2  CFF21CAx        Rx   d 8 02 00 80 0C 3C 39 00 10
 0.511100 2  CFF21CAx        Rx   d 8 02 00 80 0C 3C 39 00 10
 0.511700 2  18F100D0x       Rx   d 8 0C FF FF FF FF FF FF FF
 0.523200 2  CFF21CAx        Rx   d 8 01 00 80 0C 3C 39 00 10
 0.535700 2  CFF21CAx        Rx   d 8 01 00 80 0C 3C 39 00 10
 0.536200 2  18F100D0x       Rx   d 8 0C FF FF FF FF FF FF FF
 0.547200 2  CFF21CAx        Rx   d 8 01 00 80 0C 3C 39 00 10
 0.558400 2  18F100F3x       Rx   d 8 03 01 7D 12 B1 FA 14 00
 0.559300 2  18F102F3x       Rx   d 8 0F 0B 0F 05 10 06 00 06
 0.559800 2  CFF21CAx        Rx   d 8 01 00 80 0C 3C 39 00 10
 0.560400 2  18F100D0x       Rx   d 8 0C FF FF FF FF FF FF FF
 0.561000 2  18F106F3x       Rx   d 8 45 E0 FC FF FF FF FF FF
 0.562300 2  18F107F3x       Rx   d 8 38 A4 30 70 01 5A 00 B9
 0.564100 2  18F108F3x       Rx   d 8 00 00 00 00 00 00 00 00
 0.565300 2  18F155F3x       Rx   d 8 37 37 37 37 37 37 37 00
 0.566200 2  18F156F3x       Rx   d 8 00 00 00 00 00 00 00 00
 0.567100 2  18F157F3x       Rx   d 8 00 00 00 00 00 00 00 00
 0.568100 2  18F158F3x       Rx   d 8 00 00 00 00 00 00 00 00
 0.568900 2  18F159F3x       Rx   d 8 00 00 00 00 00 00 00 00
 0.569800 2  18F15AF3x       Rx   d 8 00 00 00 00 00 00 00 00
 0.570600 2  18F15BF3x       Rx   d 7 00 00 00 00 00 00 00 00
 0.571300 2  CFF21CAx        Rx   d 8 01 00 80 0C 3C 39 00 10
 0.571900 2  18F15CF3x       Rx   d 8 00 00 00 00 00 00 00 00
 0.572700 2  18F15DF3x       Rx   d 8 00 00 00 00 00 00 00 00
 0.573600 2  18F15EF3x       Rx   d 8 00 00 00 00 00 00 00 00
 0.582900 2  18FF2112x       Rx   d 8 01 00 00 00 00 00 00 00
 0.583800 2  CFF21CAx        Rx   d 8 02 00 80 0C 3C 39 00 10
 0.584400 2  18F100D0x       Rx   d 8 0C FF FF FF FF FF FF FF
 0.595400 2  CFF21CAx        Rx   d 8 02 00 80 0C 3C 39 00 10
 0.607400 2  CFF21CAx        Rx   d 8 02 00 80 0C 3C 39 00 10
 0.608000 2  18F100D0x       Rx   d 8 0C FF FF FF FF FF FF FF
 0.619500 2  CFF21CAx        Rx   d 8 02 00 80 0C 3C 39 00 10
 0.631900 2  CFF21CAx        Rx   d 8 02 00 80 0C 3C 39 00 10
 0.635500 2  18F100D0x       Rx   d 8 0C FF FF FF FF FF FF FF
 0.643500 2  CFF21CAx        Rx   d 8 02 00 80 0C 3C 39 00 10
 0.655500 2  CFF21CAx        Rx   d 8 03 00 80 0C 3C 39 00 10
 0.658300 2  18F100F3x       Rx   d 8 03 01 7D 12 B1 FA 14 00
 0.659200 2  18F102F3x       Rx   d 8 0F 0B 0F 05 10 06 00 06
 0.659700 2  18F100D0x       Rx   d 8 0C FF FF FF FF FF FF FF
 0.660600 2  18F106F3x       Rx   d 8 45 E0 FC FF FF FF FF FF
 0.661900 2  18F107F3x       Rx   d 8 38 A4 30 70 01 5A 00 B9
 0.663700 2  18F108F3x       Rx   d 8 00 00 00 00 00 00 00 00
 0.664500 2  18F155F3x       Rx   d 8 37 37 37 37 37 37 37 00
 0.665400 2  18F156F3x       Rx   d 8 00 00 00 00 00 00 00 00
 0.666300 2  18F157F3x       Rx   d 8 00 00 00 00 00 00 00 00
 0.667200 2  18F158F3x       Rx   d 8 00 00 00 00 00 00 00 00
 0.667800 2  CFF21CAx        Rx   d 8 03 00 80 0C 3C 39 00 10
 0.668300 2  18F159F3x       Rx   d 8 00 00 00 00 00 00 00 00
 0.669200 2  18F15AF3x       Rx   d 8 00 00 00 00 00 00 00 00
 0.670100 2  18F15BF3x       Rx   d 7 00 00 00 00 00 00 00 00
 0.671000 2  18F15CF3x       Rx   d 8 00 00 00 00 00 00 00 00
 0.671800 2  18F15DF3x       Rx   d 8 00 00 00 00 00 00 00 00
 0.672700 2  18F15EF3x       Rx   d 8 00 00 00 00 00 00 00 00
 0.679600 2  CFF21CAx        Rx   d 8 03 00 80 0C 3C 39 00 10
 0.680200 2  18FF2112x       Rx   d 8 01 00 00 00 00 00 00 00
 0.683600 2  18F100D0x       Rx   d 8 0C FF FF FF FF FF FF FF
 0.691700 2  CFF21CAx        Rx   d 8 03 00 80 0C 3C 39 00 10
 0.703700 2  CFF21CAx        Rx   d 8 03 00 80 0C 3C 39 00 10
 0.707700 2  18F100D0x       Rx   d 8 0C FF FF FF FF FF FF FF
 0.715700 2  CFF21CAx        Rx   d 8 03 00 80 0C 3C 39 00 10
 0.727800 2  CFF21CAx        Rx   d 8 03 00 80 0C 3C 39 00 10
 0.731800 2  18F100D0x       Rx   d 8 0C FF FF FF FF FF FF FF
 0.739700 2  18F104F3x       Rx   d 8 37 37 01 01 00 FF FF FF
 0.740200 2  CFF21CAx        Rx   d 8 03 00 80 0C 3C 39 00 10
 0.740800 2  18F113F3x       Rx   d 8 0F 06 0F 06 0F 07 0F 06
 0.741700 2  18F114F3x       Rx   d 8 0F 06 0F 05 0F 08 0F 08
 0.742600 2  18F115F3x       Rx   d 8 0F 05 0F 05 0F 05 0F 05
 0.743500 2  18F116F3x       Rx   d 8 0F 09 0F 06 0F 09 0F 0B
 0.744400 2  18F117F3x       Rx   d 8 0F 06 0F 08 0F 0A 0F 09
 0.745300 2  18F118F3x       Rx   d 8 00 00 00 00 00 00 00 00
 0.746300 2  18F119F3x       Rx   d 8 00 00 00 00 00 00 00 00
 0.747200 2  18F11AF3x       Rx   d 8 00 00 00 00 00 00 00 00
 0.748100 2  18F11BF3x       Rx   d 8 00 00 00 00 00 00 00 00
 0.749100 2  18F11CF3x       Rx   d 8 00 00 00 00 00 00 00 00
 0.750100 2  18F11DF3x       Rx   d 8 00 00 00 00 00 00 00 00
 0.751000 2  18F11EF3x       Rx   d 8 00 00 00 00 00 00 00 00
 0.751800 2  CFF21CAx        Rx   d 8 03 00 80 0C 3C 39 00 10
 0.752400 2  18F11FF3x       Rx   d 8 00 00 00 00 00 00 00 00
 0.753300 2  18F120F3x       Rx   d 8 00 00 00 00 00 00 00 00
 0.754200 2  18F121F3x       Rx   d 8 00 00 00 00 00 00 00 00
 0.755300 2  18F122F3x       Rx   d 8 00 00 00 00 00 00 00 00
 0.756200 2  18F123F3x       Rx   d 8 00 00 00 00 00 00 00 00
 0.757100 2  18F124F3x       Rx   d 8 00 00 00 00 00 00 00 00
 0.758100 2  18F125F3x       Rx   d 8 00 00 00 00 00 00 00 00
 0.759100 2  18F100F3x       Rx   d 8 03 01 7D 12 B1 FA 14 00
 0.759900 2  18F100D0x       Rx   d 8 0C FF FF FF FF FF FF FF
 0.760500 2  18F102F3x       Rx   d 8 0F 0B 0F 05 10 06 00 06
 0.761800 2  18F106F3x       Rx   d 8 45 E0 FC FF FF FF FF FF
 0.763200 2  18F107F3x       Rx   d 8 38 A4 30 70 01 5A 00 B9
 0.763900 2  CFF21CAx        Rx   d 8 03 00 80 0C 3C 39 00 10
 0.765300 2  18F108F3x       Rx   d 8 00 00 00 00 00 00 00 00
 0.766200 2  18F126F3x       Rx   d 8 00 00 00 00 00 00 00 00
 0.767100 2  18F127F3x       Rx   d 8 00 00 00 00 00 00 00 00
 0.768100 2  18F128F3x       Rx   d 8 00 00 00 00 00 00 00 00
 0.769100 2  18F129F3x       Rx   d 8 00 00 00 00 00 00 00 00
 0.770000 2  18F12AF3x       Rx   d 8 00 00 00 00 00 00 00 00
 0.771000 2  18F12BF3x       Rx   d 8 00 00 00 00 00 00 00 00
 0.771900 2  18F12CF3x       Rx   d 8 00 00 00 00 00 00 00 00
 0.772900 2  18F12DF3x       Rx   d 8 00 00 00 00 00 00 00 00
 0.773800 2  18F12EF3x       Rx   d 8 00 00 00 00 00 00 00 00
 0.775000 2  18F12FF3x       Rx   d 8 00 00 00 00 00 00 00 00
 0.775900 2  CFF21CAx        Rx   d 8 03 00 80 0C 3C 39 00 10
 0.776500 2  18F130F3x       Rx   d 8 00 00 00 00 00 00 00 00
 0.777200 2  18FF2112x       Rx   d 8 01 00 00 00 00 00 00 00
 0.777800 2  18F131F3x       Rx   d 8 00 00 00 00 00 00 00 00
 0.778700 2  18F132F3x       Rx   d 8 00 00 00 00 00 00 00 00
 0.779600 2  18F133F3x       Rx   d 8 00 00 00 00 00 00 00 00
 0.780500 2  18F134F3x       Rx   d 8 00 00 00 00 00 00 00 00
 0.781300 2  18F135F3x       Rx   d 8 00 00 00 00 00 00 00 00
 0.782200 2  18F136F3x       Rx   d 8 00 00 00 00 00 00 00 00
 0.783100 2  18F137F3x       Rx   d 8 00 00 00 00 00 00 00 00
 0.783900 2  18F100D0x       Rx   d 8 0C FF FF FF FF FF FF FF
 0.784500 2  18F138F3x       Rx   d 8 00 00 00 00 00 00 00 00
 0.785400 2  18F139F3x       Rx   d 8 00 00 00 00 00 00 00 00
 0.786200 2  18F13AF3x       Rx   d 8 00 00 00 00 00 00 00 00
 0.787100 2  18F13BF3x       Rx   d 8 00 00 00 00 00 00 00 00
 0.787900 2  CFF21CAx        Rx   d 8 03 00 80 0C 3C 39 00 10
 0.788500 2  18F13CF3x       Rx   d 8 00 00 00 00 00 00 00 00
 0.789400 2  18F155F3x       Rx   d 8 37 37 37 37 37 37 37 00
 0.790300 2  18F156F3x       Rx   d 8 00 00 00 00 00 00 00 00
 0.791100 2  18F157F3x       Rx   d 8 00 00 00 00 00 00 00 00
 0.792000 2  18F158F3x       Rx   d 8 00 00 00 00 00 00 00 00
 0.793000 2  18F159F3x       Rx   d 8 00 00 00 00 00 00 00 00
 0.793900 2  18F15AF3x       Rx   d 8 00 00 00 00 00 00 00 00
 0.795000 2  18F15BF3x       Rx   d 7 00 00 00 00 00 00 00 00
 0.795900 2  18F15CF3x       Rx   d 8 00 00 00 00 00 00 00 00
 0.796800 2  18F15DF3x       Rx   d 8 00 00 00 00 00 00 00 00
 0.797700 2  18F15EF3x       Rx   d 8 00 00 00 00 00 00 00 00
 0.800000 2  CFF21CAx        Rx   d 8 03 00 80 0C 3C 39 00 10
 0.808000 2  18F100D0x       Rx   d 8 0C FF FF FF FF FF FF FF
 0.812000 2  CFF21CAx        Rx   d 8 03 00 80 0C 3C 39 00 10
 0.824000 2  CFF21CAx        Rx   d 8 03 00 80 0C 3C 39 00 10
 0.832100 2  18F100D0x       Rx   d 8 0C FF FF FF FF FF FF FF
 0.836100 2  CFF21CAx        Rx   d 8 03 00 80 0C 3C 39 00 10
 0.848100 2  CFF21CAx        Rx   d 8 03 00 80 0C 3C 39 00 10
 0.858100 2  18F100F3x       Rx   d 8 03 01 7D 12 B1 FA 14 00
 0.858900 2  18F102F3x       Rx   d 8 0F 0B 0F 05 10 06 00 06
 0.860200 2  CFF21CAx        Rx   d 8 03 00 80 0C 3C 39 00 10
 0.860800 2  18F100D0x       Rx   d 8 0C FF FF FF FF FF FF FF
 0.861300 2  18F106F3x       Rx   d 8 45 E0 FC FF FF FF FF FF
 0.862600 2  18F107F3x       Rx   d 8 38 A4 30 70 01 5A 00 B9
 0.864300 2  18F108F3x       Rx   d 8 00 00 00 00 00 00 00 00
 0.865200 2  18F155F3x       Rx   d 8 37 37 37 37 37 37 37 00
 0.866100 2  18F156F3x       Rx   d 8 00 00 00 00 00 00 00 00
 0.867000 2  18F157F3x       Rx   d 8 00 00 00 00 00 00 00 00
 0.867900 2  18F158F3x       Rx   d 8 00 00 00 00 00 00 00 00
 0.868800 2  18F159F3x       Rx   d 8 00 00 00 00 00 00 00 00
 0.869700 2  18F15AF3x       Rx   d 8 00 00 00 00 00 00 00 00
 0.870500 2  18F15BF3x       Rx   d 7 00 00 00 00 00 00 00 00
 0.871400 2  18F15CF3x       Rx   d 8 00 00 00 00 00 00 00 00
 0.872200 2  CFF21CAx        Rx   d 8 03 00 80 0C 3C 39 00 10
 0.872800 2  18F15DF3x       Rx   d 8 00 00 00 00 00 00 00 00
 0.873700 2  18F15EF3x       Rx   d 8 00 00 00 00 00 00 00 00
 0.874400 2  18FF2112x       Rx   d 8 01 00 00 00 00 00 00 00
 0.884200 2  CFF21CAx        Rx   d 8 03 00 80 0C 3C 39 00 10
 0.884800 2  18F100D0x       Rx   d 8 0C FF FF FF FF FF FF FF
 0.896200 2  CFF21CAx        Rx   d 8 03 00 80 0C 3C 39 00 10
 0.908300 2  CFF21CAx        Rx   d 8 03 00 80 0C 3C 39 00 10
 0.908900 2  18F100D0x       Rx   d 8 0C FF FF FF FF FF FF FF
 0.920300 2  CFF21CAx        Rx   d 8 03 00 80 0C 3C 39 00 10
 0.932400 2  CFF21CAx        Rx   d 8 03 00 80 0C 3C 39 00 10
 0.932900 2  18F100D0x       Rx   d 8 0C FF FF FF FF FF FF FF
 0.944400 2  CFF21CAx        Rx   d 8 03 00 80 0C 3C 39 00 10
 0.956400 2  CFF21CAx        Rx   d 8 03 00 80 0C 3C 39 00 10
 0.957000 2  18F100D0x       Rx   d 8 0C FF FF FF FF FF FF FF
 0.958100 2  18F100F3x       Rx   d 8 03 01 7D 12 B1 FA 14 00
 0.958900 2  18F102F3x       Rx   d 8 0F 0B 0F 05 10 06 00 06
 0.960200 2  18F106F3x       Rx   d 8 45 E0 FC FF FF FF FF FF
 0.961400 2  18F107F3x       Rx   d 8 38 A4 30 70 01 5A 00 B9
 0.963200 2  18F108F3x       Rx   d 8 00 00 00 00 00 00 00 00
 0.964100 2  18F155F3x       Rx   d 8 37 37 37 37 37 37 37 00
 0.965000 2  18F156F3x       Rx   d 8 00 00 00 00 00 00 00 00
 0.965900 2  18F157F3x       Rx   d 8 00 00 00 00 00 00 00 00
 0.966800 2  18F158F3x       Rx   d 8 00 00 00 00 00 00 00 00
 0.967800 2  18F159F3x       Rx   d 8 00 00 00 00 00 00 00 00
 0.968400 2  CFF21CAx        Rx   d 8 03 00 80 0C 3C 39 00 10
 0.969000 2  18F15AF3x       Rx   d 8 00 00 00 00 00 00 00 00
 0.969800 2  18F15BF3x       Rx   d 7 00 00 00 00 00 00 00 00
 0.970700 2  18F15CF3x       Rx   d 8 00 00 00 00 00 00 00 00
 0.971600 2  18FF2112x       Rx   d 8 01 00 00 00 00 00 00 00
 0.972100 2  18F15DF3x       Rx   d 8 00 00 00 00 00 00 00 00
 0.973000 2  18F15EF3x       Rx   d 8 00 00 00 00 00 00 00 00
 0.980500 2  CFF21CAx        Rx   d 8 03 00 80 0C 3C 39 00 10
 0.984500 2  18F100D0x       Rx   d 8 0C FF FF FF FF FF FF FF
 0.992500 2  CFF21CAx        Rx   d 8 03 00 80 0C 3C 39 00 10
 1.004600 2  CFF21CAx        Rx   d 8 03 00 80 0C 3C 39 00 10
 1.008600 2  18F100D0x       Rx   d 8 0C FF FF FF FF FF FF FF
 1.016600 2  CFF21CAx        Rx   d 8 03 00 80 0C 3C 39 00 10
 1.028600 2  CFF21CAx        Rx   d 8 03 00 80 0C 3C 39 00 10
 1.032600 2  18F100D0x       Rx   d 8 0C FF FF FF FF FF FF FF
 1.040600 2  CFF21CAx        Rx   d 8 02 00 80 0C 3C 39 00 10
 1.052700 2  CFF21CAx        Rx   d 8 02 00 80 0C 3C 39 00 10
 1.056700 2  18F100D0x       Rx   d 8 0C FF FF FF FF FF FF FF
 1.057900 2  18F100F3x       Rx   d 8 03 01 7D 12 B1 FA 14 00
 1.058700 2  18F102F3x       Rx   d 8 0F 0B 0F 05 10 06 00 06
 1.060000 2  18F106F3x       Rx   d 8 45 E0 FC FF FF FF FF FF
 1.061300 2  18F107F3x       Rx   d 8 38 A4 30 70 01 5A 00 B9
 1.063100 2  18F108F3x       Rx   d 8 00 00 00 00 00 00 00 00
 1.063900 2  18F155F3x       Rx   d 8 37 37 37 37 37 37 37 00
 1.064700 2  CFF21CAx        Rx   d 8 02 00 80 0C 3C 39 00 10
 1.065300 2  18F156F3x       Rx   d 8 00 00 00 00 00 00 00 00
 1.066200 2  18F157F3x       Rx   d 8 00 00 00 00 00 00 00 00
 1.067100 2  18F158F3x       Rx   d 8 00 00 00 00 00 00 00 00
 1.068000 2  18F159F3x       Rx   d 8 00 00 00 00 00 00 00 00
 1.068700 2  18FF2112x       Rx   d 8 01 00 00 00 00 00 00 00
 1.069300 2  18F15AF3x       Rx   d 8 00 00 00 00 00 00 00 00
 1.070100 2  18F15BF3x       Rx   d 7 00 00 00 00 00 00 00 00
 1.071000 2  18F15CF3x       Rx   d 8 00 00 00 00 00 00 00 00
 1.071800 2  18F15DF3x       Rx   d 8 00 00 00 00 00 00 00 00
 1.072700 2  18F15EF3x       Rx   d 8 00 00 00 00 00 00 00 00
 1.076800 2  CFF21CAx        Rx   d 8 02 00 80 0C 3C 39 00 10
 1.084800 2  18F100D0x       Rx   d 8 0C FF FF FF FF FF FF FF
 1.088800 2  CFF21CAx        Rx   d 8 02 00 80 0C 3C 39 00 10
 1.101300 2  CFF21CAx        Rx   d 8 02 00 80 0C 3C 39 00 10
 1.108900 2  18F100D0x       Rx   d 8 0C FF FF FF FF FF FF FF
 1.112900 2  CFF21CAx        Rx   d 8 02 00 80 0C 3C 39 00 10
 1.125300 2  CFF21CAx        Rx   d 8 02 00 80 0C 3C 39 00 10
 1.133000 2  18F100D0x       Rx   d 8 0C FF FF FF FF FF FF FF
 1.136900 2  CFF21CAx        Rx   d 8 02 00 80 0C 3C 39 00 10
 1.149000 2  CFF21CAx        Rx   d 8 02 00 80 0C 3C 39 00 10
 1.157100 2  18F100D0x       Rx   d 8 0C FF FF FF FF FF FF FF
 1.157900 2  18F100F3x       Rx   d 8 03 01 7D 12 B1 FA 14 00
 1.158700 2  18F102F3x       Rx   d 8 0F 0B 0F 05 10 06 00 06
 1.160000 2  18F106F3x       Rx   d 8 45 E0 FC FF FF FF FF FF
 1.161000 2  CFF21CAx        Rx   d 8 02 00 80 0C 3C 39 00 10
 1.161600 2  18F107F3x       Rx   d 8 38 A4 30 70 01 5A 00 B9
 1.163400 2  18F108F3x       Rx   d 8 00 00 00 00 00 00 00 00
 1.164600 2  18F155F3x       Rx   d 8 37 37 37 37 37 37 37 00
 1.165500 2  18F156F3x       Rx   d 8 00 00 00 00 00 00 00 00
 1.166100 2  18FF2112x       Rx   d 8 01 00 00 00 00 00 00 00
 1.166700 2  18F157F3x       Rx   d 8 00 00 00 00 00 00 00 00
 1.167600 2  18F158F3x       Rx   d 8 00 00 00 00 00 00 00 00
 1.168500 2  18F159F3x       Rx   d 8 00 00 00 00 00 00 00 00
 1.169400 2  18F15AF3x       Rx   d 8 00 00 00 00 00 00 00 00
 1.170300 2  18F15BF3x       Rx   d 7 00 00 00 00 00 00 00 00
 1.171100 2  18F15CF3x       Rx   d 8 00 00 00 00 00 00 00 00
 1.172000 2  18F15DF3x       Rx   d 8 00 00 00 00 00 00 00 00
 1.172800 2  18F15EF3x       Rx   d 8 00 00 00 00 00 00 00 00
 1.173500 2  CFF21CAx        Rx   d 8 02 00 80 0C 3C 39 00 10
 1.185000 2  CFF21CAx        Rx   d 8 02 00 80 0C 3C 39 00 10
 1.185600 2  18F100D0x       Rx   d 8 0C FF FF FF FF FF FF FF
 1.197100 2  CFF21CAx        Rx   d 8 02 00 80 0C 3C 39 00 10
 1.209100 2  CFF21CAx        Rx   d 8 02 00 80 0C 3C 39 00 10
 1.209700 2  18F100D0x       Rx   d 8 0C FF FF FF FF FF FF FF
 1.221200 2  CFF21CAx        Rx   d 8 03 00 80 0C 3C 39 00 10
 1.233200 2  CFF21CAx        Rx   d 8 03 00 80 0C 3C 39 00 10
 1.233800 2  18F100D0x       Rx   d 8 0C FF FF FF FF FF FF FF
 1.245300 2  CFF21CAx        Rx   d 8 03 00 80 0C 3C 39 00 10
 1.257300 2  CFF21CAx        Rx   d 8 02 00 80 0C 3C 39 00 10
 1.257800 2  18F100D0x       Rx   d 8 0C FF FF FF FF FF FF FF
 1.258400 2  18F100F3x       Rx   d 8 03 01 7D 12 B1 FA 14 00
 1.259300 2  18F102F3x       Rx   d 8 0F 0B 0F 05 10 06 00 06
 1.260600 2  18F106F3x       Rx   d 8 45 E0 FC FF FF FF FF FF
 1.261900 2  18F107F3x       Rx   d 8 38 A4 30 70 01 5A 00 B9
 1.263000 2  18FF2112x       Rx   d 8 01 00 00 00 00 00 00 00
 1.263700 2  18F108F3x       Rx   d 8 00 00 00 00 00 00 00 00
 1.264700 2  18F155F3x       Rx   d 8 37 37 37 37 37 37 37 00
